!CSV A.01.01
!Keysight Technologies,N5227B,US58420762,A.13.80.08
!Date: Tuesday, November 21, 2023 09:42:17
!Source: Standard

BEGIN CH1_DATA
Time(s),S21(DB),S21(DEG)
5e-009,-114.94223,138.69307
5.015e-009,-115.27212,161.03922
5.03e-009,-115.715,-176.66382
5.045e-009,-116.27679,-154.4425
5.06e-009,-116.9659,-132.33141
5.075e-009,-117.7935,-110.3684
5.09e-009,-118.77525,-88.603363
5.105e-009,-119.93156,-67.10054
5.12e-009,-121.2923,-45.950165
5.135e-009,-122.8992,-25.28454
5.15e-009,-124.81583,-5.318532
5.165e-009,-127.14436,13.570036
5.18e-009,-130.06264,30.58762
5.195e-009,-133.91508,43.622772
5.21e-009,-139.30923,44.792713
5.225e-009,-143.71667,6.15308
5.24e-009,-139.53204,-24.283083
5.255e-009,-135.68655,-22.495302
5.27e-009,-133.11865,-13.157526
5.285e-009,-131.18419,-1.9291062
5.3e-009,-129.52271,9.9817352
5.315e-009,-127.95028,22.546309
5.33e-009,-126.39669,36.064384
5.345e-009,-124.8615,50.798294
5.36e-009,-123.3736,66.841492
5.375e-009,-121.9651,84.12674
5.39e-009,-120.66006,102.50613
5.405e-009,-119.4727,121.80724
5.42e-009,-118.40955,141.87325
5.435e-009,-117.47255,162.56845
5.45e-009,-116.6609,-176.21977
5.465e-009,-115.97314,-154.57794
5.48e-009,-115.40801,-132.57208
5.495e-009,-114.96465,-110.25257
5.51e-009,-114.644,-87.655731
5.525e-009,-114.4483,-64.806419
5.54e-009,-114.38203,-41.714943
5.555e-009,-114.45261,-18.38139
5.57e-009,-114.67111,5.2107596
5.585e-009,-115.05347,29.099253
5.6e-009,-115.62336,53.355549
5.615e-009,-116.41502,78.105957
5.63e-009,-117.47987,103.58614
5.645e-009,-118.89576,130.25043
5.66e-009,-120.78239,159.08527
5.675e-009,-123.29328,-167.50807
5.69e-009,-126.33338,-123.25311
5.705e-009,-127.79967,-60.443317
5.72e-009,-125.25011,-1.2187421
5.735e-009,-121.8731,39.894119
5.75e-009,-119.11613,72.046112
5.765e-009,-116.9489,100.38455
5.78e-009,-115.21891,126.8706
5.795e-009,-113.81579,152.33301
5.81e-009,-112.66729,177.16708
5.825e-009,-111.72517,-158.41875
5.84e-009,-110.95648,-134.30698
5.855e-009,-110.33834,-110.4277
5.87e-009,-109.85432,-86.74147
5.885e-009,-109.49252,-63.224339
5.9e-009,-109.24421,-39.865528
5.915e-009,-109.10352,-16.661993
5.93e-009,-109.06615,6.3806634
5.945e-009,-109.12918,29.252184
5.96e-009,-109.29115,51.934387
5.975e-009,-109.5514,74.403374
5.99e-009,-109.90993,96.625343
6.005e-009,-110.36705,118.56104
6.02e-009,-110.92333,140.15668
6.035e-009,-111.5785,161.34866
6.05e-009,-112.33121,-177.94017
6.065e-009,-113.17772,-157.80132
6.08e-009,-114.10981,-138.33289
6.095e-009,-115.11366,-119.63131
6.11e-009,-116.1682,-101.7657
6.125e-009,-117.24545,-84.737961
6.14e-009,-118.31542,-68.433449
6.155e-009,-119.35812,-52.584854
6.17e-009,-120.38036,-36.775124
6.185e-009,-121.43116,-20.509964
6.2e-009,-122.61426,-3.2832909
6.215e-009,-124.10098,15.430579
6.23e-009,-126.17913,36.460716
6.245e-009,-129.41731,62.193745
6.26e-009,-135.02831,105.23899
6.275e-009,-135.99957,-152.9572
6.29e-009,-128.68073,-99.390564
6.305e-009,-123.92495,-69.521576
6.32e-009,-120.5885,-44.208065
6.335e-009,-118.03874,-20.264914
6.35e-009,-115.99719,3.1782427
6.365e-009,-114.3205,26.438793
6.38e-009,-112.92641,49.646183
6.395e-009,-111.76402,72.859558
6.41e-009,-110.80006,96.105659
6.425e-009,-110.01246,119.39587
6.44e-009,-109.38656,142.73428
6.455e-009,-108.91314,166.12093
6.47e-009,-108.58731,-170.44577
6.485e-009,-108.4081,-146.968
6.5e-009,-108.37807,-123.44817
6.515e-009,-108.50402,-99.888123
6.53e-009,-108.79752,-76.28891
6.545e-009,-109.27661,-52.650002
6.56e-009,-109.96866,-28.968346
6.575e-009,-110.91515,-5.2368698
6.59e-009,-112.18192,18.56147
6.605e-009,-113.88018,42.464283
6.62e-009,-116.21828,66.564453
6.635e-009,-119.6637,91.150948
6.65e-009,-125.69394,117.69497
6.665e-009,-145.52354,-128.83199
6.68e-009,-125.79193,-26.836046
6.695e-009,-120.14266,-0.47859845
6.71e-009,-117.05702,23.914295
6.725e-009,-115.12193,47.73
6.74e-009,-113.90823,71.208382
6.755e-009,-113.24886,94.370041
6.77e-009,-113.0904,117.12527
6.785e-009,-113.45622,139.2404
6.8e-009,-114.45672,160.17725
6.815e-009,-116.35026,178.49277
6.83e-009,-119.67188,-170.89404
6.845e-009,-123.92272,169.54591
6.86e-009,-120.06601,132.67262
6.875e-009,-114.4306,136.45313
6.89e-009,-110.42007,152.93456
6.905e-009,-107.41471,173.19658
6.92e-009,-105.04384,-164.98351
6.935e-009,-103.11824,-142.37111
6.95e-009,-101.53385,-119.29416
6.965e-009,-100.23055,-95.912323
6.98e-009,-99.173538,-72.308937
6.995e-009,-98.345108,-48.526512
7.01e-009,-97.740791,-24.581942
7.025e-009,-97.369003,-0.47014844
7.04e-009,-97.253395,23.839048
7.055e-009,-97.439278,48.414555
7.07e-009,-98.008469,73.402748
7.085e-009,-99.113678,99.136787
7.1e-009,-101.07103,126.52183
7.115e-009,-104.66217,159.01782
7.13e-009,-111.53511,-137.72183
7.145e-009,-106.64379,-26.959625
7.16e-009,-99.434929,14.843718
7.175e-009,-94.781265,44.283134
7.19e-009,-91.297478,70.836929
7.205e-009,-88.468155,96.301422
7.22e-009,-86.060623,121.24321
7.235e-009,-83.951035,145.89577
7.25e-009,-82.065674,170.37248
7.265e-009,-80.357018,-165.2652
7.28e-009,-78.79258,-140.98111
7.295e-009,-77.349098,-116.75267
7.31e-009,-76.009308,-92.565071
7.325e-009,-74.760017,-68.408249
7.34e-009,-73.590897,-44.27512
7.355e-009,-72.493683,-20.160583
7.37e-009,-71.461647,3.9391294
7.385e-009,-70.48925,28.026833
7.4e-009,-69.571854,52.104706
7.415e-009,-68.705536,76.174408
7.43e-009,-67.886955,100.23726
7.445e-009,-67.113228,124.29431
7.46e-009,-66.381851,148.34637
7.475e-009,-65.690651,172.39417
7.49e-009,-65.03772,-163.56178
7.505e-009,-64.421364,-139.52097
7.52e-009,-63.840096,-115.48305
7.535e-009,-63.292587,-91.447678
7.55e-009,-62.777657,-67.414558
7.565e-009,-62.294243,-43.383453
7.58e-009,-61.841415,-19.354137
7.595e-009,-61.418316,4.6735759
7.61e-009,-61.024197,28.699884
7.625e-009,-60.658379,52.724949
7.64e-009,-60.320255,76.748947
7.655e-009,-60.009281,100.77204
7.67e-009,-59.724991,124.79439
7.685e-009,-59.466946,148.81618
7.7e-009,-59.234776,172.83759
7.715e-009,-59.02816,-163.14122
7.73e-009,-58.846817,-139.11998
7.745e-009,-58.69051,-115.09853
7.76e-009,-58.559036,-91.076584
7.775e-009,-58.452248,-67.053871
7.79e-009,-58.370026,-43.030094
7.805e-009,-58.312283,-19.0049
7.82e-009,-58.27898,5.0220981
7.835e-009,-58.270115,29.051325
7.85e-009,-58.285709,53.08329
7.865e-009,-58.325836,77.11853
7.88e-009,-58.390598,101.15769
7.895e-009,-58.480145,125.20149
7.91e-009,-58.594654,149.25075
7.925e-009,-58.734356,173.30641
7.94e-009,-58.899521,-162.63046
7.955e-009,-59.090462,-138.55862
7.97e-009,-59.307552,-114.47668
7.985e-009,-59.551208,-90.382988
8e-009,-59.821899,-66.275658
8.015e-009,-60.120171,-42.152512
8.03e-009,-60.446617,-18.011019
8.045e-009,-60.801922,6.1517839
8.06e-009,-61.186825,30.339367
8.075e-009,-61.602177,54.55579
8.09e-009,-62.048901,78.80584
8.105e-009,-62.528038,103.09519
8.12e-009,-63.040733,127.43061
8.135e-009,-63.588257,151.82014
8.15e-009,-64.172005,176.27354
8.165e-009,-64.793518,-159.19751
8.18e-009,-65.454468,-134.57872
8.195e-009,-66.156677,-109.85265
8.21e-009,-66.902084,-84.99781
8.225e-009,-67.692703,-59.987606
8.24e-009,-68.530571,-34.788895
8.255e-009,-69.417557,-9.3601522
8.27e-009,-70.355186,16.350773
8.285e-009,-71.344131,42.409508
8.3e-009,-72.38356,68.898247
8.315e-009,-73.46994,95.918686
8.33e-009,-74.595192,123.59316
8.345e-009,-75.744003,152.06091
8.36e-009,-76.890305,-178.53716
8.375e-009,-77.993874,-148.0938
8.39e-009,-78.999817,-116.59819
8.405e-009,-79.845596,-84.213867
8.42e-009,-80.478531,-51.322922
8.435e-009,-80.877731,-18.468847
8.45e-009,-81.064507,13.803919
8.465e-009,-81.09211,45.111454
8.48e-009,-81.023842,75.288239
8.495e-009,-80.915497,104.34367
8.51e-009,-80.808243,132.38408
8.525e-009,-80.729118,159.54996
8.54e-009,-80.69442,-174.01979
8.555e-009,-80.713219,-148.20297
8.57e-009,-80.790146,-122.89807
8.585e-009,-80.927185,-98.022934
8.6e-009,-81.124916,-73.511848
8.615e-009,-81.383278,-49.312397
8.63e-009,-81.701996,-25.382521
8.645e-009,-82.080925,-1.6880751
8.66e-009,-82.520233,21.798998
8.675e-009,-83.020592,45.102352
8.69e-009,-83.583305,68.242424
8.705e-009,-84.210541,91.237633
8.72e-009,-84.905472,114.10526
8.735e-009,-85.672646,136.86258
8.75e-009,-86.518349,159.52769
8.765e-009,-87.451225,-177.87897
8.78e-009,-88.483208,-155.3329
8.795e-009,-89.630829,-132.80238
8.81e-009,-90.917603,-110.24389
8.825e-009,-92.377792,-87.591873
8.84e-009,-94.063484,-64.739464
8.855e-009,-96.058426,-41.491219
8.87e-009,-98.508171,-17.437822
8.885e-009,-101.69507,8.4679956
8.9e-009,-106.24333,39.880985
8.915e-009,-112.96525,97.308563
8.93e-009,-111.20438,-164.69124
8.945e-009,-105.60907,-120.20197
8.96e-009,-102.13731,-91.309738
8.975e-009,-99.78376,-66.28418
8.99e-009,-98.062431,-42.722095
9.005e-009,-96.745399,-19.856966
9.02e-009,-95.711014,2.6289711
9.035e-009,-94.887489,24.891298
9.05e-009,-94.229446,47.015732
9.065e-009,-93.706703,69.052979
9.08e-009,-93.298386,91.035095
9.095e-009,-92.989738,112.98335
9.11e-009,-92.770233,134.91196
9.125e-009,-92.632248,156.83098
9.14e-009,-92.570496,178.74724
9.155e-009,-92.581352,-159.33421
9.17e-009,-92.662704,-137.40997
9.185e-009,-92.813698,-115.47738
9.2e-009,-93.034668,-93.534615
9.215e-009,-93.327194,-71.579918
9.23e-009,-93.694145,-49.611866
9.245e-009,-94.139954,-27.628805
9.26e-009,-94.670952,-5.6287508
9.275e-009,-95.295883,16.391081
9.29e-009,-96.026894,38.434494
9.305e-009,-96.880783,60.507179
9.32e-009,-97.881462,82.617722
9.335e-009,-99.063843,104.78033
9.35e-009,-100.48141,127.01875
9.365e-009,-102.22134,149.37825
9.38e-009,-104.43945,171.95523
9.395e-009,-107.45702,-164.99463
9.41e-009,-112.1259,-140.49913
9.425e-009,-122.55483,-104.5257
9.44e-009,-119.38515,64.335083
9.455e-009,-111.13861,94.814598
9.47e-009,-107.0274,118.94213
9.485e-009,-104.30775,142.00684
9.5e-009,-102.29788,164.7234
9.515e-009,-100.72297,-172.70189
9.53e-009,-99.44471,-150.1852
9.545e-009,-98.383652,-127.68629
9.56e-009,-97.489998,-105.18205
9.575e-009,-96.730553,-82.658157
9.59e-009,-96.082062,-60.1054
9.605e-009,-95.527725,-37.51683
9.62e-009,-95.054993,-14.887803
9.635e-009,-94.654266,7.7854099
9.65e-009,-94.318138,30.505161
9.665e-009,-94.040718,53.273136
9.68e-009,-93.817329,76.090355
9.695e-009,-93.64415,98.95713
9.71e-009,-93.518059,121.87277
9.725e-009,-93.436455,144.83623
9.74e-009,-93.397202,167.84564
9.755e-009,-93.398415,-169.10175
9.77e-009,-93.438515,-146.00961
9.785e-009,-93.516106,-122.88242
9.8e-009,-93.629929,-99.725937
9.815e-009,-93.778801,-76.547279
9.83e-009,-93.961571,-53.354683
9.845e-009,-94.177177,-30.158234
9.86e-009,-94.424431,-6.9699521
9.875e-009,-94.702133,16.196259
9.89e-009,-95.008873,39.32391
9.905e-009,-95.343056,62.393944
9.92e-009,-95.702805,85.384605
9.935e-009,-96.085815,108.27108
9.95e-009,-96.489197,131.0255
9.965e-009,-96.909401,153.61754
9.98e-009,-97.341934,176.0146
9.995e-009,-97.781189,-161.81638
1.001e-008,-98.220177,-139.90735
1.0025e-008,-98.650421,-118.2857
1.004e-008,-99.06192,-96.970383
1.0055e-008,-99.443321,-75.966469
1.007e-008,-99.782555,-55.25975
1.0085e-008,-100.0678,-34.812996
1.01e-008,-100.28884,-14.563902
1.0115e-008,-100.43866,5.5718637
1.013e-008,-100.51461,25.692951
1.0145e-008,-100.51908,45.900524
1.016e-008,-100.45911,66.287056
1.0175e-008,-100.34546,86.926056
1.019e-008,-100.19101,107.86829
1.0205e-008,-100.00933,129.14027
1.022e-008,-99.81353,150.74864
1.0235e-008,-99.615494,172.68481
1.025e-008,-99.425568,-165.06975
1.0265e-008,-99.252563,-142.5394
1.028e-008,-99.103836,-119.75043
1.0295e-008,-98.985603,-96.728867
1.031e-008,-98.903145,-73.499062
1.0325e-008,-98.861069,-50.082829
1.034e-008,-98.863594,-26.498478
1.0355e-008,-98.914719,-2.7613811
1.037e-008,-99.018463,21.117041
1.0385e-008,-99.179024,45.128513
1.04e-008,-99.401031,69.269096
1.0415e-008,-99.689789,93.538689
1.043e-008,-100.05154,117.94228
1.0445e-008,-100.49385,142.49075
1.046e-008,-101.02605,167.20316
1.0475e-008,-101.66014,-167.89037
1.049e-008,-102.41154,-142.7428
1.0505e-008,-103.30087,-117.28028
1.052e-008,-104.35624,-91.38459
1.0535e-008,-105.61687,-64.85601
1.055e-008,-107.13879,-37.33556
1.0565e-008,-109.00086,-8.1272392
1.058e-008,-111.3003,24.258965
1.0595e-008,-114.04642,63.232887
1.061e-008,-116.49804,114.95636
1.0625e-008,-116.33169,175.79907
1.064e-008,-113.81905,-134.21339
1.0655e-008,-111.1916,-96.160233
1.067e-008,-109.02514,-64.033798
1.0685e-008,-107.28296,-34.745369
1.07e-008,-105.86781,-6.9395957
1.0715e-008,-104.70307,20.028116
1.073e-008,-103.73447,46.495468
1.0745e-008,-102.92362,72.65699
1.076e-008,-102.24259,98.632553
1.0775e-008,-101.67044,124.50122
1.079e-008,-101.19096,150.31787
1.0805e-008,-100.79126,176.12289
1.082e-008,-100.46056,-158.05287
1.0835e-008,-100.18971,-132.18581
1.085e-008,-99.970558,-106.25684
1.0865e-008,-99.79567,-80.25148
1.088e-008,-99.658035,-54.158905
1.0895e-008,-99.550934,-27.972603
1.091e-008,-99.467781,-1.6900856
1.0925e-008,-99.402206,24.685892
1.094e-008,-99.347961,51.147816
1.0955e-008,-99.29908,77.681679
1.097e-008,-99.250031,104.26856
1.0985e-008,-99.195839,130.88329
1.1e-008,-99.132324,157.49602
1.1015e-008,-99.056221,-175.92683
1.103e-008,-98.965279,-149.42084
1.1045e-008,-98.858353,-123.02212
1.106e-008,-98.735268,-96.76474
1.1075e-008,-98.59668,-70.680069
1.109e-008,-98.44397,-44.79454
1.1105e-008,-98.278893,-19.129469
1.112e-008,-98.103432,6.2996035
1.1135e-008,-97.91954,31.4825
1.115e-008,-97.729019,56.414639
1.1165e-008,-97.533363,81.095512
1.118e-008,-97.33371,105.52937
1.1195e-008,-97.130814,129.72333
1.121e-008,-96.925034,153.68793
1.1225e-008,-96.716415,177.43596
1.124e-008,-96.504715,-159.01759
1.1255e-008,-96.289452,-135.65607
1.127e-008,-96.070068,-112.46115
1.1285e-008,-95.845901,-89.413582
1.13e-008,-95.616364,-66.493057
1.1315e-008,-95.380867,-43.678993
1.133e-008,-95.139084,-20.95051
1.1345e-008,-94.890816,1.7130677
1.136e-008,-94.636063,24.331606
1.1375e-008,-94.375046,46.923988
1.139e-008,-94.108238,69.507889
1.1405e-008,-93.83625,92.099472
1.142e-008,-93.559883,114.7128
1.1435e-008,-93.280029,137.36024
1.145e-008,-92.997726,160.05228
1.1465e-008,-92.714005,-177.20267
1.148e-008,-92.429916,-154.3979
1.1495e-008,-92.146538,-131.52859
1.151e-008,-91.864876,-108.59134
1.1525e-008,-91.585899,-85.584023
1.154e-008,-91.310486,-62.505875
1.1555e-008,-91.039482,-39.357105
1.157e-008,-90.773666,-16.13879
1.1585e-008,-90.51371,7.1474762
1.16e-008,-90.260239,30.499189
1.1615e-008,-90.013832,53.913986
1.163e-008,-89.774986,77.388565
1.1645e-008,-89.544174,100.91985
1.166e-008,-89.321831,124.50446
1.1675e-008,-89.108368,148.13893
1.169e-008,-88.904129,171.81996
1.1705e-008,-88.709488,-164.45598
1.172e-008,-88.524773,-140.69215
1.1735e-008,-88.350311,-116.89176
1.175e-008,-88.186424,-93.057961
1.1765e-008,-88.033409,-69.193375
1.178e-008,-87.891609,-45.301075
1.1795e-008,-87.761314,-21.383366
1.181e-008,-87.642815,2.5572176
1.1825e-008,-87.536438,26.518612
1.184e-008,-87.442459,50.498913
1.1855e-008,-87.361198,74.496239
1.187e-008,-87.292961,98.50914
1.1885e-008,-87.238029,122.53627
1.19e-008,-87.196701,146.57642
1.1915e-008,-87.169266,170.62866
1.193e-008,-87.156013,-165.30772
1.1945e-008,-87.157219,-141.23346
1.196e-008,-87.173157,-117.14886
1.1975e-008,-87.204102,-93.054199
1.199e-008,-87.250328,-68.949623
1.2005e-008,-87.31208,-44.835091
1.202e-008,-87.389626,-20.710344
1.2035e-008,-87.4832,3.4249032
1.205e-008,-87.593063,27.571087
1.2065e-008,-87.71946,51.728821
1.208e-008,-87.862617,75.898781
1.2095e-008,-88.022781,100.08175
1.211e-008,-88.200203,124.27868
1.2125e-008,-88.395119,148.49049
1.214e-008,-88.60778,172.71829
1.2155e-008,-88.838455,-163.03679
1.217e-008,-89.087418,-138.7735
1.2185e-008,-89.354958,-114.49062
1.22e-008,-89.641403,-90.186798
1.2215e-008,-89.947098,-65.86071
1.223e-008,-90.272446,-41.51096
1.2245e-008,-90.617882,-17.13624
1.226e-008,-90.98391,7.2648821
1.2275e-008,-91.371124,31.693766
1.229e-008,-91.780212,56.15173
1.2305e-008,-92.211975,80.639977
1.232e-008,-92.667397,105.15988
1.2335e-008,-93.147591,129.71262
1.235e-008,-93.653954,154.29938
1.2365e-008,-94.188141,178.9212
1.238e-008,-94.752159,-156.42055
1.2395e-008,-95.348488,-131.72455
1.241e-008,-95.980133,-106.98952
1.2425e-008,-96.650833,-82.213524
1.244e-008,-97.365204,-57.394161
1.2455e-008,-98.12912,-32.528103
1.247e-008,-98.949913,-7.6104922
1.2485e-008,-99.837204,17.365828
1.25e-008,-100.80341,42.411461
1.2515e-008,-101.86523,67.543427
1.253e-008,-103.04562,92.78862
1.2545e-008,-104.37709,118.19192
1.256e-008,-105.90797,143.83206
1.2575e-008,-107.71408,169.85736
1.259e-008,-109.92408,-163.41914
1.2605e-008,-112.78045,-135.2206
1.262e-008,-116.81068,-103.0224
1.2635e-008,-123.13203,-53.682499
1.265e-008,-124.54069,51.280613
1.2665e-008,-118.08742,108.25675
1.268e-008,-114.0194,141.75854
1.2695e-008,-111.27792,170.27
1.271e-008,-109.25121,-162.97198
1.2725e-008,-107.66566,-137.03288
1.274e-008,-106.37984,-111.54935
1.2755e-008,-105.31231,-86.350204
1.277e-008,-104.41201,-61.344776
1.2785e-008,-103.64525,-36.480907
1.28e-008,-102.98858,-11.72581
1.2815e-008,-102.42525,12.942471
1.283e-008,-101.943,37.539341
1.2845e-008,-101.53249,62.076012
1.286e-008,-101.18674,86.56115
1.2875e-008,-100.90028,111.00222
1.289e-008,-100.66888,135.40535
1.2905e-008,-100.48923,159.77618
1.292e-008,-100.35876,-175.88042
1.2935e-008,-100.27545,-151.55865
1.295e-008,-100.23775,-127.25356
1.2965e-008,-100.24443,-102.9595
1.298e-008,-100.29461,-78.67038
1.2995e-008,-100.38763,-54.379646
1.301e-008,-100.52301,-30.079567
1.3025e-008,-100.70039,-5.7612829
1.304e-008,-100.9195,18.585192
1.3055e-008,-101.18012,42.972012
1.307e-008,-101.48201,67.413208
1.3085e-008,-101.8247,91.926056
1.31e-008,-102.20758,116.53085
1.3115e-008,-102.62962,141.25191
1.313e-008,-103.08917,166.11859
1.3145e-008,-103.5837,-168.83455
1.316e-008,-104.1093,-143.56721
1.3175e-008,-104.66032,-118.03337
1.319e-008,-105.22858,-92.182991
1.3205e-008,-105.80253,-65.964661
1.322e-008,-106.36665,-39.332798
1.3235e-008,-106.90079,-12.257812
1.325e-008,-107.38051,15.258896
1.3265e-008,-107.77872,43.168911
1.328e-008,-108.06879,71.363525
1.3295e-008,-108.22978,99.676064
1.331e-008,-108.2505,127.89963
1.3325e-008,-108.13248,155.82503
1.334e-008,-107.88839,-176.72099
1.3355e-008,-107.53844,-149.85188
1.337e-008,-107.10532,-123.61295
1.3385e-008,-106.61089,-97.993889
1.34e-008,-106.07362,-72.944244
1.3415e-008,-105.50851,-48.393459
1.343e-008,-104.927,-24.261181
1.3445e-008,-104.338,-0.468301
1.346e-008,-103.74818,23.059444
1.3475e-008,-103.16288,46.386822
1.349e-008,-102.58639,69.569397
1.3505e-008,-102.0222,92.654358
1.352e-008,-101.47321,115.6792
1.3535e-008,-100.94186,138.67422
1.355e-008,-100.43018,161.66293
1.3565e-008,-99.939857,-175.33669
1.358e-008,-99.472275,-152.31117
1.3595e-008,-99.028557,-129.25081
1.361e-008,-98.609482,-106.14883
1.3625e-008,-98.215752,-83.000793
1.364e-008,-97.847733,-59.80397
1.3655e-008,-97.505775,-36.556858
1.367e-008,-97.189957,-13.259036
1.3685e-008,-96.900269,10.088893
1.37e-008,-96.636688,33.486237
1.3715e-008,-96.398994,56.931904
1.373e-008,-96.186974,80.424149
1.3745e-008,-96.000336,103.9614
1.376e-008,-95.838737,127.54187
1.3775e-008,-95.701805,151.16379
1.379e-008,-95.589172,174.82542
1.3805e-008,-95.500397,-161.4754
1.382e-008,-95.435104,-137.74043
1.3835e-008,-95.392807,-113.97164
1.385e-008,-95.373131,-90.170906
1.3865e-008,-95.375618,-66.340324
1.388e-008,-95.399857,-42.481895
1.3895e-008,-95.445473,-18.597923
1.391e-008,-95.512032,5.3095965
1.3925e-008,-95.59919,29.238298
1.394e-008,-95.706581,53.185463
1.3955e-008,-95.8339,77.148651
1.397e-008,-95.980873,101.12483
1.3985e-008,-96.14724,125.11106
1.4e-008,-96.332817,149.10391
1.4015e-008,-96.537453,173.09978
1.403e-008,-96.761086,-162.90547
1.4045e-008,-97.003693,-138.91602
1.406e-008,-97.26532,-114.93665
1.4075e-008,-97.546135,-90.972588
1.409e-008,-97.846359,-67.029716
1.4105e-008,-98.166336,-43.114304
1.412e-008,-98.506516,-19.233522
1.4135e-008,-98.867447,4.6047883
1.415e-008,-99.249802,28.391626
1.4165e-008,-99.654427,52.116848
1.418e-008,-100.08224,75.769028
1.4195e-008,-100.53434,99.335022
1.421e-008,-101.01189,122.79939
1.4225e-008,-101.5162,146.14426
1.424e-008,-102.04871,169.34805
