!CSV A.01.01
!Keysight Technologies,N5227B,US58420762,A.13.80.08
!Date: Monday, November 20, 2023 16:55:36
!Source: Standard

BEGIN CH1_DATA
Time(s),S21(DB),S21(DEG)
5e-009,-122.61324,-87.800804
5.015e-009,-122.92974,-54.35294
5.03e-009,-123.03541,-19.907509
5.045e-009,-122.86861,14.878474
5.06e-009,-122.43017,49.202545
5.075e-009,-121.78193,82.415138
5.09e-009,-121.01263,114.20922
5.105e-009,-120.20338,144.57417
5.12e-009,-119.4109,173.66205
5.135e-009,-118.67134,-158.32811
5.15e-009,-118.00325,-131.20634
5.165e-009,-117.41615,-104.81801
5.18e-009,-116.91311,-79.038055
5.195e-009,-116.49413,-53.777302
5.21e-009,-116.15777,-28.967979
5.225e-009,-115.90176,-4.5639405
5.24e-009,-115.72326,19.464251
5.255e-009,-115.61926,43.134075
5.27e-009,-115.58662,66.450958
5.285e-009,-115.62189,89.410545
5.3e-009,-115.72057,112.00088
5.315e-009,-115.87786,134.20578
5.33e-009,-116.08777,156.00146
5.345e-009,-116.34222,177.36414
5.36e-009,-116.63136,-161.72713
5.375e-009,-116.94323,-141.28491
5.39e-009,-117.26345,-121.30739
5.405e-009,-117.57639,-101.76182
5.42e-009,-117.866,-82.587318
5.435e-009,-118.1184,-63.684433
5.45e-009,-118.3244,-44.916443
5.465e-009,-118.48077,-26.129553
5.48e-009,-118.59275,-7.1642938
5.495e-009,-118.67199,12.123638
5.51e-009,-118.73527,31.845284
5.525e-009,-118.80217,52.083157
5.54e-009,-118.89234,72.886986
5.555e-009,-119.02474,94.290405
5.57e-009,-119.21682,116.31695
5.585e-009,-119.48428,138.9957
5.6e-009,-119.84115,162.37004
5.615e-009,-120.29981,-173.47939
5.63e-009,-120.87101,-148.43376
5.645e-009,-121.5611,-122.29475
5.66e-009,-122.36693,-94.772041
5.675e-009,-123.26559,-65.451836
5.69e-009,-124.19092,-33.818657
5.705e-009,-125.00361,0.54534429
5.72e-009,-125.48645,37.47464
5.735e-009,-125.43645,75.652191
5.75e-009,-124.83781,113.00607
5.765e-009,-123.87604,148.05978
5.78e-009,-122.77635,-179.49332
5.795e-009,-121.69091,-149.26398
5.81e-009,-120.69544,-120.72239
5.825e-009,-119.81937,-93.424965
5.84e-009,-119.06982,-67.044533
5.855e-009,-118.44457,-41.354977
5.87e-009,-117.93785,-16.199347
5.885e-009,-117.5433,8.5230589
5.9e-009,-117.25524,32.883816
5.915e-009,-117.06793,56.927067
5.93e-009,-116.97699,80.677414
5.945e-009,-116.97858,104.14793
5.96e-009,-117.069,127.33515
5.975e-009,-117.24567,150.22827
5.99e-009,-117.50417,172.80754
6.005e-009,-117.84088,-164.95844
6.02e-009,-118.25037,-143.10725
6.035e-009,-118.72489,-121.68086
6.05e-009,-119.25454,-100.72227
6.065e-009,-119.82452,-80.26712
6.08e-009,-120.41692,-60.334656
6.095e-009,-121.00859,-40.900074
6.11e-009,-121.57388,-21.87989
6.125e-009,-122.08934,-3.1156206
6.14e-009,-122.53668,15.625816
6.155e-009,-122.9105,34.643181
6.17e-009,-123.21806,54.23645
6.185e-009,-123.47876,74.706467
6.2e-009,-123.71483,96.293892
6.215e-009,-123.94777,119.20822
6.23e-009,-124.18677,143.63756
6.245e-009,-124.42611,169.73146
6.26e-009,-124.63398,-162.36894
6.275e-009,-124.75312,-132.65697
6.29e-009,-124.7062,-101.34301
6.305e-009,-124.42117,-68.955231
6.32e-009,-123.86791,-36.275578
6.335e-009,-123.08342,-4.092432
6.35e-009,-122.14301,27.091213
6.365e-009,-121.13467,57.093914
6.38e-009,-120.12556,85.977287
6.395e-009,-119.1626,113.88438
6.41e-009,-118.27206,141.00204
6.425e-009,-117.46914,167.49034
6.44e-009,-116.75964,-166.52237
6.455e-009,-116.14651,-140.9323
6.47e-009,-115.62997,-115.66345
6.485e-009,-115.21059,-90.65274
6.5e-009,-114.88669,-65.859222
6.515e-009,-114.65913,-41.249874
6.53e-009,-114.52845,-16.804544
6.545e-009,-114.4963,7.4952655
6.56e-009,-114.56553,31.654154
6.575e-009,-114.74055,55.674805
6.59e-009,-115.02772,79.549706
6.605e-009,-115.4354,103.26454
6.62e-009,-115.97565,126.79211
6.635e-009,-116.66499,150.09018
6.65e-009,-117.52601,173.08905
6.665e-009,-118.5909,-164.33202
6.68e-009,-119.90644,-142.3723
6.695e-009,-121.54308,-121.41386
6.71e-009,-123.60685,-102.22921
6.725e-009,-126.24744,-86.630592
6.74e-009,-129.52823,-79.334419
6.755e-009,-132.25351,-89.524658
6.77e-009,-131.1142,-106.2546
6.785e-009,-128.06319,-104.96263
6.8e-009,-125.47903,-92.052406
6.815e-009,-123.54031,-74.30378
6.83e-009,-122.09886,-54.351818
6.845e-009,-121.03524,-33.285805
6.86e-009,-120.27228,-11.618238
6.875e-009,-119.7617,10.363992
6.89e-009,-119.47421,32.483421
6.905e-009,-119.39395,54.60199
6.92e-009,-119.51543,76.599136
6.935e-009,-119.84095,98.336143
6.95e-009,-120.38211,119.63947
6.965e-009,-121.15938,140.24495
6.98e-009,-122.20068,159.73161
6.995e-009,-123.5372,177.36348
7.01e-009,-125.16958,-168.19017
7.025e-009,-126.94452,-159.18983
7.04e-009,-128.23824,-157.78253
7.055e-009,-128.03024,-160.47917
7.07e-009,-126.40489,-158.29747
7.085e-009,-124.39049,-148.63026
7.1e-009,-122.54343,-133.80551
7.115e-009,-120.98716,-115.98585
7.13e-009,-119.71106,-96.422928
7.145e-009,-118.67958,-75.80619
7.16e-009,-117.86022,-54.535149
7.175e-009,-117.22744,-32.850739
7.19e-009,-116.76222,-10.916449
7.205e-009,-116.45123,11.149832
7.22e-009,-116.28535,33.254025
7.235e-009,-116.25909,55.312527
7.25e-009,-116.36974,77.237183
7.265e-009,-116.61677,98.933876
7.28e-009,-117.00157,120.2841
7.295e-009,-117.52502,141.13538
7.31e-009,-118.18704,161.28374
7.325e-009,-118.98094,-179.54976
7.34e-009,-119.88472,-161.73463
7.355e-009,-120.8446,-145.71837
7.37e-009,-121.75235,-131.89926
7.385e-009,-122.43332,-120.28264
7.4e-009,-122.70155,-110.01464
7.415e-009,-122.48619,-99.434212
7.43e-009,-121.89739,-86.998184
7.445e-009,-121.13087,-72.06691
7.46e-009,-120.34949,-54.755577
7.475e-009,-119.64919,-35.467148
7.49e-009,-119.07713,-14.59291
7.505e-009,-118.65214,7.5800476
7.52e-009,-118.3804,30.871386
7.535e-009,-118.26117,55.200474
7.55e-009,-118.29043,80.572655
7.565e-009,-118.4591,107.0785
7.58e-009,-118.75008,134.88742
7.595e-009,-119.12953,164.24084
7.61e-009,-119.5356,-164.59734
7.625e-009,-119.8675,-131.47247
7.64e-009,-119.99104,-96.590034
7.655e-009,-119.78555,-60.732464
7.67e-009,-119.21819,-25.096222
7.685e-009,-118.36658,9.2620144
7.7e-009,-117.36264,41.85096
7.715e-009,-116.32435,72.680641
7.73e-009,-115.32922,102.0072
7.745e-009,-114.41962,130.1277
7.76e-009,-113.61575,157.30457
7.775e-009,-112.9252,-176.26164
7.79e-009,-112.34971,-150.42165
7.805e-009,-111.88851,-125.07179
7.82e-009,-111.54001,-100.13971
7.835e-009,-111.30305,-75.581642
7.85e-009,-111.17694,-51.375164
7.865e-009,-111.16206,-27.518181
7.88e-009,-111.25976,-4.0270362
7.895e-009,-111.47218,19.057449
7.91e-009,-111.80254,41.669655
7.925e-009,-112.25374,63.707195
7.94e-009,-112.82764,85.02269
7.955e-009,-113.5217,105.40484
7.97e-009,-114.32323,124.56252
7.985e-009,-115.19838,142.12257
8e-009,-116.07345,157.68526
8.015e-009,-116.81727,171.02489
8.03e-009,-117.2548,-177.51566
8.045e-009,-117.24993,-166.7596
8.06e-009,-116.81142,-155.11522
8.075e-009,-116.08685,-141.48187
8.09e-009,-115.25154,-125.59345
8.105e-009,-114.4317,-107.70093
8.12e-009,-113.69833,-88.20224
8.135e-009,-113.08464,-67.453743
8.15e-009,-112.60458,-45.728039
8.165e-009,-112.26269,-23.211584
8.18e-009,-112.06035,-0.025118064
8.195e-009,-111.99812,23.765066
8.21e-009,-112.07755,48.138866
8.225e-009,-112.30118,73.120796
8.24e-009,-112.6725,98.78627
8.255e-009,-113.19512,125.27347
8.27e-009,-113.86964,152.8009
8.285e-009,-114.68793,-178.29767
8.3e-009,-115.61798,-147.55992
8.315e-009,-116.57967,-114.42174
8.33e-009,-117.40872,-78.477829
8.345e-009,-117.86468,-40.086601
8.36e-009,-117.75789,-0.88087273
8.375e-009,-117.12585,36.953358
8.39e-009,-116.19497,72.14048
8.405e-009,-115.19273,104.61945
8.42e-009,-114.25819,134.88731
8.435e-009,-113.45722,163.4911
8.45e-009,-112.81542,-169.14
8.465e-009,-112.34103,-142.70833
8.48e-009,-112.0364,-117.01884
8.495e-009,-111.9036,-91.956863
8.51e-009,-111.94704,-67.466835
8.525e-009,-112.17476,-43.551353
8.54e-009,-112.60075,-20.272211
8.555e-009,-113.24519,2.2213809
8.57e-009,-114.1361,23.649006
8.585e-009,-115.30734,43.491982
8.6e-009,-116.78324,60.787762
8.615e-009,-118.51388,73.776031
8.63e-009,-120.15484,79.919662
8.645e-009,-120.77864,79.095573
8.66e-009,-119.74204,78.840996
8.675e-009,-117.82931,85.83271
8.69e-009,-115.90282,99.259766
8.705e-009,-114.251,116.61012
8.72e-009,-112.90883,136.23573
8.735e-009,-111.85069,157.22905
8.75e-009,-111.04612,179.08652
8.765e-009,-110.47198,-158.48286
8.78e-009,-110.11391,-135.65616
8.795e-009,-109.96653,-112.54684
8.81e-009,-110.03326,-89.231491
8.825e-009,-110.32771,-65.76432
8.84e-009,-110.87686,-42.18655
8.855e-009,-111.727,-18.533207
8.87e-009,-112.95871,5.1554136
8.885e-009,-114.71874,28.820452
8.9e-009,-117.30991,52.326828
8.915e-009,-121.52344,75.204842
8.93e-009,-131.05496,93.121674
8.945e-009,-130.15486,-44.93037
8.96e-009,-120.94179,-26.143713
8.975e-009,-116.63976,-2.8936527
8.99e-009,-113.91455,21.122248
9.005e-009,-112.02429,45.495358
9.02e-009,-110.68746,70.144737
9.035e-009,-109.77435,95.082382
9.05e-009,-109.22372,120.38147
9.065e-009,-109.01373,146.18036
9.08e-009,-109.15137,172.73018
9.095e-009,-109.66983,-159.50371
9.11e-009,-110.62521,-129.6002
9.125e-009,-112.05956,-95.602844
9.14e-009,-113.76864,-53.498997
9.155e-009,-114.49766,0.44683322
9.17e-009,-112.63655,55.592594
9.185e-009,-109.50693,99.083954
9.2e-009,-106.54858,133.65269
9.215e-009,-104.03709,163.61458
9.23e-009,-101.92859,-168.86702
9.245e-009,-100.14858,-142.78751
9.26e-009,-98.638031,-117.65564
9.275e-009,-97.355026,-93.221985
9.29e-009,-96.270302,-69.363319
9.305e-009,-95.363731,-46.03252
9.32e-009,-94.621437,-23.235882
9.335e-009,-94.033669,-1.0272553
9.35e-009,-93.592606,20.490301
9.365e-009,-93.289627,41.155823
9.38e-009,-93.110619,60.73745
9.395e-009,-93.02774,78.925484
9.41e-009,-92.985809,95.355354
9.425e-009,-92.884941,109.72028
9.44e-009,-92.574921,122.04343
9.455e-009,-91.896965,133.02213
9.47e-009,-90.77916,144.00497
9.485e-009,-89.292793,156.32472
9.5e-009,-87.592316,170.64879
9.515e-009,-85.820618,-173.02217
9.53e-009,-84.069489,-155.00641
9.545e-009,-82.385948,-135.67581
9.56e-009,-80.789398,-115.34896
9.575e-009,-79.284714,-94.27063
9.59e-009,-77.869911,-72.621613
9.605e-009,-76.540115,-50.534164
9.62e-009,-75.28949,-28.105228
9.635e-009,-74.112167,-5.4067183
9.65e-009,-73.00264,17.507515
9.665e-009,-71.955894,40.596516
9.68e-009,-70.967461,63.828796
9.695e-009,-70.033356,87.179787
9.71e-009,-69.150085,110.63013
9.725e-009,-68.314529,134.1644
9.74e-009,-67.523941,157.77017
9.755e-009,-66.775879,-178.56265
9.77e-009,-66.068176,-154.84233
9.785e-009,-65.398895,-131.07568
9.8e-009,-64.766304,-107.26843
9.815e-009,-64.168846,-83.425278
9.83e-009,-63.60511,-59.550228
9.845e-009,-63.073845,-35.646645
9.86e-009,-62.573906,-11.717372
9.875e-009,-62.104248,12.235138
9.89e-009,-61.663937,36.208843
9.905e-009,-61.252113,60.201973
9.92e-009,-60.867989,84.213013
9.935e-009,-60.510849,108.24072
9.95e-009,-60.180042,132.28398
9.965e-009,-59.874962,156.34189
9.98e-009,-59.595055,-179.5863
9.995e-009,-59.339809,-155.50122
1.001e-008,-59.108768,-131.40338
1.0025e-008,-58.901485,-107.29315
1.004e-008,-58.717567,-83.170837
1.0055e-008,-58.556644,-59.036633
1.007e-008,-58.418365,-34.890629
1.0085e-008,-58.302418,-10.732859
1.01e-008,-58.208496,13.436754
1.0115e-008,-58.136326,37.618347
1.013e-008,-58.085636,61.812153
1.0145e-008,-58.056183,86.018471
1.016e-008,-58.047722,110.23769
1.0175e-008,-58.060036,134.47026
1.019e-008,-58.092892,158.71677
1.0205e-008,-58.146084,-177.0222
1.022e-008,-58.219391,-152.74593
1.0235e-008,-58.312599,-128.45361
1.025e-008,-58.425499,-104.14433
1.0265e-008,-58.557861,-79.817154
1.028e-008,-58.709457,-55.470985
1.0295e-008,-58.880039,-31.104679
1.031e-008,-59.069347,-6.7169514
1.0325e-008,-59.277103,17.69352
1.034e-008,-59.502998,42.128166
1.0355e-008,-59.746696,66.588524
1.037e-008,-60.007832,91.07618
1.0385e-008,-60.285988,115.59278
1.04e-008,-60.580708,140.14005
1.0415e-008,-60.891491,164.7197
1.043e-008,-61.217762,-170.66652
1.0445e-008,-61.558903,-146.01692
1.046e-008,-61.9142,-121.32987
1.0475e-008,-62.282887,-96.603889
1.049e-008,-62.664104,-71.837669
1.0505e-008,-63.056911,-47.03017
1.052e-008,-63.460285,-22.180683
1.0535e-008,-63.873116,2.7110221
1.055e-008,-64.294205,27.644686
1.0565e-008,-64.72229,52.619366
1.058e-008,-65.156036,77.633385
1.0595e-008,-65.594063,102.68423
1.061e-008,-66.034966,127.7684
1.0625e-008,-66.477333,152.88141
1.064e-008,-66.919785,178.01772
1.0655e-008,-67.361008,-156.82925
1.067e-008,-67.799767,-131.66716
1.0685e-008,-68.234993,-106.50447
1.07e-008,-68.665771,-81.350525
1.0715e-008,-69.091408,-56.215168
1.073e-008,-69.511414,-31.108606
1.0745e-008,-69.925583,-6.041081
1.076e-008,-70.333954,18.977373
1.0775e-008,-70.736832,43.937233
1.079e-008,-71.134789,68.829712
1.0805e-008,-71.52861,93.647011
1.082e-008,-71.919342,118.38248
1.0835e-008,-72.308182,143.03069
1.085e-008,-72.696533,167.58755
1.0865e-008,-73.085915,-167.94977
1.088e-008,-73.477966,-143.58284
1.0895e-008,-73.874428,-119.31218
1.091e-008,-74.277122,-95.137253
1.0925e-008,-74.687935,-71.056709
1.094e-008,-75.108788,-47.068588
1.0955e-008,-75.541695,-23.170454
1.097e-008,-75.988693,0.6404177
1.0985e-008,-76.451889,24.366823
1.1e-008,-76.933464,48.011467
1.1015e-008,-77.435661,71.57682
1.103e-008,-77.960846,95.06488
1.1045e-008,-78.511475,118.47709
1.106e-008,-79.090179,141.81409
1.1075e-008,-79.69973,165.07556
1.109e-008,-80.343124,-171.74001
1.1105e-008,-81.023643,-148.6355
1.112e-008,-81.744865,-125.61561
1.1135e-008,-82.510757,-102.68715
1.115e-008,-83.325783,-79.859627
1.1165e-008,-84.19503,-57.145897
1.118e-008,-85.124321,-34.563431
1.1195e-008,-86.120445,-12.135537
1.121e-008,-87.191414,10.106197
1.1225e-008,-88.346748,32.118755
1.124e-008,-89.597984,53.842312
1.1255e-008,-90.959137,75.191933
1.127e-008,-92.447304,96.043396
1.1285e-008,-94.083138,116.20977
1.13e-008,-95.890358,135.39835
1.1315e-008,-97.892143,153.13477
1.133e-008,-100.0966,168.63344
1.1345e-008,-102.44953,-179.36877
1.136e-008,-104.71146,-172.48982
1.1375e-008,-106.31481,-171.06032
1.139e-008,-106.71983,-171.1411
1.1405e-008,-106.1837,-167.31459
1.142e-008,-105.36297,-158.3555
1.1435e-008,-104.6341,-145.73289
1.145e-008,-104.11151,-130.99907
1.1465e-008,-103.80314,-115.23097
1.148e-008,-103.68231,-99.152565
1.1495e-008,-103.70811,-83.284531
1.151e-008,-103.82776,-68.020912
1.1525e-008,-103.97256,-53.632118
1.154e-008,-104.05816,-40.203068
1.1555e-008,-103.99555,-27.540447
1.157e-008,-103.71867,-15.146305
1.1585e-008,-103.2123,-2.3532858
1.16e-008,-102.51637,11.42042
1.1615e-008,-101.70104,26.493969
1.163e-008,-100.83653,42.919098
1.1645e-008,-99.976204,60.58197
1.166e-008,-99.154022,79.302269
1.1675e-008,-98.388809,98.895866
1.169e-008,-97.689072,119.20024
1.1705e-008,-97.057335,140.08217
1.172e-008,-96.492493,161.43494
1.1735e-008,-95.991676,-176.82472
1.175e-008,-95.551025,-154.76257
1.1765e-008,-95.166382,-132.42967
1.178e-008,-94.833397,-109.86678
1.1795e-008,-94.54789,-87.106064
1.181e-008,-94.305733,-64.17321
1.1825e-008,-94.103012,-41.089302
1.184e-008,-93.935951,-17.871321
1.1855e-008,-93.800934,5.4665847
1.187e-008,-93.694542,28.912195
1.1885e-008,-93.613525,52.455242
1.19e-008,-93.554726,76.086578
1.1915e-008,-93.515259,99.79763
1.193e-008,-93.492332,123.58067
1.1945e-008,-93.483406,147.42816
1.196e-008,-93.486145,171.33296
1.1975e-008,-93.498474,-164.71243
1.199e-008,-93.51857,-140.71518
1.2005e-008,-93.544968,-116.68277
1.202e-008,-93.576416,-92.622437
1.2035e-008,-93.612106,-68.541702
1.205e-008,-93.651543,-44.447521
1.2065e-008,-93.69458,-20.34729
1.208e-008,-93.741432,3.7524564
1.2095e-008,-93.792641,27.845108
1.211e-008,-93.84906,51.924725
1.2125e-008,-93.911873,75.985497
1.214e-008,-93.982468,100.02274
1.2155e-008,-94.062546,124.03147
1.217e-008,-94.153946,148.00743
1.2185e-008,-94.258728,171.94661
1.22e-008,-94.379044,-164.15474
1.2215e-008,-94.517235,-140.30052
1.223e-008,-94.675705,-116.49444
1.2245e-008,-94.856987,-92.740837
1.226e-008,-95.063713,-69.04464
1.2275e-008,-95.298622,-45.411278
1.229e-008,-95.564514,-21.847746
1.2305e-008,-95.864349,1.6376758
1.232e-008,-96.201279,25.034784
1.2335e-008,-96.578506,48.330532
1.235e-008,-96.999557,71.508369
1.2365e-008,-97.468079,94.547409
1.238e-008,-97.988007,117.42088
1.2395e-008,-98.563454,140.09421
1.241e-008,-99.198692,162.52232
1.2425e-008,-99.89798,-175.35365
1.244e-008,-100.66512,-153.61192
1.2455e-008,-101.50284,-132.35503
1.247e-008,-102.41119,-111.71957
1.2485e-008,-103.38503,-91.882355
1.25e-008,-104.40942,-73.066162
1.2515e-008,-105.45201,-55.52499
1.253e-008,-106.45388,-39.489647
1.2545e-008,-107.32371,-25.037928
1.256e-008,-107.9504,-11.896978
1.2575e-008,-108.24673,0.66996127
1.259e-008,-108.2021,13.669692
1.2605e-008,-107.89064,27.939405
1.262e-008,-107.42438,43.867237
1.2635e-008,-106.90348,61.447708
1.265e-008,-106.39637,80.478447
1.2665e-008,-105.94274,100.71244
1.268e-008,-105.56279,121.92867
1.2695e-008,-105.26527,143.95319
1.271e-008,-105.05274,166.65843
1.2725e-008,-104.92461,-170.04459
1.274e-008,-104.87855,-146.21117
1.2755e-008,-104.91142,-121.87153
1.277e-008,-105.01924,-97.032684
1.2785e-008,-105.1973,-71.682823
1.28e-008,-105.43936,-45.791843
1.2815e-008,-105.7372,-19.314777
1.283e-008,-106.0792,7.8061457
1.2845e-008,-106.44931,35.631866
1.286e-008,-106.82555,64.21759
1.2875e-008,-107.17926,93.588905
1.289e-008,-107.47591,123.7147
1.2905e-008,-107.67928,154.47887
1.292e-008,-107.75797,-174.33397
1.2935e-008,-107.69467,-143.01807
1.295e-008,-107.49065,-111.89071
1.2965e-008,-107.16526,-81.225845
1.298e-008,-106.74903,-51.205891
1.2995e-008,-106.27508,-21.914211
1.301e-008,-105.77296,6.6453376
1.3025e-008,-105.26584,34.518467
1.304e-008,-104.76997,61.775665
1.3055e-008,-104.29603,88.493355
1.307e-008,-103.85006,114.74513
1.3085e-008,-103.43516,140.59653
1.31e-008,-103.05218,166.10489
1.3115e-008,-102.70061,-168.68158
1.313e-008,-102.37896,-143.72176
1.3145e-008,-102.08534,-118.98157
1.316e-008,-101.81738,-94.432045
1.3175e-008,-101.57272,-70.047981
1.319e-008,-101.3489,-45.808041
1.3205e-008,-101.14358,-21.693951
1.322e-008,-100.95452,2.3107843
1.3235e-008,-100.77968,26.221079
1.325e-008,-100.61722,50.049583
1.3265e-008,-100.46558,73.807999
1.328e-008,-100.32335,97.507164
1.3295e-008,-100.18952,121.15593
1.331e-008,-100.0633,144.7626
1.3325e-008,-99.944122,168.33426
1.334e-008,-99.831757,-168.12337
1.3355e-008,-99.726189,-144.60545
1.337e-008,-99.627609,-121.10837
1.3385e-008,-99.536438,-97.630028
1.34e-008,-99.453239,-74.168678
1.3415e-008,-99.378784,-50.724472
1.343e-008,-99.313904,-27.298191
1.3445e-008,-99.259544,-3.8913765
1.346e-008,-99.216728,19.492931
1.3475e-008,-99.186508,42.851398
1.349e-008,-99.169937,66.179497
1.3505e-008,-99.168098,89.47245
1.352e-008,-99.182037,112.72454
1.3535e-008,-99.21273,135.92946
1.355e-008,-99.261116,159.08028
1.3565e-008,-99.328041,-177.83006
1.358e-008,-99.414284,-154.80971
1.3595e-008,-99.520462,-131.86703
1.361e-008,-99.647102,-109.01081
1.3625e-008,-99.794525,-86.250481
1.364e-008,-99.962944,-63.595665
1.3655e-008,-100.15231,-41.056751
1.367e-008,-100.36228,-18.644087
1.3685e-008,-100.5924,3.631536
1.37e-008,-100.84174,25.759569
1.3715e-008,-101.10912,47.729763
1.373e-008,-101.39301,69.532166
1.3745e-008,-101.69135,91.15815
1.376e-008,-102.00182,112.60098
1.3775e-008,-102.32161,133.85643
1.379e-008,-102.64754,154.92262
1.3805e-008,-102.97621,175.80235
1.382e-008,-103.30399,-163.49626
1.3835e-008,-103.6272,-142.96146
1.385e-008,-103.94261,-122.57394
1.3865e-008,-104.24707,-102.31115
1.388e-008,-104.53835,-82.143631
1.3895e-008,-104.81499,-62.040371
1.391e-008,-105.07671,-41.967533
1.3925e-008,-105.32397,-21.89217
1.394e-008,-105.55825,-1.7828771
1.3955e-008,-105.78205,18.387243
1.397e-008,-105.99808,38.641033
1.3985e-008,-106.20958,58.995758
1.4e-008,-106.41982,79.463646
1.4015e-008,-106.63184,100.04864
1.403e-008,-106.84824,120.7552
1.4045e-008,-107.07096,141.58041
1.406e-008,-107.30149,162.52145
1.4075e-008,-107.54037,-176.42723
1.409e-008,-107.78748,-155.27103
1.4105e-008,-108.04145,-134.01488
1.412e-008,-108.3009,-112.6605
1.4135e-008,-108.56274,-91.20932
1.415e-008,-108.82373,-69.657387
1.4165e-008,-109.0796,-47.999691
1.418e-008,-109.32616,-26.224955
1.4195e-008,-109.55802,-4.3181987
1.421e-008,-109.7702,17.7372
1.4225e-008,-109.95737,39.959648
