!CSV A.01.01
!Keysight Technologies,N5227B,US58420762,A.13.80.08
!Date: Monday, November 20, 2023 16:57:42
!Source: Standard

BEGIN CH1_DATA
Freq(Hz),S21(DB),S21(DEG)
3000000000,-55.564117,63.798721
3003000000,-55.425564,53.993187
3006000000,-55.332932,43.597645
3009000000,-55.039074,33.346893
3012000000,-54.892845,19.781805
3015000000,-54.854038,7.5224228
3018000000,-54.868435,-4.3008537
3021000000,-55.022903,-15.585007
3024000000,-54.905094,-26.9168
3027000000,-55.009216,-38.68557
3030000000,-54.915482,-49.286926
3033000000,-55.064201,-61.979488
3036000000,-55.054012,-72.097725
3039000000,-55.016376,-82.999321
3042000000,-55.026539,-93.541229
3045000000,-54.728813,-104.78572
3048000000,-54.651546,-116.83565
3051000000,-54.614559,-129.35712
3054000000,-54.659866,-141.15469
3057000000,-54.797863,-153.77734
3060000000,-54.99213,-164.66837
3063000000,-54.992081,-176.63939
3066000000,-55.105385,173.22035
3069000000,-54.992374,162.62485
3072000000,-55.181759,151.10028
3075000000,-54.993057,140.35255
3078000000,-54.982105,128.63055
3081000000,-54.997734,117.28152
3084000000,-55.039509,105.52696
3087000000,-55.109348,94.256599
3090000000,-55.155712,83.668365
3093000000,-55.225525,72.252892
3096000000,-55.22049,62.775444
3099000000,-55.024975,51.447678
3102000000,-54.962959,40.019989
3105000000,-54.988384,28.389307
3108000000,-55.042046,16.354795
3111000000,-54.987427,6.2610326
3114000000,-54.910065,-5.4732518
3117000000,-55.042454,-17.038515
3120000000,-55.057552,-27.161367
3123000000,-55.109108,-37.926086
3126000000,-54.920132,-48.347954
3129000000,-54.803097,-59.215363
3132000000,-54.580532,-70.628456
3135000000,-54.355667,-84.005119
3138000000,-54.515884,-96.32666
3141000000,-54.686699,-108.77711
3144000000,-54.8125,-118.69797
3147000000,-54.95224,-129.29132
3150000000,-55.033848,-139.39441
3153000000,-54.763367,-149.64909
3156000000,-54.603081,-160.71828
3159000000,-54.520126,-173.74565
3162000000,-54.568623,175.67143
3165000000,-54.428329,163.94405
3168000000,-54.32291,152.31136
3171000000,-54.352459,139.57796
3174000000,-54.487877,127.64693
3177000000,-54.611313,115.97115
3180000000,-54.701889,104.20975
3183000000,-54.81765,94.366982
3186000000,-54.75877,83.21698
3189000000,-54.535465,72.848923
3192000000,-54.584274,61.077152
3195000000,-54.548092,49.375919
3198000000,-54.478844,38.156769
3201000000,-54.508152,26.503967
3204000000,-54.468723,14.803237
3207000000,-54.515709,3.9721687
3210000000,-54.610588,-7.7083015
3213000000,-54.432827,-19.856152
3216000000,-54.602188,-31.976511
3219000000,-54.825207,-42.068882
3222000000,-54.943726,-54.391644
3225000000,-55.044052,-63.735207
3228000000,-54.945946,-73.962578
3231000000,-54.875919,-84.502556
3234000000,-54.693882,-95.366081
3237000000,-54.460247,-107.33336
3240000000,-54.597652,-119.56934
3243000000,-54.636856,-130.87785
3246000000,-54.705788,-141.69629
3249000000,-54.678455,-152.39211
3252000000,-54.483902,-164.43912
3255000000,-54.599789,-176.10349
3258000000,-54.586391,172.22073
3261000000,-54.648972,161.31786
3264000000,-54.841568,150.76968
3267000000,-54.771816,140.17293
3270000000,-54.605679,129.50291
3273000000,-54.558102,118.1006
3276000000,-54.331249,106.28723
3279000000,-54.319172,94.383865
3282000000,-54.295853,81.721657
3285000000,-54.454327,70.036201
3288000000,-54.393959,58.354576
3291000000,-54.528992,47.184307
3294000000,-54.5448,35.512291
3297000000,-54.662037,25.559883
3300000000,-54.857498,14.553735
3303000000,-54.673523,3.7056198
3306000000,-54.579433,-7.6750574
3309000000,-54.42963,-19.44322
3312000000,-54.357189,-31.108572
3315000000,-54.473045,-43.352425
3318000000,-54.468578,-55.163235
3321000000,-54.458702,-66.943993
3324000000,-54.599701,-78.350655
3327000000,-54.727161,-90.273003
3330000000,-54.791813,-101.90236
3333000000,-54.947422,-112.78777
3336000000,-55.126171,-122.73505
3339000000,-55.046459,-132.72198
3342000000,-54.971004,-144.12457
3345000000,-54.829716,-154.45609
3348000000,-54.701218,-167.02208
3351000000,-54.67733,-179.52477
3354000000,-54.847939,168.35222
3357000000,-54.960648,157.82823
3360000000,-55.250698,146.98859
3363000000,-55.207802,136.6452
3366000000,-55.196651,125.66468
3369000000,-55.060802,113.72753
3372000000,-55.227371,102.04945
3375000000,-55.285557,90.249069
3378000000,-55.351971,80.905914
3381000000,-55.303593,70.648003
3384000000,-55.203632,58.773285
3387000000,-55.20702,48.619942
3390000000,-55.080566,36.637043
3393000000,-55.057716,24.998953
3396000000,-55.216785,14.012664
3399000000,-55.253654,0.80312181
3402000000,-55.195541,-8.2548084
3405000000,-55.456051,-20.844965
3408000000,-55.444275,-30.783136
3411000000,-55.520737,-41.869896
3414000000,-55.215202,-53.290047
3417000000,-55.220024,-65.270645
3420000000,-55.182011,-75.794586
3423000000,-55.349174,-87.133347
3426000000,-55.234211,-97.133553
3429000000,-55.191341,-108.2253
3432000000,-55.046383,-120.88979
3435000000,-55.068802,-132.41599
3438000000,-55.097164,-145.49677
3441000000,-55.302128,-156.79233
3444000000,-55.623947,-167.36359
3447000000,-55.615631,-176.94438
3450000000,-55.455578,173.01172
3453000000,-55.471222,161.24001
3456000000,-55.390835,150.32661
3459000000,-55.289429,137.85674
3462000000,-55.142895,126.32008
3465000000,-55.433731,114.21853
3468000000,-55.583401,102.80009
3471000000,-55.461319,93.363838
3474000000,-55.37291,81.283058
3477000000,-55.418163,69.066498
3480000000,-55.62719,57.395229
3483000000,-55.702461,46.953869
3486000000,-56.027691,35.820507
3489000000,-56.00399,26.703363
3492000000,-55.81707,16.506142
3495000000,-55.581371,4.9594932
3498000000,-55.459225,-7.9620514
3501000000,-55.678024,-19.039181
3504000000,-55.639141,-30.516176
3507000000,-55.881435,-42.115879
3510000000,-55.800228,-52.725677
3513000000,-55.716267,-64.423035
3516000000,-55.935726,-74.429344
3519000000,-55.917236,-85.569748
3522000000,-55.855316,-97.154709
3525000000,-55.894642,-107.22859
3528000000,-55.85817,-119.07304
3531000000,-55.759041,-129.68712
3534000000,-55.723038,-142.8154
3537000000,-55.741295,-153.20627
3540000000,-55.815289,-165.18863
3543000000,-55.935963,-177.10045
3546000000,-56.120148,171.96626
3549000000,-56.21088,162.50597
3552000000,-56.247139,152.25121
3555000000,-56.006458,141.20494
3558000000,-55.911106,129.38177
3561000000,-55.927193,117.29871
3564000000,-55.938232,105.50414
3567000000,-56.041168,93.599075
3570000000,-56.09354,82.89492
3573000000,-56.100769,71.70652
3576000000,-56.199532,61.544888
3579000000,-56.030159,50.378979
3582000000,-56.093681,37.673939
3585000000,-56.075481,26.69071
3588000000,-56.188896,14.634417
3591000000,-56.358902,3.5830474
3594000000,-56.183567,-5.8059535
3597000000,-56.284794,-16.840855
3600000000,-56.249439,-28.380894
3603000000,-56.228699,-38.364124
3606000000,-56.103436,-50.48428
3609000000,-56.110146,-63.302059
3612000000,-56.30962,-74.126328
3615000000,-56.286053,-85.717186
3618000000,-56.555717,-97.096893
3621000000,-56.83086,-107.5089
3624000000,-56.643272,-118.45165
3627000000,-56.699539,-128.67593
3630000000,-56.492638,-140.40135
3633000000,-56.618927,-151.45488
3636000000,-56.762997,-161.68532
3639000000,-56.762482,-173.13585
3642000000,-56.742256,174.42316
3645000000,-57.030518,162.99551
3648000000,-57.094955,152.42926
3651000000,-56.98547,142.07066
3654000000,-56.868484,131.67125
3657000000,-56.923241,118.88011
3660000000,-57.081718,108.39507
3663000000,-57.248684,97.699783
3666000000,-57.308445,85.440201
3669000000,-57.453323,76.100395
3672000000,-57.359962,65.12719
3675000000,-57.037594,55.420963
3678000000,-57.164288,44.010094
3681000000,-57.251656,32.666046
3684000000,-57.102249,21.116215
3687000000,-57.166225,9.9563646
3690000000,-57.241844,-0.27914861
3693000000,-56.982128,-12.443802
3696000000,-57.172039,-21.904047
3699000000,-57.383129,-34.239002
3702000000,-57.314133,-44.639362
3705000000,-57.353203,-54.525223
3708000000,-57.457626,-66.434319
3711000000,-57.17461,-76.926414
3714000000,-57.411652,-88.277748
3717000000,-57.307926,-98.412201
3720000000,-57.326054,-110.88643
3723000000,-57.169754,-122.24879
3726000000,-57.173866,-132.9119
3729000000,-57.149788,-145.35124
3732000000,-57.431122,-156.47218
3735000000,-57.254463,-167.07768
3738000000,-57.367504,-179.42723
3741000000,-57.44643,170.72395
3744000000,-57.623634,158.7673
3747000000,-57.791496,147.32715
3750000000,-57.806473,137.50996
3753000000,-57.53548,125.9619
3756000000,-57.467911,116.02911
3759000000,-57.311314,105.00897
3762000000,-57.360611,93.072784
3765000000,-57.689182,80.851723
3768000000,-57.71442,70.365807
3771000000,-57.910442,58.517838
3774000000,-58.055622,48.755505
3777000000,-58.219189,38.494015
3780000000,-58.364727,28.531122
3783000000,-58.121784,18.502335
3786000000,-58.004799,5.7550225
3789000000,-58.003025,-3.6121631
3792000000,-57.850296,-15.344596
3795000000,-57.787914,-27.287323
3798000000,-57.893677,-37.492485
3801000000,-57.827869,-48.388203
3804000000,-58.20565,-59.842663
3807000000,-58.061752,-69.673286
3810000000,-58.222977,-80.397438
3813000000,-58.147633,-90.196785
3816000000,-57.994617,-101.64558
3819000000,-57.851734,-111.81112
3822000000,-57.9468,-123.58146
3825000000,-57.91399,-133.9176
3828000000,-57.807224,-145.30974
3831000000,-57.974174,-155.49756
3834000000,-57.629429,-167.86142
3837000000,-57.705025,-179.01889
3840000000,-57.858723,168.70563
3843000000,-58.054794,157.48332
3846000000,-58.118221,147.36655
3849000000,-57.86068,136.99335
3852000000,-58.071487,126.56693
3855000000,-57.94252,116.82156
3858000000,-57.582592,105.70814
3861000000,-57.81081,93.794357
3864000000,-57.733978,83.104904
3867000000,-57.376862,69.985458
3870000000,-57.563786,60.066425
3873000000,-57.617474,49.131218
3876000000,-57.734665,37.242046
3879000000,-57.606483,25.764538
3882000000,-57.590069,14.672478
3885000000,-57.626427,4.2727013
3888000000,-57.840694,-5.0817161
3891000000,-57.535019,-17.332504
3894000000,-57.427834,-28.699923
3897000000,-57.217342,-40.125004
3900000000,-57.512184,-52.359718
3903000000,-57.715473,-63.480331
3906000000,-57.565067,-75.027534
3909000000,-57.705334,-85.849884
3912000000,-57.830452,-96.518723
3915000000,-57.669132,-108.29264
3918000000,-57.839375,-118.45242
3921000000,-57.600883,-128.12512
3924000000,-57.669666,-138.96254
3927000000,-57.980335,-149.32332
3930000000,-57.702312,-161.60838
3933000000,-57.599079,-171.49626
3936000000,-57.773167,177.35104
3939000000,-57.51001,165.59322
3942000000,-57.334473,154.13821
3945000000,-57.322929,142.43839
3948000000,-57.565475,129.60536
3951000000,-57.708244,119.6461
3954000000,-57.86047,110.35825
3957000000,-57.65659,100.58202
3960000000,-57.724049,90.858208
3963000000,-57.520622,78.96479
3966000000,-57.448723,67.211823
3969000000,-57.409431,56.722408
3972000000,-57.185631,45.194679
3975000000,-57.226547,33.62281
3978000000,-57.307384,20.089024
3981000000,-57.397026,10.060466
3984000000,-57.519779,-0.85735518
3987000000,-57.636654,-12.259913
3990000000,-57.846947,-21.972275
3993000000,-57.638405,-31.090622
3996000000,-57.643646,-42.575535
3999000000,-57.262878,-52.128658
4002000000,-57.066799,-63.110565
4005000000,-56.98613,-77.093948
4008000000,-57.129837,-88.000687
4011000000,-57.074112,-100.15907
4014000000,-57.225948,-112.57021
4017000000,-57.580223,-122.38962
4020000000,-57.402836,-133.26381
4023000000,-57.571049,-143.48018
4026000000,-57.499546,-153.11906
4029000000,-57.14003,-163.68779
4032000000,-57.12711,-174.09012
4035000000,-56.767265,173.55275
4038000000,-56.798176,162.12177
4041000000,-56.426579,149.56372
4044000000,-56.767384,137.33624
4047000000,-56.788349,124.67997
4050000000,-56.816212,114.94379
4053000000,-57.084473,103.03162
4056000000,-57.227562,92.900558
4059000000,-57.174286,82.848457
4062000000,-57.16584,71.879372
4065000000,-57.22084,61.74181
4068000000,-56.929756,52.429569
4071000000,-56.802269,40.330879
4074000000,-56.533318,28.501015
4077000000,-56.633987,15.972372
4080000000,-56.654457,4.9779148
4083000000,-56.703022,-7.4631524
4086000000,-56.917431,-18.695446
4089000000,-57.025585,-30.05109
4092000000,-57.064335,-39.520908
4095000000,-57.016277,-49.073933
4098000000,-56.942493,-60.837856
4101000000,-56.762894,-71.315598
4104000000,-56.358318,-81.176254
4107000000,-56.156864,-92.669769
4110000000,-56.185841,-104.4575
4113000000,-56.060234,-116.4454
4116000000,-56.20023,-129.43941
4119000000,-56.423744,-141.33295
4122000000,-56.38224,-153.2072
4125000000,-56.442005,-163.61356
4128000000,-56.609943,-174.60855
4131000000,-56.653442,173.49379
4134000000,-56.523827,163.24229
4137000000,-56.682636,154.23615
4140000000,-56.430515,143.55148
4143000000,-56.23357,133.43013
4146000000,-56.197903,120.86577
4149000000,-55.771858,108.48891
4152000000,-56.139145,95.19017
4155000000,-55.883495,83.864418
4158000000,-56.171902,71.520325
4161000000,-56.394859,59.575649
4164000000,-56.761089,50.579681
4167000000,-56.846474,40.710598
4170000000,-56.64735,33.204674
4173000000,-56.256695,20.299652
4176000000,-56.223358,9.3722935
4179000000,-55.977165,-2.4652212
4182000000,-55.766724,-14.884704
4185000000,-56.172215,-27.041096
4188000000,-55.952026,-39.231903
4191000000,-56.24477,-50.611729
4194000000,-56.484238,-61.754608
4197000000,-56.47493,-72.827278
4200000000,-56.487103,-82.810654
4203000000,-56.599617,-92.762238
4206000000,-56.300957,-104.51945
4209000000,-56.318516,-114.63172
4212000000,-56.232552,-126.55341
4215000000,-56.204102,-138.02994
4218000000,-56.114529,-149.21851
4221000000,-56.180721,-160.62341
4224000000,-56.094673,-171.97327
4227000000,-56.3437,177.12227
4230000000,-56.245205,166.88301
4233000000,-56.299847,155.25882
4236000000,-56.097462,144.37628
4239000000,-56.319279,133.91022
4242000000,-56.106358,121.64959
4245000000,-55.976696,110.33575
4248000000,-56.213329,99.819351
4251000000,-56.091923,89.84977
4254000000,-56.216022,77.180405
4257000000,-55.908081,67.138283
4260000000,-55.818748,54.386467
4263000000,-55.835663,42.649414
4266000000,-55.888603,31.773968
4269000000,-55.987278,21.174309
4272000000,-55.874676,9.1863699
4275000000,-55.955135,-0.38533917
4278000000,-56.051468,-12.035028
4281000000,-55.933983,-23.235207
4284000000,-55.884796,-34.825962
4287000000,-56.05571,-46.238056
4290000000,-56.036396,-56.382927
4293000000,-55.8209,-66.880592
4296000000,-55.939091,-79.112755
4299000000,-55.73716,-88.831993
4302000000,-55.790325,-101.70784
4305000000,-55.770908,-113.06076
4308000000,-55.869781,-123.44851
4311000000,-55.926464,-135.32626
4314000000,-55.837986,-146.3255
4317000000,-55.98513,-155.77017
4320000000,-55.896378,-167.28346
4323000000,-55.875629,-178.09381
4326000000,-55.776245,169.64088
4329000000,-55.724525,158.53281
4332000000,-55.830826,147.31984
4335000000,-55.550129,136.50769
4338000000,-55.767006,125.18964
4341000000,-55.672234,113.66726
4344000000,-55.803802,103.75892
4347000000,-55.519997,91.842117
4350000000,-55.567749,81.816307
4353000000,-55.560337,70.475716
4356000000,-55.485287,58.74514
4359000000,-55.461102,47.734016
4362000000,-55.414867,35.449898
4365000000,-55.400364,25.752226
4368000000,-55.499596,13.774129
4371000000,-55.305859,2.9627297
4374000000,-55.246628,-7.5695496
4377000000,-55.189548,-19.65657
4380000000,-55.123936,-32.08395
4383000000,-55.049274,-42.91893
4386000000,-55.237267,-54.654373
4389000000,-55.262558,-64.999527
4392000000,-55.231739,-76.733833
4395000000,-55.189964,-86.554077
4398000000,-55.082916,-98.263474
4401000000,-55.075886,-109.05678
4404000000,-54.825439,-120.79745
4407000000,-54.592705,-133.15866
4410000000,-54.806335,-145.01399
4413000000,-54.884613,-157.26709
4416000000,-54.989613,-168.60165
4419000000,-55.106396,-179.43396
4422000000,-55.055874,169.36595
4425000000,-55.052448,158.72485
4428000000,-55.012779,146.75046
4431000000,-55.103287,137.38963
4434000000,-54.985321,127.42709
4437000000,-54.654423,115.47339
4440000000,-54.700115,103.99978
4443000000,-54.84927,91.558342
4446000000,-54.761917,80.753563
4449000000,-54.748749,68.767159
4452000000,-54.731323,56.979969
4455000000,-54.795326,46.678978
4458000000,-54.761276,35.090164
4461000000,-54.961555,23.466516
4464000000,-54.904549,14.618813
4467000000,-54.874538,2.5035484
4470000000,-54.653629,-7.21071
4473000000,-54.587105,-19.810152
4476000000,-54.627743,-31.098166
4479000000,-54.490986,-43.034389
4482000000,-54.636703,-53.665028
4485000000,-54.498608,-65.269852
4488000000,-54.547581,-77.005943
4491000000,-54.562271,-88.352921
4494000000,-54.520256,-100.08348
4497000000,-54.508118,-110.78178
4500000000,-54.503136,-121.66884
4503000000,-54.59193,-133.20662
4506000000,-54.289867,-143.58098
4509000000,-54.317673,-155.65169
4512000000,-54.363007,-166.6985
4515000000,-54.132919,-178.85596
4518000000,-54.322033,169.34296
4521000000,-54.425095,157.01978
4524000000,-54.615646,145.87137
4527000000,-54.6171,135.31694
4530000000,-54.615932,125.2338
4533000000,-54.505867,114.5138
4536000000,-54.297394,103.18355
4539000000,-54.147755,92.228035
4542000000,-54.184612,79.506538
4545000000,-54.197071,67.512886
4548000000,-54.33847,56.003052
4551000000,-54.440716,43.884418
4554000000,-54.186871,32.993217
4557000000,-54.343773,22.380838
4560000000,-54.337612,11.330495
4563000000,-54.605904,0.19458862
4566000000,-54.508408,-10.152607
4569000000,-54.424004,-21.211559
4572000000,-54.191898,-31.290579
4575000000,-54.156956,-41.675552
4578000000,-53.87323,-55.130611
4581000000,-54.175098,-67.41687
4584000000,-54.118866,-80.496223
4587000000,-54.149334,-92.526459
4590000000,-54.519627,-101.55317
4593000000,-54.394379,-112.33312
4596000000,-54.220638,-123.19377
4599000000,-54.301147,-134.26788
4602000000,-54.182262,-145.12991
4605000000,-54.20496,-157.02905
4608000000,-54.057476,-168.07135
4611000000,-54.019238,-178.38206
4614000000,-54.061962,169.91599
4617000000,-54.025055,156.89119
4620000000,-54.043743,144.77068
4623000000,-54.014576,134.12778
4626000000,-54.084709,123.01929
4629000000,-54.025181,112.54894
4632000000,-54.276215,101.07302
4635000000,-54.208038,90.095955
4638000000,-53.968147,79.82489
4641000000,-53.903042,68.006096
4644000000,-53.786011,55.496262
4647000000,-53.852291,44.717083
4650000000,-53.941231,32.437492
4653000000,-53.916134,21.106329
4656000000,-53.85368,10.739212
4659000000,-54.001472,-0.37863633
4662000000,-53.847431,-12.909643
4665000000,-53.9473,-25.50169
4668000000,-53.960346,-34.989468
4671000000,-54.192135,-46.272812
4674000000,-54.159981,-56.723522
4677000000,-54.1759,-67.041031
4680000000,-53.775253,-79.145546
4683000000,-53.803677,-90.378059
4686000000,-53.754505,-102.30399
4689000000,-53.844158,-114.43741
4692000000,-53.947571,-127.62535
4695000000,-54.157154,-137.98712
4698000000,-54.088169,-148.72748
4701000000,-54.054371,-158.81178
4704000000,-53.891453,-169.46922
4707000000,-53.97551,178.69151
4710000000,-53.772034,167.62425
4713000000,-53.994919,155.37587
4716000000,-53.915115,145.24712
4719000000,-53.963211,134.11641
4722000000,-53.83794,122.96793
4725000000,-53.706135,111.98036
4728000000,-53.765324,99.229256
4731000000,-53.84922,87.534882
4734000000,-53.858364,75.899559
4737000000,-53.914917,65.35334
4740000000,-53.837883,54.132179
4743000000,-53.984863,42.565987
4746000000,-53.704861,31.318464
4749000000,-53.989117,20.700426
4752000000,-53.819962,8.0867262
4755000000,-53.950008,-1.6550425
4758000000,-53.917076,-13.708457
4761000000,-53.741261,-24.76836
4764000000,-53.678677,-36.736637
4767000000,-53.780807,-49.232803
4770000000,-53.916344,-59.346024
4773000000,-53.968597,-69.685066
4776000000,-54.08493,-80.833908
4779000000,-54.010868,-93.288773
4782000000,-53.94693,-103.14524
4785000000,-53.959316,-114.49635
4788000000,-54.03405,-126.28417
4791000000,-53.800652,-137.82426
4794000000,-53.882092,-148.82477
4797000000,-53.865696,-159.56406
4800000000,-53.948093,-172.15747
4803000000,-53.840988,176.36142
4806000000,-53.936596,166.80563
4809000000,-53.98634,155.47627
4812000000,-53.783058,143.94408
4815000000,-53.861702,131.42703
4818000000,-54.000134,120.47992
4821000000,-53.920086,108.79032
4824000000,-54.086819,97.459496
4827000000,-53.839123,86.812645
4830000000,-54.111462,75.870796
4833000000,-53.866707,65.151627
4836000000,-53.858212,52.999302
