!CSV A.01.01
!Keysight Technologies,N5227B,US58420762,A.13.80.08
!Date: Tuesday, November 21, 2023 09:48:48
!Source: Standard

BEGIN CH1_DATA
Freq(Hz),S21(DB),S21(DEG)
3000000000,-62.349842,170.63843
3003000000,-62.438816,156.28618
3006000000,-62.606091,143.33189
3009000000,-62.368641,130.69371
3012000000,-62.199665,118.2979
3015000000,-62.116875,105.79105
3018000000,-62.194183,94.383667
3021000000,-61.901741,81.183968
3024000000,-62.057632,68.957466
3027000000,-62.088573,55.88176
3030000000,-61.7202,40.579021
3033000000,-61.885639,28.489447
3036000000,-62.124489,15.016277
3039000000,-62.509869,4.2225904
3042000000,-62.466537,-5.3772459
3045000000,-62.246719,-18.575764
3048000000,-61.986736,-31.475323
3051000000,-62.062523,-44.583565
3054000000,-62.052189,-59.027874
3057000000,-62.217426,-70.056961
3060000000,-62.207039,-83.749115
3063000000,-62.065334,-95.312103
3066000000,-61.562786,-107.28748
3069000000,-61.719559,-120.36989
3072000000,-61.801769,-134.14801
3075000000,-61.640244,-149.21788
3078000000,-61.966881,-162.85286
3081000000,-61.963276,-174.7218
3084000000,-62.147537,175.036
3087000000,-62.223473,163.11998
3090000000,-61.940681,149.35815
3093000000,-62.055866,136.69864
3096000000,-62.264172,125.3199
3099000000,-62.141895,112.41653
3102000000,-62.065548,100.47588
3105000000,-61.955299,88.628891
3108000000,-61.852604,74.862854
3111000000,-61.522732,63.135269
3114000000,-61.665352,46.530701
3117000000,-61.96526,35.111202
3120000000,-61.837078,20.448902
3123000000,-61.938911,7.751977
3126000000,-61.838001,-4.5251956
3129000000,-62.11451,-15.745618
3132000000,-61.96978,-27.716129
3135000000,-61.791378,-41.03598
3138000000,-61.695431,-56.189945
3141000000,-61.882156,-67.070679
3144000000,-62.275913,-78.740318
3147000000,-62.300671,-92.238052
3150000000,-62.544571,-102.76514
3153000000,-62.210228,-113.15888
3156000000,-61.59639,-125.98829
3159000000,-61.466629,-139.59798
3162000000,-61.430161,-153.73882
3165000000,-61.398701,-166.08098
3168000000,-61.701538,179.95668
3171000000,-62.199703,165.66077
3174000000,-62.250534,154.52881
3177000000,-62.109737,142.03941
3180000000,-61.990948,132.08893
3183000000,-61.992714,119.80619
3186000000,-61.863995,105.61131
3189000000,-61.821556,95.559158
3192000000,-61.657932,79.553642
3195000000,-61.937489,65.587524
3198000000,-61.6026,55.033001
3201000000,-61.406525,43.29372
3204000000,-61.490353,28.567526
3207000000,-61.413734,14.472717
3210000000,-61.487934,1.5219731
3213000000,-61.649921,-10.452738
3216000000,-61.682056,-23.207239
3219000000,-61.902504,-34.950443
3222000000,-61.867195,-48.316647
3225000000,-61.804131,-61.543762
3228000000,-62.391418,-73.06617
3231000000,-62.010757,-82.574722
3234000000,-61.616528,-96.126915
3237000000,-61.328613,-109.03084
3240000000,-61.084717,-122.73004
3243000000,-61.163723,-136.14101
3246000000,-61.291676,-151.18277
3249000000,-61.372913,-165.01944
3252000000,-61.620235,-178.62354
3255000000,-61.951542,169.32253
3258000000,-61.87125,155.81978
3261000000,-62.438988,144.26205
3264000000,-62.671452,135.05212
3267000000,-62.376076,122.64602
3270000000,-62.170677,112.57664
3273000000,-61.931393,101.35473
3276000000,-61.573395,89.81498
3279000000,-60.928848,73.569023
3282000000,-60.906746,59.101532
3285000000,-61.226143,46.385117
3288000000,-61.277473,29.439421
3291000000,-61.257072,16.730505
3294000000,-61.8521,1.8083327
3297000000,-62.429302,-10.539129
3300000000,-62.701931,-19.345665
3303000000,-62.577248,-30.169609
3306000000,-62.410423,-39.097988
3309000000,-62.224396,-52.137733
3312000000,-61.761463,-63.725727
3315000000,-61.671623,-74.848557
3318000000,-61.420818,-91.382881
3321000000,-61.394733,-105.32854
3324000000,-61.32449,-119.43512
3327000000,-61.366978,-134.0031
3330000000,-61.802338,-147.65089
3333000000,-61.818172,-159.55598
3336000000,-62.388271,-171.89084
3339000000,-62.637074,174.94949
3342000000,-62.378124,164.78596
3345000000,-62.276142,152.78372
3348000000,-62.353382,142.93213
3351000000,-62.329094,127.63703
3354000000,-62.435608,116.44115
3357000000,-62.161541,103.74098
3360000000,-61.515068,90.458473
3363000000,-61.657936,79.034401
3366000000,-61.886162,65.723831
3369000000,-61.754421,50.422619
3372000000,-61.920658,38.52829
3375000000,-62.407661,26.769381
3378000000,-62.336544,13.425101
3381000000,-62.517136,4.2117772
3384000000,-62.440063,-8.8480339
3387000000,-62.339565,-20.835648
3390000000,-62.072399,-33.798805
3393000000,-62.028194,-47.669403
3396000000,-62.414234,-60.412334
3399000000,-62.381783,-71.390938
3402000000,-62.322308,-83.623489
3405000000,-61.805248,-98.281464
3408000000,-62.061043,-110.67188
3411000000,-62.531345,-124.66056
3414000000,-62.179295,-134.34358
3417000000,-62.652599,-145.97762
3420000000,-62.447346,-156.81844
3423000000,-62.040787,-170.99211
3426000000,-61.73291,176.1022
3429000000,-61.971264,159.9458
3432000000,-61.952209,148.0304
3435000000,-62.656151,135.76871
3438000000,-62.253189,123.13427
3441000000,-62.539932,114.75739
3444000000,-62.710476,100.3838
3447000000,-62.350975,89.34343
3450000000,-62.457493,74.82151
3453000000,-62.53817,60.318645
3456000000,-62.588451,49.681934
3459000000,-62.378517,39.124283
3462000000,-61.971302,25.927763
3465000000,-62.032314,13.288789
3468000000,-62.041706,-0.79649162
3471000000,-62.132797,-14.182934
3474000000,-61.808388,-24.575291
3477000000,-61.635414,-40.204723
3480000000,-62.18219,-52.949024
3483000000,-62.172329,-66.372086
3486000000,-62.168789,-77.823326
3489000000,-62.56192,-89.895477
3492000000,-62.489273,-100.40862
3495000000,-62.120461,-112.5799
3498000000,-62.136002,-125.73694
3501000000,-61.826176,-137.28635
3504000000,-61.61578,-150.75755
3507000000,-61.743317,-166.78583
3510000000,-61.587906,-178.91277
3513000000,-61.953743,165.77158
3516000000,-61.947853,153.48827
3519000000,-62.094269,141.77187
3522000000,-62.235558,129.12164
3525000000,-62.334324,117.93329
3528000000,-62.094795,106.30389
3531000000,-62.332058,94.113434
3534000000,-62.104866,82.92318
3537000000,-61.591545,71.308235
3540000000,-61.666622,58.067291
3543000000,-61.464787,41.151768
3546000000,-61.628719,27.599726
3549000000,-61.844322,13.759509
3552000000,-61.775532,3.4200804
3555000000,-61.938606,-11.33103
3558000000,-62.224129,-23.977188
3561000000,-62.148361,-34.365372
3564000000,-62.12859,-47.014935
3567000000,-62.661373,-59.573128
3570000000,-62.252354,-70.860641
3573000000,-61.99614,-83.475632
3576000000,-62.168827,-95.256439
3579000000,-62.094704,-107.09335
3582000000,-61.894299,-119.61301
3585000000,-61.779633,-132.97678
3588000000,-61.619892,-148.00142
3591000000,-61.554718,-159.82689
3594000000,-61.67844,-175.50073
3597000000,-61.780674,170.30962
3600000000,-62.199932,155.6774
3603000000,-62.269482,143.99594
3606000000,-62.439125,132.83087
3609000000,-62.146255,121.89434
3612000000,-62.572594,113.40922
3615000000,-62.488426,99.045525
3618000000,-62.290863,87.419022
3621000000,-62.276482,75.962791
3624000000,-62.371475,63.934349
3627000000,-62.234562,49.198673
3630000000,-61.611034,36.384129
3633000000,-61.77248,21.633011
3636000000,-61.883781,7.4740176
3639000000,-62.562256,-5.8361144
3642000000,-62.467918,-17.551838
3645000000,-62.825745,-28.887955
3648000000,-62.744083,-40.485809
3651000000,-62.51487,-51.133217
3654000000,-62.608849,-66.13488
3657000000,-62.393345,-79.143982
3660000000,-62.148285,-93.232491
3663000000,-62.740902,-104.82411
3666000000,-62.975933,-117.10262
3669000000,-62.86491,-127.4621
3672000000,-62.687847,-139.62695
3675000000,-62.929455,-152.80064
3678000000,-62.760262,-163.10419
3681000000,-62.512676,-176.32303
3684000000,-62.09079,171.24956
3687000000,-61.943741,157.0963
3690000000,-62.109718,141.91107
3693000000,-62.29567,128.62979
3696000000,-62.512619,114.24459
3699000000,-62.647003,102.4865
3702000000,-63.17078,90.199776
3705000000,-63.238342,79.986855
3708000000,-63.293823,69.262398
3711000000,-63.279274,54.685524
3714000000,-63.084564,46.00209
3717000000,-62.818985,35.504494
3720000000,-62.918556,22.053761
3723000000,-62.234146,5.1772013
3726000000,-62.243755,-4.7790384
3729000000,-62.453403,-19.393232
3732000000,-62.311741,-34.39299
3735000000,-62.898037,-49.135044
3738000000,-63.102516,-59.820442
3741000000,-63.300526,-69.611923
3744000000,-63.187641,-82.883369
3747000000,-63.117779,-95.702377
3750000000,-63.282612,-104.75314
3753000000,-62.98259,-118.14865
3756000000,-63.218266,-128.5614
3759000000,-62.972816,-142.13322
3762000000,-62.727524,-154.98225
3765000000,-62.220226,-167.97853
3768000000,-62.415783,176.60439
3771000000,-62.398178,162.12939
3774000000,-62.675892,150.54048
3777000000,-63.08717,135.61403
3780000000,-63.205803,126.55293
3783000000,-63.033066,114.98402
3786000000,-63.028694,103.4076
3789000000,-63.143127,88.424019
3792000000,-62.775322,78.738037
3795000000,-62.831253,66.775429
3798000000,-62.759754,51.668896
3801000000,-63.265865,41.36042
3804000000,-62.696583,29.196785
3807000000,-62.772228,14.199627
3810000000,-62.33432,2.1651199
3813000000,-62.650745,-11.163215
3816000000,-62.433067,-23.815878
3819000000,-62.595291,-37.892239
3822000000,-63.126678,-49.214832
3825000000,-62.748966,-61.266216
3828000000,-62.912445,-72.211227
3831000000,-63.118328,-85.306305
3834000000,-62.943047,-98.756493
3837000000,-63.08799,-108.60201
3840000000,-62.737839,-122.80101
3843000000,-62.391911,-135.59424
3846000000,-62.741089,-146.68738
3849000000,-62.555393,-158.65765
3852000000,-62.570057,-170.31374
3855000000,-62.617485,174.84822
3858000000,-62.690739,160.95229
3861000000,-62.735291,146.35432
3864000000,-62.913826,133.80719
3867000000,-62.75209,123.87772
3870000000,-63.013214,113.52973
3873000000,-62.713326,101.38407
3876000000,-62.863823,89.064491
3879000000,-62.462307,76.075363
3882000000,-62.424046,58.381939
3885000000,-62.572552,48.990383
3888000000,-62.605938,36.559662
3891000000,-62.535667,22.873547
3894000000,-62.706978,11.789218
3897000000,-62.679794,-0.57835066
3900000000,-62.404385,-14.300609
3903000000,-62.308254,-25.853855
3906000000,-62.162281,-38.589493
3909000000,-62.198586,-52.802898
3912000000,-62.283661,-63.694057
3915000000,-62.512672,-81.197205
3918000000,-62.49509,-93.013382
3921000000,-62.37994,-105.65472
3924000000,-62.915123,-117.73287
3927000000,-62.786823,-130.26393
3930000000,-63.194977,-143.13058
3933000000,-62.88924,-151.41502
3936000000,-62.991257,-162.87946
3939000000,-62.698471,-173.92731
3942000000,-62.238159,173.02667
3945000000,-62.052658,158.04367
3948000000,-61.832432,143.79364
3951000000,-61.806473,128.63162
3954000000,-62.246674,113.10988
3957000000,-62.64468,101.14297
3960000000,-62.860634,89.824242
3963000000,-62.873894,78.6446
3966000000,-63.289303,65.569435
3969000000,-63.107857,56.617756
3972000000,-62.804958,45.086044
3975000000,-62.694843,30.252264
3978000000,-62.414471,19.110487
3981000000,-62.245033,6.3148041
3984000000,-62.301804,-7.4317865
3987000000,-62.103024,-20.959358
3990000000,-62.148251,-33.745228
3993000000,-62.143276,-47.790127
3996000000,-62.490997,-62.738514
3999000000,-62.48748,-73.753777
4002000000,-62.687088,-85.173309
4005000000,-62.609901,-97.610825
4008000000,-62.848446,-111.66866
4011000000,-62.959156,-123.96773
4014000000,-63.020554,-131.98715
4017000000,-62.757648,-145.39861
4020000000,-62.664104,-158.64528
4023000000,-62.394211,-169.27583
4026000000,-62.176346,173.10385
4029000000,-62.04208,162.11687
4032000000,-62.323879,148.75833
4035000000,-62.427475,133.39584
4038000000,-62.243969,123.08881
4041000000,-63.229061,105.78552
4044000000,-62.886726,94.445992
4047000000,-63.161877,84.701241
4050000000,-62.751038,70.75296
4053000000,-63.056389,60.079601
4056000000,-63.264126,47.725864
4059000000,-62.983604,36.127956
4062000000,-62.789993,23.065481
4065000000,-62.722954,14.707952
4068000000,-63.102257,-1.8287572
4071000000,-62.921715,-15.311191
4074000000,-62.608501,-30.639999
4077000000,-62.901371,-42.199448
4080000000,-63.030369,-58.249283
4083000000,-62.93166,-71.252754
4086000000,-63.2435,-81.725288
4089000000,-63.425072,-95.010681
4092000000,-63.105034,-105.55198
4095000000,-63.721218,-119.96304
4098000000,-63.678928,-128.1703
4101000000,-63.463924,-139.34984
4104000000,-63.374187,-153.29268
4107000000,-63.09536,-165.30225
4110000000,-62.493378,178.26276
4113000000,-62.417286,168.53773
4116000000,-62.877041,151.94304
4119000000,-62.865337,139.77295
4122000000,-63.283306,125.39637
4125000000,-64.087624,116.51853
4128000000,-64.343048,104.06536
4131000000,-64.098557,89.800751
4134000000,-63.908413,77.811951
4137000000,-63.349941,69.724739
4140000000,-63.522057,51.583649
4143000000,-63.586784,43.441715
4146000000,-63.707787,30.013996
4149000000,-63.774677,15.225644
4152000000,-63.940151,1.9834596
4155000000,-64.100746,-9.5168905
4158000000,-64.100029,-21.733034
4161000000,-63.955112,-32.949139
4164000000,-64.283295,-43.301456
4167000000,-64.02906,-55.062511
4170000000,-63.892982,-72.802185
4173000000,-63.787441,-85.618317
4176000000,-63.942802,-97.307022
4179000000,-64.207932,-110.88156
4182000000,-64.497673,-122.34191
4185000000,-64.692024,-136.80801
4188000000,-64.860664,-144.78918
4191000000,-64.695313,-156.53113
4194000000,-64.555756,-167.35159
4197000000,-64.475563,179.84799
4200000000,-64.371475,168.41626
4203000000,-64.323524,155.38297
4206000000,-64.219513,142.00282
4209000000,-64.675827,130.70415
4212000000,-64.773506,114.17432
4215000000,-64.024467,100.88543
4218000000,-64.810371,88.555382
4221000000,-65.103455,72.05349
4224000000,-65.369385,64.755928
4227000000,-65.615181,55.412991
4230000000,-65.35157,47.595062
4233000000,-64.778008,35.179482
4236000000,-64.852745,17.83564
4239000000,-65.048347,9.1817322
4242000000,-65.358063,-5.1597257
4245000000,-65.034233,-17.409723
4248000000,-64.89991,-27.475006
4251000000,-64.838676,-40.625267
4254000000,-64.98848,-59.727333
4257000000,-65.038002,-71.719543
4260000000,-65.498215,-80.169006
4263000000,-65.655823,-92.874619
4266000000,-65.519455,-97.530075
4269000000,-65.740547,-115.99027
4272000000,-66.030334,-126.24326
4275000000,-65.856888,-138.48772
4278000000,-65.268188,-147.19334
4281000000,-65.377197,-159.76987
4284000000,-65.072311,-174.41876
4287000000,-65.432938,174.19514
4290000000,-64.705574,161.71097
4293000000,-65.572723,143.8726
4296000000,-65.509712,135.21138
4299000000,-65.692802,121.8429
4302000000,-65.567398,114.41656
4305000000,-65.139503,101.28149
4308000000,-65.190498,89.530479
4311000000,-65.319069,70.778709
4314000000,-65.722839,58.977402
4317000000,-66.029045,49.481411
4320000000,-65.336746,37.243027
4323000000,-65.752464,30.103657
4326000000,-65.724258,16.149094
4329000000,-65.006729,0.32556716
4332000000,-65.05957,-5.9859104
4335000000,-65.118462,-17.671345
4338000000,-64.733368,-33.896378
4341000000,-65.008339,-43.826664
4344000000,-64.452271,-63.275692
4347000000,-65.01667,-70.617668
4350000000,-65.372993,-85.058884
4353000000,-65.535583,-97.051888
4356000000,-65.27092,-105.0192
4359000000,-64.879272,-115.5278
4362000000,-65.036491,-128.03474
4365000000,-65.206612,-140.49043
4368000000,-64.642792,-152.38184
4371000000,-64.308456,-167.21115
4374000000,-64.026833,-179.30843
4377000000,-64.421638,168.84085
4380000000,-63.855789,155.00626
4383000000,-64.672325,139.85399
4386000000,-64.285988,125.7103
4389000000,-64.713997,118.03665
4392000000,-64.740341,106.51344
4395000000,-64.950554,90.772339
4398000000,-64.938789,84.087433
4401000000,-64.636269,73.202339
4404000000,-64.21492,58.993839
4407000000,-63.240555,43.798424
4410000000,-64.136932,34.310932
4413000000,-63.728867,18.521494
4416000000,-63.304466,5.6099854
4419000000,-63.751621,-5.8683925
4422000000,-64.354645,-16.904758
4425000000,-63.679756,-28.384766
4428000000,-63.614223,-43.065643
4431000000,-63.535404,-52.135765
4434000000,-63.748383,-68.458672
4437000000,-63.490921,-79.697281
4440000000,-63.819958,-93.480011
4443000000,-63.571442,-104.1811
4446000000,-63.49305,-119.15895
4449000000,-63.453072,-128.07845
4452000000,-63.210995,-142.95227
4455000000,-63.173447,-156.57025
4458000000,-63.40987,-166.55949
4461000000,-63.062065,-177.60632
4464000000,-62.926067,167.61874
4467000000,-62.857983,158.22145
4470000000,-62.708279,144.97525
4473000000,-62.65683,129.46516
4476000000,-62.545059,115.94601
4479000000,-62.400528,102.55943
4482000000,-62.703602,90.383461
4485000000,-63.164341,75.518219
4488000000,-63.159454,64.047142
4491000000,-63.37587,49.742523
4494000000,-63.000988,44.484367
4497000000,-62.927719,31.818041
4500000000,-62.643787,17.498703
4503000000,-62.965618,3.3390648
4506000000,-61.94519,-10.547347
4509000000,-62.649727,-20.4596
4512000000,-62.251175,-34.48436
4515000000,-62.208549,-49.118114
4518000000,-62.458775,-58.690083
4521000000,-62.27808,-74.667099
4524000000,-62.239185,-85.7033
4527000000,-62.49979,-96.251984
4530000000,-62.373638,-108.44619
4533000000,-62.338036,-123.19866
4536000000,-62.287365,-136.69917
4539000000,-62.22282,-148.14908
4542000000,-61.824417,-162.73909
4545000000,-61.89753,-174.44891
4548000000,-61.968468,173.08997
4551000000,-62.215385,160.74109
4554000000,-61.902622,146.95758
4557000000,-62.221447,135.03586
4560000000,-62.016193,120.65393
4563000000,-61.697895,109.85798
4566000000,-61.842342,96.624779
4569000000,-61.914867,83.087875
4572000000,-62.051384,70.529625
4575000000,-61.963833,60.735615
4578000000,-61.90868,47.126274
4581000000,-62.20282,34.172417
4584000000,-62.120205,21.273149
4587000000,-62.315739,8.5918064
4590000000,-62.69418,-5.8492484
4593000000,-61.855331,-13.922515
4596000000,-61.789074,-26.629675
4599000000,-61.686798,-40.109638
4602000000,-61.628998,-55.698891
4605000000,-61.593998,-65.211441
4608000000,-62.062237,-80.721313
4611000000,-61.626247,-94.237877
4614000000,-62.05917,-103.51626
4617000000,-61.771393,-119.70895
4620000000,-62.400238,-132.57741
4623000000,-62.40155,-142.57022
4626000000,-61.852161,-155.65149
4629000000,-61.943035,-164.79987
4632000000,-61.944153,178.76747
4635000000,-61.7976,166.62421
4638000000,-61.855019,153.13683
4641000000,-61.76759,139.32426
4644000000,-62.269665,126.15961
4647000000,-61.962914,118.3008
4650000000,-62.176918,100.70649
4653000000,-61.881165,89.608505
4656000000,-61.762165,75.974762
4659000000,-62.34573,65.40242
4662000000,-62.3069,50.3214
4665000000,-62.34547,41.203983
4668000000,-62.309452,27.395691
4671000000,-61.958218,15.760427
4674000000,-62.050987,0.44648537
4677000000,-62.193237,-10.253775
4680000000,-62.036411,-25.188713
4683000000,-62.755451,-35.601894
4686000000,-62.465427,-48.461006
4689000000,-62.327522,-59.572281
4692000000,-62.393185,-72.72319
4695000000,-62.387493,-82.242424
4698000000,-62.157913,-97.598061
4701000000,-62.157047,-111.11301
4704000000,-62.210754,-125.43999
4707000000,-63.091278,-138.42596
4710000000,-62.560215,-147.53177
4713000000,-62.984848,-159.74965
4716000000,-62.787888,-173.42603
4719000000,-62.649719,172.42693
4722000000,-62.499897,162.45251
4725000000,-62.73632,149.05045
4728000000,-62.398449,134.87556
4731000000,-62.884457,125.27242
4734000000,-62.326603,113.71049
4737000000,-62.492153,98.802559
4740000000,-62.330582,83.453667
4743000000,-62.130653,72.188118
4746000000,-62.958336,60.053566
4749000000,-62.819653,46.028114
4752000000,-62.582806,32.736412
4755000000,-62.71994,23.51165
4758000000,-62.928486,11.51483
4761000000,-62.702087,0.79014891
4764000000,-63.309464,-10.782767
4767000000,-63.07151,-23.891422
4770000000,-62.610931,-37.305115
4773000000,-62.676979,-51.183186
4776000000,-63.146271,-58.654858
4779000000,-63.000011,-77.086464
4782000000,-63.293575,-87.148308
4785000000,-63.296787,-98.967628
4788000000,-62.79417,-114.64793
4791000000,-62.360252,-124.53819
4794000000,-62.800404,-137.76215
4797000000,-62.954021,-151.08072
4800000000,-63.061169,-166.03447
4803000000,-63.234806,-178.825
4806000000,-63.313984,176.63647
4809000000,-63.199566,161.67064
4812000000,-63.286793,150.94846
4815000000,-63.350796,134.9001
4818000000,-63.312325,128.16937
4821000000,-63.125557,109.85146
4824000000,-63.367748,98.275391
4827000000,-62.563694,86.980675
4830000000,-63.752689,77.712997
4833000000,-63.523502,63.004639
4836000000,-62.813477,51.378529
4839000000,-62.94603,37.470314
