!CSV A.01.01
!Keysight Technologies,N5227B,US58420762,A.13.80.08
!Date: Tuesday, November 21, 2023 09:36:10
!Source: Standard

BEGIN CH1_DATA
Time(s),S21(DB),S21(DEG)
5e-009,-115.84932,-176.57446
5.015e-009,-115.96302,-151.58861
5.03e-009,-116.16213,-126.33891
5.045e-009,-116.44537,-100.78783
5.06e-009,-116.81111,-74.887566
5.075e-009,-117.25535,-48.574772
5.09e-009,-117.77309,-21.770802
5.105e-009,-118.35418,5.6199732
5.12e-009,-118.98287,33.700077
5.135e-009,-119.6345,62.571823
5.15e-009,-120.27316,92.296829
5.165e-009,-120.85188,122.85758
5.18e-009,-121.31792,154.09598
5.195e-009,-121.6272,-174.32152
5.21e-009,-121.75867,-142.85497
5.225e-009,-121.72346,-111.9954
5.24e-009,-121.559,-82.117737
5.255e-009,-121.31419,-53.440121
5.27e-009,-121.03372,-26.033823
5.285e-009,-120.75044,0.12439873
5.3e-009,-120.48385,25.100506
5.315e-009,-120.24117,48.975048
5.33e-009,-120.01955,71.83287
5.345e-009,-119.80898,93.758148
5.36e-009,-119.59378,114.85317
5.375e-009,-119.35644,135.24367
5.39e-009,-119.08041,155.08371
5.405e-009,-118.75288,174.56146
5.42e-009,-118.36974,-166.12393
5.435e-009,-117.93375,-146.78117
5.45e-009,-117.45649,-127.24402
5.465e-009,-116.95362,-107.39586
5.48e-009,-116.44295,-87.16098
5.495e-009,-115.94145,-66.507568
5.51e-009,-115.46469,-45.430866
5.525e-009,-115.02456,-23.948782
5.54e-009,-114.63139,-2.0875909
5.555e-009,-114.29239,20.122477
5.57e-009,-114.0132,42.652798
5.585e-009,-113.79836,65.474968
5.6e-009,-113.65157,88.570381
5.615e-009,-113.57533,111.92049
5.63e-009,-113.57289,135.51796
5.645e-009,-113.64647,159.35751
5.66e-009,-113.79932,-176.55508
5.675e-009,-114.03438,-152.20598
5.69e-009,-114.35507,-127.57145
5.705e-009,-114.76524,-102.61356
5.72e-009,-115.2691,-77.278381
5.735e-009,-115.87035,-51.489414
5.75e-009,-116.5718,-25.133648
5.765e-009,-117.37432,1.9346176
5.78e-009,-118.27227,29.922037
5.795e-009,-119.24884,59.091698
5.81e-009,-120.2652,89.758072
5.825e-009,-121.2467,122.20491
5.84e-009,-122.07613,156.49638
5.855e-009,-122.61481,-167.80161
5.87e-009,-122.7708,-131.72482
5.885e-009,-122.5675,-96.532951
5.9e-009,-122.12279,-63.077305
5.915e-009,-121.57671,-31.600571
5.93e-009,-121.03488,-1.9491352
5.945e-009,-120.56042,26.177162
5.96e-009,-120.18618,53.05471
5.975e-009,-119.9269,78.902367
5.99e-009,-119.78806,103.8689
6.005e-009,-119.7701,128.04622
6.02e-009,-119.87103,151.46889
6.035e-009,-120.08705,174.13029
6.05e-009,-120.41179,-164.01624
6.065e-009,-120.83474,-143.05974
6.08e-009,-121.33876,-123.12217
6.095e-009,-121.89574,-104.33662
6.11e-009,-122.4623,-86.828819
6.125e-009,-122.97807,-70.618172
6.14e-009,-123.37156,-55.552006
6.155e-009,-123.58043,-41.220062
6.17e-009,-123.57845,-27.014374
6.185e-009,-123.38821,-12.31924
6.2e-009,-123.07184,3.2956426
6.215e-009,-122.70261,19.996408
6.23e-009,-122.34478,37.748795
6.245e-009,-122.04616,56.409237
6.26e-009,-121.83924,75.79776
6.275e-009,-121.74595,95.728378
6.29e-009,-121.78275,116.02905
6.305e-009,-121.96243,136.5415
6.32e-009,-122.2986,157.09241
6.335e-009,-122.80602,177.49341
6.35e-009,-123.50137,-162.48256
6.365e-009,-124.40447,-143.16739
6.38e-009,-125.53288,-125.05872
6.395e-009,-126.88733,-108.94113
6.41e-009,-128.40286,-96.041153
6.425e-009,-129.83302,-87.827263
6.44e-009,-130.63547,-84.413818
6.455e-009,-130.32599,-81.952286
6.47e-009,-129.15988,-75.424461
6.485e-009,-127.74807,-63.613247
6.5e-009,-126.45048,-47.777363
6.515e-009,-125.39016,-29.26483
6.53e-009,-124.59222,-8.9809599
6.545e-009,-124.05518,12.546607
6.56e-009,-123.77707,35.022121
6.575e-009,-123.76249,58.289627
6.59e-009,-124.02952,82.340515
6.605e-009,-124.61644,107.28741
6.62e-009,-125.59288,133.45177
6.635e-009,-127.07034,161.64258
6.65e-009,-129.22421,-166.12421
6.665e-009,-132.12816,-124.14784
6.68e-009,-134.10623,-61.541172
6.695e-009,-131.53995,3.1322188
6.71e-009,-127.64614,46.986309
6.725e-009,-124.45379,80.330757
6.74e-009,-121.93678,109.52006
6.755e-009,-119.90568,136.82578
6.77e-009,-118.23106,163.14954
6.785e-009,-116.83054,-171.07619
6.8e-009,-115.64964,-145.63084
6.815e-009,-114.65183,-120.38359
6.83e-009,-113.81075,-95.256927
6.845e-009,-113.10815,-70.196381
6.86e-009,-112.53036,-45.159779
6.875e-009,-112.06785,-20.122314
6.89e-009,-111.71313,4.9476194
6.905e-009,-111.4614,30.070793
6.92e-009,-111.30906,55.274063
6.935e-009,-111.25426,80.584297
6.95e-009,-111.2964,106.03287
6.965e-009,-111.43539,131.65575
6.98e-009,-111.67259,157.50179
6.995e-009,-112.00979,-176.37064
7.01e-009,-112.44909,-149.883
7.025e-009,-112.9921,-122.93272
7.04e-009,-113.63898,-95.385544
7.055e-009,-114.38539,-67.059662
7.07e-009,-115.21854,-37.726143
7.085e-009,-116.10954,-7.1100879
7.1e-009,-117.00244,25.066765
7.115e-009,-117.805,58.955181
7.13e-009,-118.39594,94.361191
7.145e-009,-118.66876,130.5607
7.16e-009,-118.59679,166.45546
7.175e-009,-118.25391,-158.93987
7.19e-009,-117.76537,-126.10372
7.205e-009,-117.24712,-95.055588
7.22e-009,-116.7797,-65.578339
7.235e-009,-116.41153,-37.410122
7.25e-009,-116.1704,-10.323025
7.265e-009,-116.07267,15.84446
7.28e-009,-116.13113,41.19059
7.295e-009,-116.35767,65.741158
7.31e-009,-116.76672,89.449982
7.325e-009,-117.37569,112.17168
7.34e-009,-118.20536,133.61288
7.355e-009,-119.27361,153.24292
7.37e-009,-120.57203,170.12256
7.385e-009,-121.99256,-177.2464
7.4e-009,-123.15568,-170.42586
7.415e-009,-123.35909,-168.25577
7.43e-009,-122.30146,-164.91728
7.445e-009,-120.56239,-156.08176
7.46e-009,-118.75036,-142.12717
7.475e-009,-117.11393,-124.77158
7.49e-009,-115.70586,-105.31836
7.505e-009,-114.51635,-84.560371
7.52e-009,-113.52245,-62.966915
7.535e-009,-112.70121,-40.81995
7.55e-009,-112.03384,-18.305326
7.565e-009,-111.50553,4.4584208
7.58e-009,-111.10482,27.385353
7.595e-009,-110.82358,50.412746
7.61e-009,-110.65536,73.4888
7.625e-009,-110.59637,96.571838
7.64e-009,-110.64417,119.61928
7.655e-009,-110.79749,142.59187
7.67e-009,-111.05652,165.44438
7.685e-009,-111.4224,-171.87645
7.7e-009,-111.89719,-149.43329
7.715e-009,-112.48257,-127.30944
7.73e-009,-113.18037,-105.60952
7.745e-009,-113.99004,-84.472412
7.76e-009,-114.90607,-64.078514
7.775e-009,-115.9127,-44.655777
7.79e-009,-116.97681,-26.465187
7.805e-009,-118.03559,-9.7372904
7.82e-009,-118.99218,5.4696193
7.835e-009,-119.72789,19.499159
7.85e-009,-120.15462,33.207184
7.865e-009,-120.27195,47.735397
7.88e-009,-120.16807,64.00354
7.895e-009,-119.96478,82.457016
7.91e-009,-119.76312,103.16622
7.925e-009,-119.62362,126.0527
7.94e-009,-119.56812,151.05367
7.955e-009,-119.58279,178.17242
7.97e-009,-119.6187,-152.55878
7.985e-009,-119.59061,-121.19106
8e-009,-119.39006,-88.06263
8.015e-009,-118.92454,-53.912117
8.03e-009,-118.17078,-19.757305
8.045e-009,-117.18687,13.515607
8.06e-009,-116.0749,45.440533
8.075e-009,-114.93138,75.95298
8.09e-009,-113.82444,105.21176
8.105e-009,-112.7941,133.44403
8.12e-009,-111.8609,160.86659
8.135e-009,-111.0335,-172.34309
8.15e-009,-110.31455,-146.04488
8.165e-009,-109.70363,-120.13456
8.18e-009,-109.19913,-94.53231
8.195e-009,-108.79944,-69.179985
8.21e-009,-108.50337,-44.033768
8.225e-009,-108.31032,-19.061602
8.24e-009,-108.22101,5.7593884
8.255e-009,-108.23714,30.445019
8.27e-009,-108.36201,55.003933
8.285e-009,-108.60064,79.438843
8.3e-009,-108.96022,103.74583
8.315e-009,-109.45092,127.91113
8.33e-009,-110.08671,151.91258
8.345e-009,-110.88708,175.70804
8.36e-009,-111.8795,-160.77121
8.375e-009,-113.10362,-137.64343
8.39e-009,-114.61901,-115.12417
8.405e-009,-116.51926,-93.638527
8.42e-009,-118.95681,-74.137611
8.435e-009,-122.17195,-59.127758
8.45e-009,-126.258,-56.351532
8.465e-009,-128.47612,-78.562218
8.48e-009,-125.5024,-92.612259
8.495e-009,-122.2312,-84.23204
8.51e-009,-119.90017,-67.189606
8.525e-009,-118.28692,-46.767715
8.54e-009,-117.19235,-24.733234
8.555e-009,-116.50278,-1.7837642
8.57e-009,-116.1564,21.768385
8.585e-009,-116.12633,45.781349
8.6e-009,-116.41297,70.225891
8.615e-009,-117.04384,95.151756
8.63e-009,-118.08276,120.74377
8.645e-009,-119.65556,147.44661
8.66e-009,-122.01044,176.44308
8.675e-009,-125.65015,-148.27219
8.69e-009,-130.73846,-88.447395
8.705e-009,-128.92,1.6954356
8.72e-009,-123.48928,50.469788
8.735e-009,-119.73702,83.195366
8.75e-009,-117.06971,111.46819
8.765e-009,-115.06899,138.00215
8.78e-009,-113.52328,163.68742
8.795e-009,-112.31728,-171.10921
8.81e-009,-111.38337,-146.20958
8.825e-009,-110.6802,-121.52119
8.84e-009,-110.1823,-96.994728
8.855e-009,-109.87546,-72.605293
8.87e-009,-109.75343,-48.344296
8.885e-009,-109.81757,-24.217949
8.9e-009,-110.07678,-0.24772686
8.915e-009,-110.54895,23.521481
8.93e-009,-111.26436,47.012604
8.945e-009,-112.27212,70.07901
8.96e-009,-113.65295,92.441116
8.975e-009,-115.54541,113.48867
8.99e-009,-118.1999,131.65266
9.005e-009,-122.02772,141.79634
9.02e-009,-126.20695,125.67726
9.035e-009,-123.78806,95.581276
9.05e-009,-119.2956,98.560265
9.065e-009,-116.07404,114.66585
9.08e-009,-113.77116,135.04588
9.095e-009,-112.07229,157.26363
9.11e-009,-110.80593,-179.54114
9.125e-009,-109.87617,-155.72762
9.14e-009,-109.22808,-131.45982
9.155e-009,-108.83112,-106.80224
9.17e-009,-108.67073,-81.75975
9.185e-009,-108.74511,-56.281986
9.2e-009,-109.06401,-30.257799
9.215e-009,-109.64929,-3.4780598
9.23e-009,-110.5356,24.435268
9.245e-009,-111.7681,54.19014
9.26e-009,-113.3783,87.173538
9.275e-009,-115.25847,126.03322
9.29e-009,-116.73525,174.0407
9.305e-009,-116.44475,-132.3596
9.32e-009,-114.47072,-85.019974
9.335e-009,-112.17741,-46.665371
9.35e-009,-110.18179,-13.931664
9.365e-009,-108.57674,15.720145
9.38e-009,-107.33321,43.61039
9.395e-009,-106.41385,70.412102
9.41e-009,-105.79501,96.482216
9.425e-009,-105.47086,122.00939
9.44e-009,-105.4555,147.07729
9.455e-009,-105.78898,171.68393
9.47e-009,-106.55246,-164.28653
9.485e-009,-107.90517,-141.18442
9.5e-009,-110.18538,-120.06
9.515e-009,-114.23882,-105.19342
9.53e-009,-121.11291,-128.54794
9.545e-009,-115.13944,179.23019
9.56e-009,-108.72768,-171.44193
9.575e-009,-104.60052,-151.63722
9.59e-009,-101.57647,-129.1329
9.605e-009,-99.198235,-105.53539
9.62e-009,-97.254593,-81.362694
9.635e-009,-95.632698,-56.822002
9.65e-009,-94.266281,-32.002743
9.665e-009,-93.114311,-6.9383855
9.68e-009,-92.150734,18.369583
9.695e-009,-91.359352,43.944626
9.71e-009,-90.73082,69.833702
9.725e-009,-90.261017,96.11216
9.74e-009,-89.949783,122.89404
9.755e-009,-89.799408,150.34956
9.77e-009,-89.812042,178.73399
9.785e-009,-89.983414,-151.5697
9.8e-009,-90.288101,-120.00039
9.815e-009,-90.647194,-85.815086
9.83e-009,-90.875198,-48.329601
9.845e-009,-90.660156,-7.7353892
9.86e-009,-89.729813,33.957359
9.875e-009,-88.130508,73.859001
9.89e-009,-86.169685,110.45535
9.905e-009,-84.127098,143.89702
9.92e-009,-82.149963,174.93544
9.935e-009,-80.293167,-155.72508
9.95e-009,-78.568245,-127.57221
9.965e-009,-76.969818,-100.25864
9.98e-009,-75.487198,-73.551208
9.995e-009,-74.108887,-47.291637
1.001e-008,-72.824226,-21.370216
1.0025e-008,-71.62384,4.2907376
1.004e-008,-70.499702,29.747456
1.0055e-008,-69.444939,55.041435
1.007e-008,-68.453712,80.203964
1.0085e-008,-67.521034,105.25891
1.01e-008,-66.642609,130.22495
1.0115e-008,-65.814766,155.1167
1.013e-008,-65.034302,179.94592
1.0145e-008,-64.298424,-155.27789
1.016e-008,-63.604713,-130.54697
1.0175e-008,-62.951015,-105.85488
1.019e-008,-62.335445,-81.196251
1.0205e-008,-61.756332,-56.566566
1.022e-008,-61.212181,-31.961943
1.0235e-008,-60.701664,-7.3790693
1.025e-008,-60.223602,17.184938
1.0265e-008,-59.776917,41.732597
1.028e-008,-59.360664,66.266151
1.0295e-008,-58.97398,90.787575
1.031e-008,-58.616089,115.29869
1.0325e-008,-58.286297,139.80112
1.034e-008,-57.983974,164.29637
1.0355e-008,-57.708557,-171.21413
1.037e-008,-57.459534,-146.72906
1.0385e-008,-57.23645,-122.24719
1.04e-008,-57.038895,-97.76725
1.0415e-008,-56.866501,-73.288094
1.043e-008,-56.718941,-48.80851
1.0445e-008,-56.595928,-24.327341
1.046e-008,-56.4972,0.15659422
1.0475e-008,-56.422539,24.644516
1.049e-008,-56.371742,49.137672
1.0505e-008,-56.344646,73.63736
1.052e-008,-56.341106,98.14492
1.0535e-008,-56.361,122.66181
1.055e-008,-56.404232,147.18954
1.0565e-008,-56.470715,171.72974
1.058e-008,-56.56039,-163.71584
1.0595e-008,-56.67321,-139.14529
1.061e-008,-56.809132,-114.55661
1.0625e-008,-56.968132,-89.947525
1.064e-008,-57.150188,-65.315643
1.0655e-008,-57.355278,-40.658298
1.067e-008,-57.583385,-15.972601
1.0685e-008,-57.83448,8.7446423
1.07e-008,-58.108517,33.496906
1.0715e-008,-58.405434,58.288036
1.073e-008,-58.725143,83.122208
1.0745e-008,-59.067505,108.00404
1.076e-008,-59.432331,132.93854
1.0775e-008,-59.81937,157.93121
1.079e-008,-60.228279,-177.01199
1.0805e-008,-60.6586,-151.88463
1.082e-008,-61.109749,-126.67981
1.0835e-008,-61.580971,-101.3902
1.085e-008,-62.071316,-76.008125
1.0865e-008,-62.579597,-50.525681
1.088e-008,-63.104355,-24.934908
1.0895e-008,-63.643803,0.77188045
1.091e-008,-64.195808,26.601803
1.0925e-008,-64.757835,52.560863
1.094e-008,-65.32695,78.653343
1.0955e-008,-65.899796,104.88109
1.097e-008,-66.472626,131.24263
1.0985e-008,-67.041412,157.73238
1.1e-008,-67.601913,-175.66035
1.1015e-008,-68.149872,-148.95184
1.103e-008,-68.681244,-122.16435
1.1045e-008,-69.192421,-95.326111
1.106e-008,-69.680496,-68.470352
1.1075e-008,-70.143486,-41.634251
1.109e-008,-70.580475,-14.856994
1.1105e-008,-70.991653,11.822294
1.112e-008,-71.378288,38.366592
1.1135e-008,-71.742546,64.742828
1.115e-008,-72.087288,90.923309
1.1165e-008,-72.415825,116.88638
1.118e-008,-72.731628,142.61673
1.1195e-008,-73.038162,168.1051
1.121e-008,-73.338654,-166.65233
1.1225e-008,-73.636017,-141.65456
1.124e-008,-73.932777,-116.89679
1.1255e-008,-74.23101,-92.371025
1.127e-008,-74.532425,-68.066849
1.1285e-008,-74.838326,-43.971996
1.13e-008,-75.149704,-20.072798
1.1315e-008,-75.467278,3.6454508
1.133e-008,-75.791557,27.19809
1.1345e-008,-76.122902,50.600948
1.136e-008,-76.461563,73.870041
1.1375e-008,-76.807739,97.021408
1.139e-008,-77.161621,120.07092
1.1405e-008,-77.523369,143.03407
1.142e-008,-77.893188,165.92583
1.1435e-008,-78.271294,-171.23956
1.145e-008,-78.657921,-148.44867
1.1465e-008,-79.053276,-125.68909
1.148e-008,-79.457573,-102.94942
1.1495e-008,-79.870926,-80.219406
1.151e-008,-80.293396,-57.490009
1.1525e-008,-80.724838,-34.753334
1.154e-008,-81.16497,-12.002706
1.1555e-008,-81.613258,10.767472
1.157e-008,-82.068886,33.561672
1.1585e-008,-82.530724,56.383442
1.16e-008,-82.997269,79.23526
1.1615e-008,-83.466621,102.1189
1.163e-008,-83.936501,125.03525
1.1645e-008,-84.40416,147.98451
1.166e-008,-84.866463,170.96626
1.1675e-008,-85.319923,-166.02051
1.169e-008,-85.760727,-142.97729
1.1705e-008,-86.184898,-119.90606
1.172e-008,-86.588356,-96.809227
1.1735e-008,-86.967155,-73.689285
1.175e-008,-87.317627,-50.549236
1.1765e-008,-87.636612,-27.391943
1.178e-008,-87.921631,-4.2204108
1.1795e-008,-88.171082,18.962452
1.181e-008,-88.384346,42.153908
1.1825e-008,-88.56189,65.351501
1.184e-008,-88.705208,88.552895
1.1855e-008,-88.816833,111.75621
1.187e-008,-88.900139,134.95953
1.1885e-008,-88.959251,158.16142
1.19e-008,-88.998772,-178.63965
1.1915e-008,-89.023628,-155.44507
1.193e-008,-89.038902,-132.25616
1.1945e-008,-89.049675,-109.07442
1.196e-008,-89.06086,-85.901314
1.1975e-008,-89.077133,-62.738411
1.199e-008,-89.10289,-39.587502
1.2005e-008,-89.142204,-16.450411
1.202e-008,-89.198769,6.6709604
1.2035e-008,-89.276001,29.77463
1.205e-008,-89.376961,52.858482
1.2065e-008,-89.504471,75.92041
1.208e-008,-89.661079,98.958435
1.2095e-008,-89.849159,121.97051
1.211e-008,-90.0709,144.95474
1.2125e-008,-90.328407,167.9095
1.214e-008,-90.623695,-169.16647
1.2155e-008,-90.958786,-146.27414
1.217e-008,-91.335716,-123.41369
1.2185e-008,-91.756645,-100.58456
1.22e-008,-92.223885,-77.784851
1.2215e-008,-92.740013,-55.011253
1.223e-008,-93.307976,-32.258167
1.2245e-008,-93.93119,-9.5172091
1.226e-008,-94.613754,13.22431
1.2275e-008,-95.36068,35.984524
1.229e-008,-96.178146,58.789223
1.2305e-008,-97.074036,81.675835
1.232e-008,-98.058327,104.69888
1.2335e-008,-99.144043,127.93803
1.235e-008,-100.34797,151.51402
1.2365e-008,-101.69199,175.61513
1.238e-008,-103.20347,-159.45259
1.2395e-008,-104.91303,-133.17218
1.241e-008,-106.84019,-104.63145
1.2425e-008,-108.93606,-72.241325
1.244e-008,-110.90141,-33.769573
1.2455e-008,-111.94417,11.151105
1.247e-008,-111.41042,56.412773
1.2485e-008,-109.87143,95.416428
1.25e-008,-108.15553,128.10722
1.2515e-008,-106.59792,156.71715
1.253e-008,-105.26038,-177.09749
1.2545e-008,-104.12679,-152.38043
1.256e-008,-103.16747,-128.59216
1.2575e-008,-102.3555,-105.4178
1.259e-008,-101.66972,-82.667847
1.2605e-008,-101.09403,-60.224369
1.262e-008,-100.61649,-38.014854
1.2635e-008,-100.22813,-15.996112
1.265e-008,-99.922409,5.854919
1.2665e-008,-99.69442,27.545233
1.268e-008,-99.540497,49.069241
1.2695e-008,-99.457703,70.409538
1.271e-008,-99.443512,91.538002
1.2725e-008,-99.495377,112.41502
1.274e-008,-99.610115,132.98872
1.2755e-008,-99.783234,153.19414
1.277e-008,-100.00799,172.95398
1.2785e-008,-100.27393,-167.82054
1.28e-008,-100.56537,-149.22293
1.2815e-008,-100.85936,-131.33809
1.283e-008,-101.12467,-114.21818
1.2845e-008,-101.32249,-97.846428
1.286e-008,-101.41122,-82.100456
1.2875e-008,-101.35567,-66.733421
1.289e-008,-101.13811,-51.402683
1.2905e-008,-100.76456,-35.745136
1.292e-008,-100.26228,-19.464663
1.2935e-008,-99.670044,-2.3827667
1.295e-008,-99.02739,15.559818
1.2965e-008,-98.367813,34.336266
1.298e-008,-97.7164,53.871437
1.2995e-008,-97.090271,74.071678
1.301e-008,-96.50029,94.842621
1.3025e-008,-95.952751,116.09811
1.304e-008,-95.450882,137.76302
1.3055e-008,-94.995972,159.7735
1.307e-008,-94.587967,-177.92366
1.3085e-008,-94.226151,-155.37308
1.31e-008,-93.909325,-132.61197
1.3115e-008,-93.636086,-109.67179
1.313e-008,-93.404922,-86.579102
1.3145e-008,-93.214333,-63.356632
1.316e-008,-93.062836,-40.024364
1.3175e-008,-92.949005,-16.599716
1.319e-008,-92.87149,6.9016156
1.3205e-008,-92.829063,30.465599
1.322e-008,-92.820518,54.079021
1.3235e-008,-92.844772,77.729912
1.325e-008,-92.900826,101.40638
1.3265e-008,-92.987717,125.09754
1.328e-008,-93.104568,148.79263
1.3295e-008,-93.250542,172.48096
1.331e-008,-93.424866,-163.84772
1.3325e-008,-93.62677,-140.20364
1.334e-008,-93.855515,-116.59711
1.3355e-008,-94.110397,-93.038048
1.337e-008,-94.390648,-69.536583
1.3385e-008,-94.695526,-46.102203
1.34e-008,-95.024246,-22.744438
1.3415e-008,-95.375923,0.52767807
1.343e-008,-95.749664,23.706091
1.3445e-008,-96.144485,46.78336
1.346e-008,-96.559341,69.75341
1.3475e-008,-96.99305,92.611885
1.349e-008,-97.444473,115.35608
1.3505e-008,-97.912422,137.98639
1.352e-008,-98.395737,160.50549
1.3535e-008,-98.893387,-177.0799
1.355e-008,-99.404617,-154.75949
1.3565e-008,-99.928986,-132.51855
1.358e-008,-100.46655,-110.33787
1.3595e-008,-101.01812,-88.193848
1.361e-008,-101.58524,-66.057556
1.3625e-008,-102.17061,-43.896
1.364e-008,-102.77802,-21.671137
1.3655e-008,-103.41263,0.66030693
1.367e-008,-104.0811,23.147667
1.3685e-008,-104.79175,45.848579
1.37e-008,-105.55457,68.832375
1.3715e-008,-106.38161,92.186424
1.373e-008,-107.28682,116.02613
1.3745e-008,-108.28588,140.51335
1.376e-008,-109.39511,165.88351
1.3775e-008,-110.62743,-167.50729
1.379e-008,-111.98226,-139.11487
1.3805e-008,-113.41737,-108.13739
1.382e-008,-114.78858,-73.597343
1.3835e-008,-115.77713,-35.041271
1.385e-008,-115.9817,5.9482222
1.3865e-008,-115.3157,45.774021
1.388e-008,-114.1218,81.931122
1.3895e-008,-112.78017,114.33028
1.391e-008,-111.4939,143.89038
1.3925e-008,-110.33585,171.49635
1.394e-008,-109.32022,-162.22876
1.3955e-008,-108.44031,-136.88124
1.397e-008,-107.68359,-112.20148
1.3985e-008,-107.03703,-88.022087
1.4e-008,-106.48887,-64.232185
1.4015e-008,-106.02894,-40.757847
1.403e-008,-105.64874,-17.549557
1.4045e-008,-105.34074,5.4267797
1.406e-008,-105.09869,28.194145
1.4075e-008,-104.91697,50.767429
1.409e-008,-104.79052,73.156487
1.4105e-008,-104.7149,95.367836
1.412e-008,-104.68573,117.40516
1.4135e-008,-104.69905,139.27293
1.415e-008,-104.75092,160.97195
1.4165e-008,-104.83751,-177.49324
1.418e-008,-104.95522,-156.11867
1.4195e-008,-105.10046,-134.89824
1.421e-008,-105.2698,-113.82423
1.4225e-008,-105.46034,-92.884575
