!CSV A.01.01
!Keysight Technologies,N5227B,US58420762,A.13.80.08
!Date: Tuesday, November 21, 2023 09:51:26
!Source: Standard

BEGIN CH1_DATA
Freq(Hz),S21(DB),S21(DEG)
3000000000,-59.390541,-31.61437
3003000000,-59.060921,-40.321552
3006000000,-59.171726,-49.960522
3009000000,-58.84676,-58.766735
3012000000,-58.617157,-69.597801
3015000000,-58.624783,-80.746048
3018000000,-58.598076,-91.137779
3021000000,-58.439335,-102.05171
3024000000,-58.794548,-113.15201
3027000000,-58.939556,-122.78338
3030000000,-59.223644,-131.32854
3033000000,-59.394199,-141.10674
3036000000,-59.108463,-148.58609
3039000000,-58.973339,-156.89409
3042000000,-58.801785,-166.09921
3045000000,-58.585018,-176.60362
3048000000,-58.399929,172.82629
3051000000,-58.344498,162.86647
3054000000,-58.199551,151.80884
3057000000,-58.165051,142.231
3060000000,-58.175587,131.12283
3063000000,-58.286713,121.45948
3066000000,-58.214275,111.82747
3069000000,-58.385433,101.31872
3072000000,-58.388588,92.914375
3075000000,-58.127544,83.76516
3078000000,-58.192284,72.649307
3081000000,-57.939369,62.295036
3084000000,-58.046097,52.460064
3087000000,-58.015945,40.664299
3090000000,-57.987198,31.758089
3093000000,-58.362148,20.646944
3096000000,-58.222118,11.379865
3099000000,-58.365639,2.3894348
3102000000,-58.526031,-6.8031502
3105000000,-58.384098,-15.875312
3108000000,-58.143345,-25.824644
3111000000,-58.398987,-35.94714
3114000000,-58.411461,-45.852356
3117000000,-58.439129,-55.768772
3120000000,-58.241653,-65.322136
3123000000,-58.310047,-74.811287
3126000000,-58.288513,-85.562798
3129000000,-58.314888,-96.909126
3132000000,-58.606449,-105.8445
3135000000,-59.018532,-117.05299
3138000000,-59.070526,-123.78188
3141000000,-59.130829,-131.66548
3144000000,-58.939095,-139.07816
3147000000,-58.816074,-147.65341
3150000000,-58.644592,-158.12747
3153000000,-58.423298,-167.21944
3156000000,-58.384323,-177.78586
3159000000,-58.417076,172.38622
3162000000,-58.418156,162.62912
3165000000,-58.272194,151.84534
3168000000,-58.510429,140.86739
3171000000,-58.672466,132.20975
3174000000,-58.750618,122.66171
3177000000,-58.808884,115.1858
3180000000,-58.445545,107.76773
3183000000,-58.100395,99.172478
3186000000,-57.868523,88.266136
3189000000,-57.645462,77.585342
3192000000,-57.567051,64.80481
3195000000,-57.748619,55.093021
3198000000,-57.800674,43.34568
3201000000,-57.818077,32.828823
3204000000,-58.117321,23.208889
3207000000,-58.24675,13.694562
3210000000,-58.284191,5.682106
3213000000,-58.419781,-4.067976
3216000000,-58.208435,-13.147916
3219000000,-58.469086,-23.16662
3222000000,-58.408188,-32.486504
3225000000,-58.544975,-41.513809
3228000000,-58.705509,-51.221561
3231000000,-58.435974,-59.473976
3234000000,-58.417244,-69.09491
3237000000,-58.390831,-80.177444
3240000000,-58.135685,-88.658432
3243000000,-58.4603,-98.364899
3246000000,-58.13649,-106.54568
3249000000,-58.170383,-116.6064
3252000000,-58.217274,-126.85105
3255000000,-58.157162,-136.90295
3258000000,-58.052475,-145.74065
3261000000,-58.266102,-156.26988
3264000000,-58.269329,-165.2099
3267000000,-57.95253,-175.09836
3270000000,-58.168736,175.1317
3273000000,-57.832287,167.00685
3276000000,-57.693867,156.30177
3279000000,-57.715015,146.15572
3282000000,-57.634975,136.4648
3285000000,-57.58136,125.15404
3288000000,-57.523117,115.48894
3291000000,-57.621914,104.15777
3294000000,-57.854404,94.37989
3297000000,-57.894444,84.937935
3300000000,-57.92556,75.729919
3303000000,-57.894779,65.363419
3306000000,-57.910545,55.734852
3309000000,-57.797054,47.903137
3312000000,-57.924484,37.541664
3315000000,-57.754398,26.929729
3318000000,-57.750515,16.403616
3321000000,-57.785938,7.6506844
3324000000,-57.905144,-4.2829628
3327000000,-57.804798,-14.000887
3330000000,-57.823223,-25.60099
3333000000,-58.311905,-36.198235
3336000000,-58.39719,-45.266685
3339000000,-58.630943,-54.480526
3342000000,-58.97633,-61.840576
3345000000,-59.180485,-69.592789
3348000000,-58.678776,-77.952522
3351000000,-58.708027,-87.250908
3354000000,-58.430977,-96.427574
3357000000,-58.253418,-106.32352
3360000000,-58.260571,-119.29517
3363000000,-58.497673,-128.80611
3366000000,-58.390976,-138.1572
3369000000,-58.39505,-148.89566
3372000000,-58.593445,-159.18057
3375000000,-58.593174,-168.30188
3378000000,-58.834129,-176.43529
3381000000,-58.740685,172.49042
3384000000,-58.818371,166.60222
3387000000,-58.786072,155.88745
3390000000,-58.652149,145.44128
3393000000,-58.57291,134.67911
3396000000,-58.721462,124.36354
3399000000,-58.989681,114.53357
3402000000,-58.986267,103.78625
3405000000,-59.143837,95.659088
3408000000,-59.204712,85.814224
3411000000,-59.248413,77.900368
3414000000,-59.489979,66.500633
3417000000,-59.2658,57.207611
3420000000,-59.78149,47.905685
3423000000,-59.389088,40.36544
3426000000,-59.929852,31.242641
3429000000,-59.62772,21.049734
3432000000,-59.84724,10.533211
3435000000,-60.154099,1.7967536
3438000000,-60.013557,-6.5452762
3441000000,-59.979004,-16.160252
3444000000,-59.986496,-24.716146
3447000000,-60.158348,-32.529877
3450000000,-60.182335,-39.853802
3453000000,-60.001019,-49.753101
3456000000,-59.603844,-59.614849
3459000000,-59.835201,-69.087044
3462000000,-59.619301,-79.046165
3465000000,-59.81274,-88.670807
3468000000,-59.824589,-98.057732
3471000000,-60.05257,-106.65122
3474000000,-59.868252,-116.90085
3477000000,-60.066189,-125.95575
3480000000,-59.972145,-135.92218
3483000000,-59.953415,-146.53171
3486000000,-60.184883,-153.01428
3489000000,-60.110844,-161.52603
3492000000,-59.72131,-171.17874
3495000000,-59.427452,178.36572
3498000000,-59.354355,166.35789
3501000000,-59.668015,155.78195
3504000000,-59.901192,148.63103
3507000000,-59.898891,137.60114
3510000000,-59.874287,130.81224
3513000000,-59.957943,122.16148
3516000000,-60.128643,112.46045
3519000000,-59.846684,104.04115
3522000000,-59.84354,95.166809
3525000000,-59.811668,86.698044
3528000000,-59.518127,77.137856
3531000000,-59.560841,66.206818
3534000000,-59.50676,56.174595
3537000000,-59.265301,46.023094
3540000000,-59.483212,36.492393
3543000000,-59.355957,25.873348
3546000000,-59.528473,14.816849
3549000000,-59.530853,7.2048464
3552000000,-59.774738,-2.9778368
3555000000,-59.750713,-11.200683
3558000000,-59.873287,-20.766001
3561000000,-59.661213,-30.824821
3564000000,-59.882511,-39.275787
3567000000,-59.650692,-47.786633
3570000000,-59.543488,-56.394505
3573000000,-59.354206,-66.686012
3576000000,-59.194061,-77.413239
3579000000,-59.063805,-88.692688
3582000000,-59.303314,-98.708389
3585000000,-59.547119,-107.59317
3588000000,-59.554626,-117.24624
3591000000,-59.809643,-128.21799
3594000000,-59.68166,-134.16379
3597000000,-59.80859,-144.98941
3600000000,-59.757133,-153.1026
3603000000,-59.529865,-161.57246
3606000000,-59.400204,-170.67528
3609000000,-59.377144,179.79846
3612000000,-59.420532,169.38936
3615000000,-59.250736,159.99796
3618000000,-59.057144,148.88101
3621000000,-59.231331,138.05852
3624000000,-59.488461,127.8384
3627000000,-59.437695,119.26572
3630000000,-59.597271,109.38955
3633000000,-59.910355,100.23161
3636000000,-59.958042,91.842659
3639000000,-59.969715,85.122581
3642000000,-59.634148,75.767181
3645000000,-59.498798,65.556091
3648000000,-59.176727,55.58934
3651000000,-59.218601,46.450043
3654000000,-59.286144,35.032616
3657000000,-59.511421,26.404678
3660000000,-59.36438,15.462063
3663000000,-59.41415,4.5869942
3666000000,-59.389854,-3.6959913
3669000000,-59.635426,-11.909165
3672000000,-59.762264,-22.27828
3675000000,-59.678059,-29.059481
3678000000,-59.399921,-37.207008
3681000000,-59.287937,-47.043076
3684000000,-59.409924,-58.501255
3687000000,-59.218899,-69.140495
3690000000,-59.228443,-77.362511
3693000000,-59.538994,-88.748764
3696000000,-59.488346,-96.919296
3699000000,-59.224491,-107.09371
3702000000,-59.294449,-116.3405
3705000000,-59.557976,-127.82785
3708000000,-59.474831,-135.97546
3711000000,-59.545166,-143.51941
3714000000,-59.2855,-153.00629
3717000000,-59.268291,-162.66084
3720000000,-59.065777,-172.69656
3723000000,-59.198364,178.7249
3726000000,-58.853512,167.3566
3729000000,-58.768574,156.38298
3732000000,-58.892605,147.05807
3735000000,-59.030762,136.04988
3738000000,-59.446365,126.0392
3741000000,-59.429138,117.81689
3744000000,-59.453213,110.6925
3747000000,-59.542469,100.56677
3750000000,-59.261742,90.841797
3753000000,-59.323589,81.646255
3756000000,-59.070934,72.347519
3759000000,-58.936699,61.454094
3762000000,-59.079956,51.214111
3765000000,-59.041256,40.258678
3768000000,-59.305683,31.334497
3771000000,-59.445576,21.387447
3774000000,-59.786114,13.576553
3777000000,-59.557499,6.8403206
3780000000,-59.696201,-2.7565167
3783000000,-59.215557,-11.954364
3786000000,-59.245373,-21.602983
3789000000,-59.283882,-33.264271
3792000000,-59.093582,-44.252995
3795000000,-59.081993,-53.087624
3798000000,-59.103222,-63.289341
3801000000,-59.127678,-71.072433
3804000000,-59.37648,-79.034515
3807000000,-58.934414,-90.134529
3810000000,-58.897736,-100.04993
3813000000,-59.082302,-111.48837
3816000000,-59.080246,-122.39668
3819000000,-59.03968,-132.39999
3822000000,-59.467754,-140.24242
3825000000,-59.44109,-150.54776
3828000000,-59.414169,-158.60718
3831000000,-59.099884,-166.36563
3834000000,-58.865681,-177.20116
3837000000,-58.971455,174.94882
3840000000,-59.003628,163.03911
3843000000,-58.837456,153.50473
3846000000,-59.245716,142.07585
3849000000,-59.145237,133.33017
3852000000,-59.11747,124.23034
3855000000,-59.261658,112.97553
3858000000,-59.313702,104.52529
3861000000,-59.460068,94.756981
3864000000,-59.478062,86.443588
3867000000,-59.522209,77.987534
3870000000,-59.577942,67.713852
3873000000,-59.442478,59.323463
3876000000,-59.268917,49.548569
3879000000,-59.189342,40.926949
3882000000,-58.990559,29.815626
3885000000,-59.125683,20.821661
3888000000,-59.093262,9.9514942
3891000000,-58.887856,1.2317368
3894000000,-59.056587,-9.9433413
3897000000,-59.187962,-20.690525
3900000000,-59.465698,-31.384911
3903000000,-59.241924,-39.368092
3906000000,-59.425121,-50.169834
3909000000,-59.50988,-56.957619
3912000000,-59.223366,-65.672867
3915000000,-59.093094,-74.690765
3918000000,-59.027515,-86.439766
3921000000,-58.779106,-95.59346
3924000000,-58.752056,-106.35279
3927000000,-58.512089,-117.38145
3930000000,-58.792782,-127.66826
3933000000,-58.678661,-139.46999
3936000000,-58.892601,-148.19617
3939000000,-59.438999,-159.17757
3942000000,-59.510635,-166.76846
3945000000,-59.657169,-176.14008
3948000000,-59.664688,176.00499
3951000000,-59.474541,167.45975
3954000000,-59.643738,157.64749
3957000000,-59.338654,148.03429
3960000000,-59.235741,138.05997
3963000000,-59.155697,126.5575
3966000000,-59.288628,116.37311
3969000000,-59.255604,106.52978
3972000000,-59.421535,95.682938
3975000000,-59.814816,85.842812
3978000000,-59.827194,75.675774
3981000000,-60.408272,68.913307
3984000000,-60.158604,60.66721
3987000000,-60.189201,52.342564
3990000000,-60.145393,43.537731
3993000000,-59.981491,35.306187
3996000000,-59.971355,22.874649
3999000000,-59.918098,15.165969
4002000000,-59.599979,5.3455839
4005000000,-59.499329,-3.5120633
4008000000,-59.426624,-14.082267
4011000000,-59.51384,-24.558067
4014000000,-59.397476,-36.127674
4017000000,-59.139294,-46.389717
4020000000,-59.601429,-58.20158
4023000000,-59.668991,-69.134987
4026000000,-60.079208,-78.807022
4029000000,-60.438446,-86.979546
4032000000,-60.497074,-94.240952
4035000000,-60.702137,-102.80103
4038000000,-60.414028,-109.28207
4041000000,-60.119839,-121.85098
4044000000,-59.650295,-130.69106
4047000000,-59.693401,-142.96983
4050000000,-59.716614,-153.09395
4053000000,-59.930984,-164.31551
4056000000,-60.213894,-175.711
4059000000,-60.511688,175.55482
4062000000,-60.970379,165.67741
4065000000,-61.329624,159.218
4068000000,-61.014687,147.24492
4071000000,-61.217602,140.6118
4074000000,-61.175522,134.14101
4077000000,-60.754902,125.84548
4080000000,-61.134968,115.94704
4083000000,-60.722958,105.46852
4086000000,-60.804615,94.066811
4089000000,-60.764565,87.156715
4092000000,-60.4319,74.340454
4095000000,-60.892551,65.627548
4098000000,-61.017143,53.864017
4101000000,-61.106621,45.477806
4104000000,-61.179638,36.038162
4107000000,-61.426144,28.23209
4110000000,-61.316357,16.60976
4113000000,-61.566822,9.8940649
4116000000,-61.852722,1.2233678
4119000000,-61.538898,-6.0316029
4122000000,-61.212372,-15.583876
4125000000,-60.956062,-26.388439
4128000000,-61.001076,-36.123138
4131000000,-60.958042,-47.419533
4134000000,-60.987148,-56.234097
4137000000,-61.180164,-67.867699
4140000000,-60.722115,-79.281998
4143000000,-61.304962,-89.732292
4146000000,-61.64925,-100.78571
4149000000,-62.07196,-109.88703
4152000000,-62.372356,-116.03949
4155000000,-62.417709,-120.51161
4158000000,-62.6217,-127.87833
4161000000,-62.234871,-135.45149
4164000000,-61.370193,-148.32202
4167000000,-61.427319,-157.70779
4170000000,-61.220905,-170.70082
4173000000,-61.173561,177.5818
4176000000,-61.310806,167.75117
4179000000,-61.970882,157.32278
4182000000,-62.701679,147.31952
4185000000,-62.447571,138.28134
4188000000,-62.107601,133.76021
4191000000,-62.60318,125.58987
4194000000,-62.569435,117.8683
4197000000,-62.194088,108.14194
4200000000,-62.39106,96.961006
4203000000,-62.584682,87.049698
4206000000,-62.236694,79.202873
4209000000,-62.340317,73.051514
4212000000,-61.924152,61.053158
4215000000,-61.96991,52.30706
4218000000,-62.12394,37.853329
4221000000,-62.356316,29.432091
4224000000,-62.278965,18.665516
4227000000,-62.34301,10.183087
4230000000,-62.578171,0.90815318
4233000000,-62.657364,-7.7422476
4236000000,-63.024155,-16.147272
4239000000,-63.293884,-28.009491
4242000000,-63.05204,-33.459541
4245000000,-63.031925,-44.773335
4248000000,-62.955982,-52.129211
4251000000,-62.905025,-60.35601
4254000000,-62.878262,-70.127525
4257000000,-62.724602,-79.631218
4260000000,-62.98407,-91.832314
4263000000,-62.927223,-100.94814
4266000000,-62.939495,-109.09831
4269000000,-63.261482,-115.96443
4272000000,-63.112122,-126.73531
4275000000,-62.973072,-135.39755
4278000000,-63.396236,-148.55518
4281000000,-63.053154,-152.92992
4284000000,-63.16383,-161.76521
4287000000,-63.099674,-168.89714
4290000000,-63.223854,-177.50075
4293000000,-62.51878,171.03737
4296000000,-62.889606,163.00389
4299000000,-62.83889,152.50424
4302000000,-62.260555,144.0696
4305000000,-62.628304,134.63036
4308000000,-62.899868,124.58612
4311000000,-62.441536,111.94569
4314000000,-62.223473,101.56586
4317000000,-63.127281,91.735474
4320000000,-63.752377,82.068687
4323000000,-64.230148,76.390984
4326000000,-63.887535,72.651871
4329000000,-63.244564,65.549759
4332000000,-63.341423,57.002056
4335000000,-63.036144,45.365688
4338000000,-62.189865,38.065269
4341000000,-62.136494,22.614935
4344000000,-62,14.262405
4347000000,-62.273556,2.0009844
4350000000,-62.464581,-9.4180613
4353000000,-62.746758,-18.8102
4356000000,-62.827179,-27.703539
4359000000,-62.815628,-35.726635
4362000000,-62.955814,-45.49897
4365000000,-63.109711,-51.614212
4368000000,-62.967827,-59.787125
4371000000,-62.779362,-66.257019
4374000000,-62.170483,-74.366501
4377000000,-62.053493,-86.001274
4380000000,-61.736614,-96.486412
4383000000,-61.677261,-109.38313
4386000000,-61.889145,-120.00741
4389000000,-61.607468,-132.23564
4392000000,-61.852329,-142.48195
4395000000,-62.514095,-152.3933
4398000000,-62.37188,-163.81171
4401000000,-62.733093,-172.47089
4404000000,-62.990009,179.87198
4407000000,-63.268764,173.50444
4410000000,-62.811352,168.48386
4413000000,-62.555717,159.55281
4416000000,-61.946228,148.18163
4419000000,-62.158306,137.9473
4422000000,-62.454784,123.67098
4425000000,-62.13747,113.11514
4428000000,-62.276432,103.56705
4431000000,-62.823917,96.186295
4434000000,-62.587368,87.122246
4437000000,-62.664852,81.144585
4440000000,-62.669907,66.994881
4443000000,-62.767052,60.551029
4446000000,-62.792736,53.55143
4449000000,-62.770535,43.796745
4452000000,-62.581749,35.792782
4455000000,-62.454025,26.184391
4458000000,-62.128696,14.732163
4461000000,-61.798454,5.1613436
4464000000,-61.550186,-5.7005324
4467000000,-62.032166,-19.370893
4470000000,-61.862698,-25.160475
4473000000,-62.123161,-40.279213
4476000000,-62.554787,-51.724468
4479000000,-62.536438,-56.059311
4482000000,-63.337986,-66.646255
4485000000,-63.163681,-75.977943
4488000000,-63.247116,-84.28524
4491000000,-63.23539,-90.344917
4494000000,-62.840149,-98.628586
4497000000,-62.344494,-109.03727
4500000000,-62.20509,-120.90485
4503000000,-62.312397,-130.07086
4506000000,-62.735634,-141.69818
4509000000,-62.983097,-153.16695
4512000000,-63.54866,-162.52277
4515000000,-63.805748,-168.82063
4518000000,-63.416389,-174.55034
4521000000,-63.404434,175.26772
4524000000,-63.130623,168.53436
4527000000,-63.593166,155.78252
4530000000,-63.021023,150.57867
4533000000,-62.63068,141.3345
4536000000,-62.775219,133.40993
4539000000,-62.57185,120.96413
4542000000,-62.366673,109.08453
4545000000,-62.490807,97.228752
4548000000,-62.68111,88.75869
4551000000,-62.673557,83.195175
4554000000,-62.64283,71.839249
4557000000,-62.582249,60.589928
4560000000,-62.726982,53.289532
4563000000,-62.821163,41.794666
4566000000,-63.161736,34.26189
4569000000,-63.348278,23.944321
4572000000,-62.906029,18.931383
4575000000,-62.998112,8.2256889
4578000000,-62.743809,-0.2460223
4581000000,-62.352608,-9.7808237
4584000000,-62.516808,-18.823788
4587000000,-62.594608,-30.645023
4590000000,-62.211937,-41.081631
4593000000,-62.653004,-50.107655
4596000000,-62.828781,-58.828804
4599000000,-63.090149,-68.49894
4602000000,-62.816895,-76.562187
4605000000,-62.319153,-87.558372
4608000000,-62.454666,-93.574013
4611000000,-62.548691,-104.32747
4614000000,-62.503983,-115.89656
4617000000,-62.029587,-126.3642
4620000000,-62.431461,-136.95044
4623000000,-62.16848,-145.90634
4626000000,-62.780354,-155.01367
4629000000,-62.414371,-163.74489
4632000000,-62.804821,-173.57181
4635000000,-63.170059,178.80037
4638000000,-62.88739,169.38884
4641000000,-62.33416,163.48564
4644000000,-62.06144,151.57913
4647000000,-61.64497,142.44139
4650000000,-61.583759,126.0012
4653000000,-62.308586,116.2009
4656000000,-61.955074,108.40123
4659000000,-62.672802,96.267975
4662000000,-62.321056,91.296432
4665000000,-62.809021,81.317268
4668000000,-62.223587,73.109116
4671000000,-61.901882,63.809952
4674000000,-61.72472,50.433643
4677000000,-61.659973,42.105835
4680000000,-61.848633,28.594219
4683000000,-62.030346,14.567929
4686000000,-61.80061,5.216373
4689000000,-62.435085,-4.1880827
4692000000,-62.859707,-11.884452
4695000000,-63.218586,-20.233849
4698000000,-63.1894,-31.537477
4701000000,-63.416492,-38.514622
4704000000,-63.600948,-48.92263
4707000000,-63.205776,-60.509731
4710000000,-63.526318,-67.135468
4713000000,-64.17543,-74.05072
4716000000,-63.911404,-84.076546
4719000000,-63.770359,-93.357208
4722000000,-63.606358,-100.49393
4725000000,-63.124271,-108.5052
4728000000,-62.706932,-121.5872
4731000000,-62.596783,-128.75647
4734000000,-63.558727,-142.67464
4737000000,-63.497627,-157.00729
4740000000,-64.257721,-164.70483
4743000000,-64.699905,-172.6684
4746000000,-64.89006,-179.71938
4749000000,-64.603264,178.70805
4752000000,-64.233841,167.58362
4755000000,-63.383953,162.91629
4758000000,-63.928318,151.38849
4761000000,-62.865875,141.37279
4764000000,-63.243252,128.4756
4767000000,-63.577835,116.20478
4770000000,-63.738182,102.92255
4773000000,-64.455849,95.959175
4776000000,-64.70472,84.851936
4779000000,-65.096245,79.294395
4782000000,-65.218361,76.774406
4785000000,-65.414307,72.043747
4788000000,-64.335365,63.152874
4791000000,-63.789997,52.141193
4794000000,-63.410492,38.377621
4797000000,-63.287437,27.946104
4800000000,-63.796898,18.759327
4803000000,-64.025047,12.639758
4806000000,-64.211761,2.843226
4809000000,-63.560009,-7.9794226
4812000000,-63.42495,-16.890415
4815000000,-63.815723,-30.104223
4818000000,-63.493004,-42.254738
4821000000,-64.364273,-51.007813
4824000000,-65.139648,-57.746704
4827000000,-64.708267,-66.64106
4830000000,-64.390617,-71.467522
4833000000,-64.308365,-81.670113
4836000000,-63.562733,-87.53566
4839000000,-64.224396,-94.478195
