!CSV A.01.01
!Keysight Technologies,N5227B,US58420762,A.13.80.08
!Date: Tuesday, November 21, 2023 09:31:31
!Source: Standard

BEGIN CH1_DATA
Freq(Hz),S21(DB),S21(DEG)
3000000000,-53.416138,178.63492
3003000000,-53.167023,171.17111
3006000000,-52.914822,162.49832
3009000000,-52.752125,153.57022
3012000000,-52.784466,143.65964
3015000000,-52.834866,135.65533
3018000000,-52.893387,128.01132
3021000000,-52.886169,120.37158
3024000000,-52.807934,111.82999
3027000000,-52.714386,102.5134
3030000000,-52.785221,94.586441
3033000000,-52.819645,86.060402
3036000000,-52.904713,77.674828
3039000000,-53.00972,69.865372
3042000000,-52.924843,61.496544
3045000000,-53.017635,53.114491
3048000000,-53.160305,45.15691
3051000000,-53.212334,37.375526
3054000000,-53.119759,30.724337
3057000000,-53.083927,21.983021
3060000000,-53.033398,12.824061
3063000000,-53.082184,5.4058619
3066000000,-53.22472,-3.0293133
3069000000,-53.353256,-11.336723
3072000000,-53.569454,-19.633846
3075000000,-53.606602,-26.083487
3078000000,-53.613117,-33.276073
3081000000,-53.68906,-40.649235
3084000000,-53.637383,-47.06226
3087000000,-53.503017,-54.391277
3090000000,-53.295162,-62.273293
3093000000,-53.223934,-70.573654
3096000000,-53.114597,-78.535439
3099000000,-53.061287,-88.191132
3102000000,-53.128242,-97.207497
3105000000,-53.391167,-105.3861
3108000000,-53.466797,-112.83818
3111000000,-53.506786,-120.3343
3114000000,-53.465797,-128.1232
3117000000,-53.552238,-135.90277
3120000000,-53.660301,-142.43034
3123000000,-53.601204,-149.53802
3126000000,-53.281841,-156.88715
3129000000,-53.230976,-165.85667
3132000000,-53.063789,-174.28075
3135000000,-53.037083,176.68019
3138000000,-53.257954,167.05348
3141000000,-53.349186,159.27487
3144000000,-53.486073,151.35349
3147000000,-53.492981,143.90103
3150000000,-53.578678,136.02606
3153000000,-53.802208,128.04813
3156000000,-53.686565,121.21841
3159000000,-53.700378,113.55145
3162000000,-53.666882,106.84672
3165000000,-53.575897,98.215065
3168000000,-53.626232,90.507042
3171000000,-53.616066,82.373329
3174000000,-53.891579,73.706413
3177000000,-53.838646,66.101425
3180000000,-53.921104,59.16848
3183000000,-53.95911,51.120171
3186000000,-54.070793,43.704369
3189000000,-54.049168,37.008713
3192000000,-53.958813,29.955076
3195000000,-53.881088,22.69561
3198000000,-53.830212,15.897819
3201000000,-53.647537,7.5421877
3204000000,-53.538498,-0.22322476
3207000000,-53.450428,-8.8378305
3210000000,-53.404064,-16.65531
3213000000,-53.274971,-25.111187
3216000000,-53.368172,-32.645657
3219000000,-53.462307,-40.911736
3222000000,-53.352493,-49.487522
3225000000,-53.3092,-57.671398
3228000000,-53.414841,-65.841743
3231000000,-53.541157,-73.293991
3234000000,-53.626102,-81.269173
3237000000,-53.517761,-89.295753
3240000000,-53.553799,-95.903297
3243000000,-53.463989,-102.73707
3246000000,-53.306915,-111.14809
3249000000,-53.117874,-119.47345
3252000000,-52.899487,-129.05101
3255000000,-53.005283,-138.87239
3258000000,-53.280724,-148.1459
3261000000,-53.440578,-156.27805
3264000000,-53.699753,-163.38998
3267000000,-54.028595,-171.37318
3270000000,-54.054794,-178.27644
3273000000,-54.156425,176.33012
3276000000,-54.100441,169.37616
3279000000,-53.804043,162.06665
3282000000,-53.686466,154.88959
3285000000,-53.501759,144.85498
3288000000,-53.55307,137.30371
3291000000,-53.589558,128.36411
3294000000,-53.662735,119.66882
3297000000,-53.87674,111.51349
3300000000,-54.143932,104.0349
3303000000,-54.181938,96.957787
3306000000,-54.372356,91.300957
3309000000,-54.302593,86.624992
3312000000,-53.917427,80.722366
3315000000,-53.628368,72.251579
3318000000,-53.404362,64.144196
3321000000,-53.14896,54.901802
3324000000,-53.016308,45.514568
3327000000,-53.101707,35.40934
3330000000,-53.288597,27.006472
3333000000,-53.457428,18.347595
3336000000,-53.642712,10.887403
3339000000,-53.634415,4.2621717
3342000000,-53.815777,-2.4037521
3345000000,-53.679882,-8.8639097
3348000000,-53.446026,-15.685407
3351000000,-53.153175,-24.485205
3354000000,-52.979317,-32.455215
3357000000,-52.718998,-42.271511
3360000000,-52.725784,-52.173538
3363000000,-52.897354,-61.957172
3366000000,-53.00172,-70.821198
3369000000,-53.226002,-79.781319
3372000000,-53.605396,-88.231422
3375000000,-53.833576,-94.998123
3378000000,-54.096859,-101.54678
3381000000,-53.849075,-106.44918
3384000000,-53.735268,-114.43007
3387000000,-53.639072,-122.09947
3390000000,-53.523693,-130.24319
3393000000,-53.423943,-139.49751
3396000000,-53.519951,-147.84036
3399000000,-53.460087,-156.17865
3402000000,-53.505993,-165.04585
3405000000,-53.624485,-172.76028
3408000000,-53.954655,177.80864
3411000000,-54.278313,170.85251
3414000000,-54.44973,164.78149
3417000000,-54.596428,158.67123
3420000000,-54.53643,151.71597
3423000000,-54.296505,146.76347
3426000000,-54.05999,138.54227
3429000000,-53.873158,130.24652
3432000000,-53.751408,121.42747
3435000000,-53.690872,113.33685
3438000000,-53.648315,103.80734
3441000000,-53.776859,94.171143
3444000000,-53.989483,86.309837
3447000000,-54.244907,79.135757
3450000000,-54.407524,73.646278
3453000000,-54.45966,67.577583
3456000000,-54.144405,61.76601
3459000000,-53.680847,54.370777
3462000000,-53.453835,44.899281
3465000000,-53.406204,35.266861
3468000000,-53.429588,26.492046
3471000000,-53.241512,17.278704
3474000000,-53.497849,6.8267455
3477000000,-53.803478,-1.1643651
3480000000,-54.014362,-9.0421391
3483000000,-54.207054,-15.92633
3486000000,-54.316982,-22.485313
3489000000,-54.251965,-28.512886
3492000000,-53.964066,-35.717907
3495000000,-53.868851,-44.244209
3498000000,-53.680119,-52.899746
3501000000,-53.9772,-61.830143
3504000000,-54.014385,-70.470291
3507000000,-53.898701,-77.354263
3510000000,-53.996689,-86.08004
3513000000,-54.159634,-95.184181
3516000000,-54.3241,-103.60445
3519000000,-54.598148,-110.53951
3522000000,-54.746365,-117.74776
3525000000,-54.760712,-123.26878
3528000000,-54.564301,-130.3777
3531000000,-54.607517,-137.95152
3534000000,-54.394768,-146.63657
3537000000,-54.49123,-153.16148
3540000000,-54.288239,-161.66382
3543000000,-54.381714,-170.05588
3546000000,-54.239056,-178.6497
3549000000,-54.449383,173.22319
3552000000,-54.54705,164.74286
3555000000,-54.651535,157.48869
3558000000,-54.744308,150.99117
3561000000,-54.723194,143.25726
3564000000,-54.469727,135.07253
3567000000,-54.782764,126.82402
3570000000,-54.749687,119.54725
3573000000,-54.870956,112.2916
3576000000,-54.809536,104.17149
3579000000,-54.88763,96.959587
3582000000,-54.768494,87.839752
3585000000,-54.714233,81.327065
3588000000,-54.78133,72.518921
3591000000,-54.944866,64.958435
3594000000,-54.880859,57.388794
3597000000,-54.939045,48.74614
3600000000,-55.12273,40.541267
3603000000,-55.180855,32.498478
3606000000,-55.449951,25.569044
3609000000,-55.476665,19.712431
3612000000,-55.359043,13.070249
3615000000,-55.223125,6.0358734
3618000000,-55.032841,-2.6616166
3621000000,-55.129795,-10.204249
3624000000,-55.057816,-18.599943
3627000000,-55.05724,-27.06074
3630000000,-55.232357,-35.472698
3633000000,-55.281326,-42.946945
3636000000,-55.509262,-50.445229
3639000000,-55.652409,-58.647511
3642000000,-55.604172,-63.907398
3645000000,-55.508732,-69.496552
3648000000,-55.377697,-77.231384
3651000000,-55.275009,-84.28157
3654000000,-54.954082,-93.009575
3657000000,-55.107689,-101.04616
3660000000,-55.098991,-110.25332
3663000000,-54.977348,-117.69725
3666000000,-55.081459,-125.00829
3669000000,-55.280354,-134.02565
3672000000,-55.332249,-141.79626
3675000000,-55.416611,-149.07385
3678000000,-55.471409,-155.42677
3681000000,-55.355003,-163.26524
3684000000,-55.42461,-169.61452
3687000000,-55.153339,-177.78995
3690000000,-55.145969,173.87787
3693000000,-54.932705,165.74648
3696000000,-55.042107,157.24686
3699000000,-54.978432,148.48528
3702000000,-55.271542,139.59152
3705000000,-55.307739,132.59195
3708000000,-55.422855,125.53829
3711000000,-55.499153,118.44045
3714000000,-55.566219,111.45963
3717000000,-55.552235,104.47164
3720000000,-55.372974,96.138374
3723000000,-55.285549,89.144722
3726000000,-55.253197,80.510475
3729000000,-55.19228,73.613876
3732000000,-55.244537,64.719475
3735000000,-55.273624,56.588543
3738000000,-55.469749,48.967354
3741000000,-55.489502,41.37101
3744000000,-55.484081,33.822918
3747000000,-55.460102,26.409985
3750000000,-55.337765,18.886225
3753000000,-55.398056,11.537439
3756000000,-55.383198,4.2030034
3759000000,-55.372204,-3.3349068
3762000000,-55.333717,-12.761948
3765000000,-55.390938,-20.393486
3768000000,-55.396481,-28.823996
3771000000,-55.647697,-35.895206
3774000000,-55.587116,-44.048683
3777000000,-55.712536,-50.702896
3780000000,-55.519119,-57.678017
3783000000,-55.570042,-64.85601
3786000000,-55.341908,-73.035538
3789000000,-55.515671,-82.396149
3792000000,-55.622356,-89.121101
3795000000,-55.549545,-98.138062
3798000000,-55.854488,-104.97582
3801000000,-55.707554,-112.64413
3804000000,-55.744698,-120.64937
3807000000,-55.806671,-127.01933
3810000000,-56.002525,-133.22191
3813000000,-55.957218,-139.38408
3816000000,-55.628578,-147.10046
3819000000,-55.334881,-155.2919
3822000000,-55.48727,-164.90974
3825000000,-55.538162,-173.14134
3828000000,-55.725407,179.18767
3831000000,-55.797756,171.56152
3834000000,-55.960068,164.5231
3837000000,-55.975109,158.26817
3840000000,-55.99733,151.67497
3843000000,-55.944614,145.94096
3846000000,-55.754971,138.25847
3849000000,-55.519257,130.66211
3852000000,-55.274708,121.97737
3855000000,-55.082687,113.90558
3858000000,-55.101864,104.42744
3861000000,-55.214809,96.84716
3864000000,-55.235043,86.467331
3867000000,-55.497208,79.914894
3870000000,-55.399658,74.595467
3873000000,-55.469856,66.205086
3876000000,-55.257149,60.236736
3879000000,-55.14455,52.348904
3882000000,-55.220024,44.833324
3885000000,-55.025154,36.86105
3888000000,-55.108459,28.713549
3891000000,-55.122646,19.666754
3894000000,-55.071426,11.570371
3897000000,-55.159523,2.4416473
3900000000,-55.01894,-4.6422105
3903000000,-55.258331,-12.968369
3906000000,-55.227779,-21.13229
3909000000,-55.475605,-28.848383
3912000000,-55.454937,-35.892464
3915000000,-55.550098,-43.000565
3918000000,-55.753254,-49.466579
3921000000,-55.601517,-56.356907
3924000000,-55.388199,-63.890896
3927000000,-55.345036,-71.967262
3930000000,-55.387104,-79.53788
3933000000,-55.208702,-88.420479
3936000000,-55.208199,-96.757927
3939000000,-55.158287,-104.24142
3942000000,-55.381771,-112.11166
3945000000,-55.445862,-119.70106
3948000000,-55.553299,-126.25785
3951000000,-55.592728,-133.86841
3954000000,-55.346107,-141.22888
3957000000,-55.292915,-146.93771
3960000000,-55.016304,-153.74521
3963000000,-54.864281,-161.69812
3966000000,-54.77018,-170.96745
3969000000,-54.722687,-179.23827
3972000000,-54.743454,170.27287
3975000000,-54.809956,161.65227
3978000000,-55.101925,155.06947
3981000000,-55.143616,146.73299
3984000000,-55.313164,139.48822
3987000000,-55.351898,132.87726
3990000000,-55.482445,125.65072
3993000000,-55.449844,120.25639
3996000000,-55.242474,113.15945
3999000000,-54.953678,105.94337
4002000000,-54.818436,97.80619
4005000000,-54.534042,88.817368
4008000000,-54.599152,78.884857
4011000000,-54.650742,71.050743
4014000000,-54.965004,61.972034
4017000000,-54.994091,54.01403
4020000000,-55.176826,46.844532
4023000000,-55.398846,41.171421
4026000000,-55.170662,34.838478
4029000000,-55.081657,29.225653
4032000000,-55.007286,21.95619
4035000000,-54.676773,14.842925
4038000000,-54.625156,5.9966674
4041000000,-54.357243,-3.0104241
4044000000,-54.368271,-12.29698
4047000000,-54.430496,-20.712255
4050000000,-54.410618,-29.861423
4053000000,-54.631187,-37.476379
4056000000,-54.849804,-44.633732
4059000000,-55.101933,-49.99683
4062000000,-54.878857,-57.081501
4065000000,-54.749104,-63.147217
4068000000,-54.460598,-71.285408
4071000000,-54.182369,-78.469528
4074000000,-54.17202,-87.224007
4077000000,-53.99398,-95.499573
4080000000,-53.982037,-104.28771
4083000000,-53.909294,-113.79034
4086000000,-53.961113,-121.7442
4089000000,-54.037655,-130.65385
4092000000,-54.243301,-138.53149
4095000000,-54.428219,-144.83502
4098000000,-54.520134,-152.19928
4101000000,-54.359413,-159.87485
4104000000,-54.183842,-165.49992
4107000000,-54.191723,-173.4388
4110000000,-53.86491,178.8407
4113000000,-53.794849,170.50507
4116000000,-53.65387,161.07307
4119000000,-53.747421,151.5605
4122000000,-53.916348,143.05536
4125000000,-54.139057,135.93494
4128000000,-54.203331,128.50194
4131000000,-54.335308,119.75831
4134000000,-54.34869,113.67322
4137000000,-54.273582,106.24303
4140000000,-54.130993,98.722191
4143000000,-54.110588,91.066322
4146000000,-53.837864,83.989349
4149000000,-53.780869,75.771568
4152000000,-53.784435,67.870804
4155000000,-53.604347,59.491154
4158000000,-53.566769,49.984367
4161000000,-53.617428,41.22546
4164000000,-53.709003,32.229343
4167000000,-53.925774,25.652136
4170000000,-54.216011,18.429382
4173000000,-54.176113,10.632563
4176000000,-54.280903,3.3500323
4179000000,-54.207314,-3.4127817
4182000000,-54.044975,-9.5199327
4185000000,-53.654228,-16.687603
4188000000,-53.439983,-26.045633
4191000000,-53.355663,-36.041325
4194000000,-53.233631,-45.635139
4197000000,-53.450001,-54.816612
4200000000,-53.870461,-63.032871
4203000000,-54.18322,-69.923737
4206000000,-54.509857,-76.664818
4209000000,-54.459538,-81.813004
4212000000,-54.342617,-88.133186
4215000000,-54.213993,-94.561638
4218000000,-53.959572,-102.17866
4221000000,-53.750996,-109.66871
4224000000,-53.596745,-118.74903
4227000000,-53.596569,-127.47327
4230000000,-53.439968,-136.10097
4233000000,-53.657417,-144.85382
4236000000,-53.797943,-152.84261
4239000000,-53.869732,-160.96973
4242000000,-53.833885,-168.90239
4245000000,-54.010242,-175.83246
4248000000,-54.226704,178.11104
4251000000,-53.957958,171.35686
4254000000,-53.752041,164.33237
4257000000,-53.719193,156.8029
4260000000,-53.373074,149.70325
4263000000,-53.245781,140.33929
4266000000,-53.11343,130.99397
4269000000,-53.221172,121.27399
4272000000,-53.29406,113.11317
4275000000,-53.455929,104.18068
4278000000,-53.882656,97.243706
4281000000,-53.906456,91.273262
4284000000,-53.765881,85.512917
4287000000,-53.685429,78.514053
4290000000,-53.377678,70.13266
4293000000,-53.302418,61.799553
4296000000,-53.146832,53.783596
4299000000,-53.200066,44.919739
4302000000,-53.208881,36.529396
4305000000,-53.133923,27.894855
4308000000,-53.311016,20.329948
4311000000,-53.374645,12.25317
4314000000,-53.407234,4.8884611
4317000000,-53.337254,-3.1953363
4320000000,-53.428169,-10.144821
4323000000,-53.222748,-17.990854
4326000000,-53.546642,-25.469189
4329000000,-53.294476,-32.348362
4332000000,-53.031036,-40.455772
4335000000,-52.948643,-48.869774
4338000000,-52.932777,-57.733841
4341000000,-52.89706,-66.420013
4344000000,-52.867344,-74.278175
4347000000,-53.086933,-83.566139
4350000000,-53.235722,-92.128761
4353000000,-53.384914,-99.815994
4356000000,-53.630863,-106.14102
4359000000,-53.570427,-113.40295
4362000000,-53.341846,-119.44046
4365000000,-53.230968,-127.29637
4368000000,-53.055248,-134.98183
4371000000,-53.000275,-143.0594
4374000000,-53.077778,-151.51593
4377000000,-53.153667,-159.23882
4380000000,-53.331184,-168.00993
4383000000,-53.239014,-175.36055
4386000000,-53.203339,177.22847
4389000000,-53.149757,169.23582
4392000000,-53.332531,161.78268
4395000000,-53.31443,152.44781
4398000000,-53.373245,145.85114
4401000000,-53.329865,138.58611
4404000000,-53.366863,131.12434
4407000000,-53.291748,124.37128
4410000000,-53.178223,117.24199
4413000000,-53.018475,109.4331
4416000000,-52.924541,100.75188
4419000000,-52.941975,92.56617
4422000000,-52.78516,84.882515
4425000000,-52.928509,75.674202
4428000000,-52.964661,67.908958
4431000000,-53.080116,60.393993
4434000000,-53.160793,53.845028
4437000000,-53.059505,46.647331
4440000000,-52.979393,39.747509
4443000000,-52.903915,31.454828
4446000000,-52.713112,24.502958
4449000000,-52.460194,16.383465
4452000000,-52.486778,8.1763163
4455000000,-52.428635,-0.90876949
4458000000,-52.312931,-9.8342743
4461000000,-52.291168,-17.392984
4464000000,-52.264294,-25.841019
4467000000,-52.247234,-33.611061
4470000000,-52.345211,-42.285366
4473000000,-52.43515,-48.941444
4476000000,-52.341114,-56.989475
4479000000,-52.088257,-64.81591
4482000000,-52.228363,-73.065536
4485000000,-52.241047,-82.335808
4488000000,-52.16164,-90.171028
4491000000,-52.169323,-98.172165
4494000000,-52.203285,-106.85431
4497000000,-52.132088,-113.89795
4500000000,-52.056038,-122.60157
4503000000,-52.025314,-131.51936
4506000000,-52.105,-139.80399
4509000000,-52.371586,-148.8687
4512000000,-52.608742,-156.34402
4515000000,-52.553669,-162.04845
4518000000,-52.584133,-169.14195
4521000000,-52.372013,-177.0215
4524000000,-52.254055,173.61388
4527000000,-52.315693,167.02686
4530000000,-52.146294,158.41092
4533000000,-52.248024,149.61526
4536000000,-52.094036,140.49216
4539000000,-52.357388,133.17351
4542000000,-52.450687,124.84791
4545000000,-52.611263,116.47405
4548000000,-52.698963,109.20377
4551000000,-52.882526,102.54607
4554000000,-52.799618,95.753052
4557000000,-52.73774,88.070313
4560000000,-52.674179,80.545036
4563000000,-52.451542,72.338371
4566000000,-52.563728,65.462654
4569000000,-52.401394,56.371094
4572000000,-52.379322,48.042431
4575000000,-52.566597,40.484493
4578000000,-52.55899,31.994707
4581000000,-52.766441,24.432951
4584000000,-52.763176,16.604664
4587000000,-52.775311,10.192108
4590000000,-52.530502,4.3593316
4593000000,-52.478638,-4.6516037
4596000000,-52.314766,-11.632931
4599000000,-52.285915,-19.332727
4602000000,-52.365326,-29.210726
4605000000,-52.300098,-36.572735
4608000000,-52.268063,-44.139874
4611000000,-51.919743,-52.605633
4614000000,-52.016487,-61.20586
4617000000,-52.102615,-69.679657
4620000000,-52.071327,-77.700516
4623000000,-52.227226,-85.470871
4626000000,-52.377438,-93.06575
4629000000,-52.214153,-100.75487
4632000000,-52.029057,-108.52641
4635000000,-52.024666,-116.78133
4638000000,-51.897881,-124.89926
4641000000,-51.860256,-132.34651
4644000000,-51.98526,-142.04521
4647000000,-51.891991,-149.33853
4650000000,-51.927425,-157.95018
4653000000,-51.940769,-166.91277
4656000000,-52.081013,-175.2916
4659000000,-52.204609,177.5173
4662000000,-52.154789,170.31934
4665000000,-52.243359,162.39073
4668000000,-52.336945,154.93288
4671000000,-52.106068,148.01855
4674000000,-52.069786,139.08902
4677000000,-52.080654,129.90222
4680000000,-52.14703,121.75742
4683000000,-52.227631,114.68964
4686000000,-52.21106,106.19202
4689000000,-52.477055,97.645584
4692000000,-52.189339,90.971565
4695000000,-52.249737,82.705505
4698000000,-52.247299,74.317894
4701000000,-52.352619,66.895943
4704000000,-52.496616,58.194126
4707000000,-52.168163,51.299564
4710000000,-52.555943,44.077888
4713000000,-52.44175,36.039078
4716000000,-52.385036,28.377333
4719000000,-52.337261,19.307482
4722000000,-52.24295,11.755863
4725000000,-52.354382,4.4075775
4728000000,-52.261269,-4.1415834
4731000000,-52.2826,-12.679537
4734000000,-52.378647,-20.100384
4737000000,-52.38131,-28.52961
4740000000,-52.446583,-36.042843
4743000000,-52.541176,-43.786022
4746000000,-52.443817,-50.583557
4749000000,-52.507496,-58.94278
4752000000,-52.646633,-66.111778
4755000000,-52.633369,-73.522171
4758000000,-52.565857,-81.590195
4761000000,-52.476833,-88.939232
4764000000,-52.274227,-97.265648
4767000000,-52.278316,-106.53382
4770000000,-52.535301,-114.58221
4773000000,-52.527878,-122.9982
4776000000,-52.715191,-130.84746
4779000000,-52.764603,-138.74324
4782000000,-52.93856,-145.13483
4785000000,-52.792732,-152.58041
4788000000,-52.953487,-158.5947
4791000000,-52.735035,-166.77707
4794000000,-52.623466,-173.70454
4797000000,-52.434433,177.38316
4800000000,-52.39793,170.10701
4803000000,-52.348816,160.71545
4806000000,-52.089481,152.21774
4809000000,-52.323181,145.23271
4812000000,-52.457298,135.27736
4815000000,-52.665527,127.89696
4818000000,-52.68927,121.30805
4821000000,-52.606773,114.27205
4824000000,-52.633503,106.85439
4827000000,-52.435944,99.434029
4830000000,-52.316628,90.902298
4833000000,-52.248787,83.378036
4836000000,-52.212124,74.449654
