!CSV A.01.01
!Keysight Technologies,N5227B,US58420762,A.13.80.08
!Date: Tuesday, November 21, 2023 09:49:10
!Source: Standard

BEGIN CH1_DATA
Time(s),S21(DB),S21(DEG)
5e-009,-119.44489,157.28096
5.015e-009,-119.7105,-175.20871
5.03e-009,-119.98437,-147.31416
5.045e-009,-120.2554,-119.01427
5.06e-009,-120.51043,-90.307213
5.075e-009,-120.73536,-61.217716
5.09e-009,-120.91655,-31.798824
5.105e-009,-121.04271,-2.1353521
5.12e-009,-121.10652,27.662397
5.135e-009,-121.10697,57.47271
5.15e-009,-121.04853,87.174332
5.165e-009,-120.94158,116.66917
5.18e-009,-120.79965,145.883
5.195e-009,-120.63815,174.77838
5.21e-009,-120.47198,-156.65562
5.225e-009,-120.31487,-128.40431
5.24e-009,-120.17896,-100.43501
5.255e-009,-120.07359,-72.705444
5.27e-009,-120.00691,-45.162891
5.285e-009,-119.98471,-17.753674
5.3e-009,-120.01205,9.5839453
5.315e-009,-120.09174,36.912983
5.33e-009,-120.22638,64.301277
5.345e-009,-120.41645,91.823875
5.36e-009,-120.661,119.56345
5.375e-009,-120.95664,147.60875
5.39e-009,-121.29665,176.06372
5.405e-009,-121.66951,-154.96916
5.42e-009,-122.05703,-125.38239
5.435e-009,-122.43276,-95.097145
5.45e-009,-122.7616,-64.078796
5.465e-009,-123.00243,-32.390923
5.48e-009,-123.11462,-0.21447402
5.495e-009,-123.07069,32.143505
5.51e-009,-122.86416,64.314377
5.525e-009,-122.5134,95.950645
5.54e-009,-122.05376,126.80663
5.555e-009,-121.52637,156.76508
5.57e-009,-120.96893,-174.19005
5.585e-009,-120.41115,-146.00145
5.6e-009,-119.87387,-118.58661
5.615e-009,-119.37057,-91.851364
5.63e-009,-118.90921,-65.709747
5.645e-009,-118.49376,-40.086727
5.66e-009,-118.12552,-14.918613
5.675e-009,-117.80413,9.8487101
5.69e-009,-117.52775,34.255093
5.705e-009,-117.29394,58.3381
5.72e-009,-117.09969,82.12484
5.735e-009,-116.94135,105.64175
5.75e-009,-116.81522,128.90959
5.765e-009,-116.71709,151.95007
5.78e-009,-116.64285,174.7858
5.795e-009,-116.58805,-162.56271
5.81e-009,-116.54835,-140.06973
5.825e-009,-116.51982,-117.70744
5.84e-009,-116.49861,-95.444458
5.855e-009,-116.48139,-73.246979
5.87e-009,-116.46548,-51.078804
5.885e-009,-116.44891,-28.901136
5.9e-009,-116.43056,-6.6732492
5.915e-009,-116.40997,15.642571
5.93e-009,-116.38743,38.083538
5.945e-009,-116.36398,60.685383
5.96e-009,-116.34061,83.478622
5.975e-009,-116.31897,106.48985
5.99e-009,-116.30035,129.74133
6.005e-009,-116.28606,153.2513
6.02e-009,-116.27682,177.03287
6.035e-009,-116.27323,-158.90558
6.05e-009,-116.27501,-134.55833
6.065e-009,-116.28139,-109.92524
6.08e-009,-116.29096,-85.011513
6.095e-009,-116.3021,-59.825321
6.11e-009,-116.31234,-34.382252
6.125e-009,-116.31947,-8.7017174
6.14e-009,-116.32088,17.191616
6.155e-009,-116.31446,43.267387
6.17e-009,-116.2985,69.489586
6.185e-009,-116.27202,95.821663
6.2e-009,-116.23483,122.22192
6.215e-009,-116.18767,148.65303
6.23e-009,-116.13234,175.07542
6.245e-009,-116.07128,-158.54396
6.26e-009,-116.00763,-132.23537
6.275e-009,-115.94489,-106.02189
6.29e-009,-115.88703,-79.922104
6.305e-009,-115.83763,-53.948273
6.32e-009,-115.80046,-28.107187
6.335e-009,-115.77878,-2.401067
6.35e-009,-115.77567,23.171347
6.365e-009,-115.79366,48.615879
6.38e-009,-115.83489,73.939613
6.395e-009,-115.90089,99.15329
6.41e-009,-115.99294,124.26972
6.425e-009,-116.1117,149.30359
6.44e-009,-116.25748,174.27139
6.455e-009,-116.43002,-160.8085
6.47e-009,-116.62852,-135.91379
6.485e-009,-116.85182,-111.02042
6.5e-009,-117.09802,-86.10289
6.515e-009,-117.36464,-61.130318
6.53e-009,-117.64819,-36.070148
6.545e-009,-117.94462,-10.88718
6.56e-009,-118.24841,14.457716
6.575e-009,-118.55294,40.001785
6.59e-009,-118.85017,65.780846
6.605e-009,-119.13046,91.827431
6.62e-009,-119.38274,118.16372
6.635e-009,-119.59526,144.79463
6.65e-009,-119.75539,171.70667
6.665e-009,-119.85168,-161.13835
6.68e-009,-119.875,-133.80167
6.695e-009,-119.81992,-106.36484
6.71e-009,-119.686,-78.921989
6.725e-009,-119.47723,-51.563416
6.74e-009,-119.20268,-24.369246
6.755e-009,-118.87409,2.6022277
6.77e-009,-118.50527,29.311979
6.785e-009,-118.10949,55.746262
6.8e-009,-117.69975,81.906815
6.815e-009,-117.28745,107.80939
6.83e-009,-116.88214,133.47768
6.845e-009,-116.49193,158.93837
6.86e-009,-116.12312,-175.77847
6.875e-009,-115.78101,-150.64488
6.89e-009,-115.46976,-125.63371
6.905e-009,-115.1925,-100.72007
6.92e-009,-114.95206,-75.880058
6.935e-009,-114.75026,-51.093647
6.95e-009,-114.58898,-26.339869
6.965e-009,-114.46957,-1.6014084
6.98e-009,-114.39317,23.139631
6.995e-009,-114.36084,47.900223
7.01e-009,-114.37334,72.698036
7.025e-009,-114.43135,97.549728
7.04e-009,-114.53547,122.47549
7.055e-009,-114.68604,147.4948
7.07e-009,-114.88321,172.63033
7.085e-009,-115.12686,-162.09242
7.1e-009,-115.4164,-136.64476
7.115e-009,-115.75058,-110.99477
7.13e-009,-116.12719,-85.105118
7.145e-009,-116.54305,-58.935913
7.16e-009,-116.9929,-32.441689
7.175e-009,-117.46951,-5.5781155
7.19e-009,-117.96273,21.698208
7.205e-009,-118.45901,49.42001
7.22e-009,-118.94146,77.603844
7.235e-009,-119.39005,106.23011
7.25e-009,-119.78375,135.241
7.265e-009,-120.10326,164.52423
7.28e-009,-120.33408,-166.0777
7.295e-009,-120.47087,-136.75099
7.31e-009,-120.5177,-107.68167
7.325e-009,-120.4873,-79.028244
7.34e-009,-120.39783,-50.901783
7.355e-009,-120.26944,-23.362904
7.37e-009,-120.12067,3.5749052
7.385e-009,-119.96787,29.92878
7.4e-009,-119.82352,55.738075
7.415e-009,-119.69645,81.053764
7.43e-009,-119.59346,105.93119
7.445e-009,-119.51905,130.42542
7.46e-009,-119.47573,154.59396
7.475e-009,-119.46633,178.48936
7.49e-009,-119.49128,-157.83498
7.505e-009,-119.55308,-134.32719
7.52e-009,-119.65306,-110.93594
7.535e-009,-119.79325,-87.60733
7.55e-009,-119.977,-64.291725
7.565e-009,-120.20786,-40.930115
7.58e-009,-120.49062,-17.465647
7.595e-009,-120.83112,6.1712537
7.61e-009,-121.23619,30.056572
7.625e-009,-121.71426,54.280788
7.64e-009,-122.27338,78.964424
7.655e-009,-122.92328,104.26385
7.67e-009,-123.67138,130.38869
7.685e-009,-124.5194,157.63985
7.7e-009,-125.45391,-173.57635
7.715e-009,-126.43001,-142.72449
7.73e-009,-127.3377,-109.2615
7.745e-009,-127.97997,-73.017876
7.76e-009,-128.12151,-34.859516
7.775e-009,-127.65948,3.2209213
7.79e-009,-126.72932,39.339725
7.805e-009,-125.57092,72.799423
7.82e-009,-124.37442,103.85889
7.835e-009,-123.23991,133.07234
7.85e-009,-122.21152,160.94574
7.865e-009,-121.30192,-172.12875
7.88e-009,-120.51132,-145.87744
7.895e-009,-119.83537,-120.11301
7.91e-009,-119.26876,-94.697128
7.925e-009,-118.8058,-69.532043
7.94e-009,-118.44252,-44.54446
7.955e-009,-118.17545,-19.680332
7.97e-009,-118.00294,5.106864
7.985e-009,-117.92402,29.854826
8e-009,-117.93927,54.59866
8.015e-009,-118.05069,79.373528
8.03e-009,-118.26174,104.21588
8.045e-009,-118.57761,129.17007
8.06e-009,-119.00549,154.2903
8.075e-009,-119.55495,179.64888
8.09e-009,-120.23866,-154.65184
8.105e-009,-121.0726,-128.46175
8.12e-009,-122.07644,-101.55102
8.135e-009,-123.27142,-73.550652
8.15e-009,-124.67252,-43.848988
8.165e-009,-126.25911,-11.440195
8.18e-009,-127.89426,25.17226
8.195e-009,-129.16177,67.21434
8.21e-009,-129.41118,112.85284
8.225e-009,-128.4948,156.45497
8.24e-009,-126.99888,-165.3754
8.255e-009,-125.45177,-132.03093
8.27e-009,-124.06313,-101.94154
8.285e-009,-122.87793,-73.936211
8.3e-009,-121.88711,-47.298393
8.315e-009,-121.06915,-21.599234
8.33e-009,-120.40239,3.4189136
8.345e-009,-119.86841,27.920004
8.36e-009,-119.45152,52.00824
8.375e-009,-119.13921,75.752281
8.39e-009,-118.92091,99.195518
8.405e-009,-118.78783,122.36896
8.42e-009,-118.73195,145.29446
8.435e-009,-118.74639,167.98648
8.45e-009,-118.82447,-169.54398
8.465e-009,-118.96011,-147.28384
8.48e-009,-119.1469,-125.22025
8.495e-009,-119.37904,-103.33463
8.51e-009,-119.6506,-81.602257
8.525e-009,-119.95618,-59.989635
8.54e-009,-120.29069,-38.453075
8.555e-009,-120.65015,-16.933741
8.57e-009,-121.03152,4.6341791
8.585e-009,-121.43418,26.336489
8.6e-009,-121.85777,48.265762
8.615e-009,-122.30476,70.530365
8.63e-009,-122.77851,93.249306
8.645e-009,-123.28219,116.55653
8.66e-009,-123.81729,140.60255
8.675e-009,-124.38176,165.55261
8.69e-009,-124.96573,-168.40593
8.705e-009,-125.54632,-141.08624
8.72e-009,-126.08328,-112.3398
8.735e-009,-126.51585,-82.132996
8.75e-009,-126.77222,-50.659298
8.765e-009,-126.79138,-18.395725
8.78e-009,-126.55637,13.970243
8.795e-009,-126.10395,45.780918
8.81e-009,-125.50839,76.612015
8.825e-009,-124.84939,106.32601
8.84e-009,-124.19277,134.9792
8.855e-009,-123.58516,162.72063
8.87e-009,-123.05627,-170.27921
8.885e-009,-122.62505,-143.86723
8.9e-009,-122.30456,-117.91299
8.915e-009,-122.10468,-92.312302
8.93e-009,-122.03527,-66.981506
8.945e-009,-122.10721,-41.852989
8.96e-009,-122.3358,-16.872185
8.975e-009,-122.74145,8.0151644
8.99e-009,-123.35466,32.857471
9.005e-009,-124.22142,57.716301
9.02e-009,-125.41624,82.681213
9.035e-009,-127.06887,107.9138
9.05e-009,-129.43352,133.79834
9.065e-009,-133.11684,161.58119
9.08e-009,-140.21802,-160.80408
9.095e-009,-144.28081,-19.893389
9.11e-009,-134.25632,32.314453
9.125e-009,-129.3997,61.439812
9.14e-009,-126.25369,87.548058
9.155e-009,-123.95481,112.69479
9.17e-009,-122.17318,137.40808
9.185e-009,-120.74976,161.88831
9.2e-009,-119.59506,-173.77512
9.215e-009,-118.65504,-149.53436
9.23e-009,-117.89443,-125.36051
9.245e-009,-117.29009,-101.23569
9.26e-009,-116.82578,-77.1492
9.275e-009,-116.49093,-53.092007
9.29e-009,-116.27876,-29.05682
9.305e-009,-116.18575,-5.0387425
9.32e-009,-116.21095,18.968504
9.335e-009,-116.35632,42.970963
9.35e-009,-116.62659,66.975555
9.365e-009,-117.02985,90.993271
9.38e-009,-117.57879,115.03817
9.395e-009,-118.2913,139.13295
9.41e-009,-119.19444,163.31151
9.425e-009,-120.32887,-172.36398
9.44e-009,-121.75781,-147.78366
9.455e-009,-123.58736,-122.7242
9.47e-009,-126.01048,-96.662819
9.485e-009,-129.4339,-68.058517
9.5e-009,-134.8398,-30.140324
9.515e-009,-140.73257,59.421486
9.53e-009,-134.16249,138.23035
9.545e-009,-129.33032,173.58746
9.56e-009,-126.2916,-158.81258
9.575e-009,-124.17547,-133.61555
9.59e-009,-122.61681,-109.52721
9.605e-009,-121.43701,-86.098007
9.62e-009,-120.53555,-63.142265
9.635e-009,-119.85022,-40.577023
9.65e-009,-119.33904,-18.368116
9.665e-009,-118.97128,3.4986556
9.68e-009,-118.72297,25.021555
9.695e-009,-118.57369,46.197571
9.71e-009,-118.50489,67.028481
9.725e-009,-118.49926,87.521873
9.74e-009,-118.5404,107.70802
9.755e-009,-118.61246,127.63377
9.77e-009,-118.70246,147.37924
9.785e-009,-118.80044,167.05115
9.8e-009,-118.90173,-173.22028
9.815e-009,-119.00722,-153.28871
9.83e-009,-119.12421,-132.99721
9.845e-009,-119.26538,-112.19476
9.86e-009,-119.44763,-90.729691
9.875e-009,-119.68965,-68.443047
9.89e-009,-120.00972,-45.156586
9.905e-009,-120.423,-20.640862
9.92e-009,-120.93512,5.4143372
9.935e-009,-121.53066,33.434654
9.95e-009,-122.15075,63.95042
9.965e-009,-122.66055,97.412376
9.98e-009,-122.83987,133.69226
9.995e-009,-122.47665,171.46295
1.001e-008,-121.54819,-151.43359
1.0025e-008,-120.24696,-116.5619
1.004e-008,-118.8083,-84.244659
1.0055e-008,-117.39082,-54.079666
1.007e-008,-116.07258,-25.519978
1.0085e-008,-114.88367,1.895216
1.01e-008,-113.83157,28.502443
1.0115e-008,-112.91436,54.536358
1.013e-008,-112.12708,80.160156
1.0145e-008,-111.46434,105.4885
1.016e-008,-110.92156,130.60394
1.0175e-008,-110.49557,155.56731
1.019e-008,-110.18459,-179.57573
1.0205e-008,-109.98848,-154.78703
1.022e-008,-109.90885,-130.0356
1.0235e-008,-109.94922,-105.29115
1.025e-008,-110.11542,-80.523788
1.0265e-008,-110.41599,-55.698429
1.028e-008,-110.86282,-30.771194
1.0295e-008,-111.47258,-5.6806617
1.031e-008,-112.26811,19.664289
1.0325e-008,-113.28136,45.409546
1.034e-008,-114.55666,71.805969
1.0355e-008,-116.15671,99.316917
1.037e-008,-118.1634,128.87404
1.0385e-008,-120.64471,162.50749
1.04e-008,-123.4048,-155.48463
1.0415e-008,-125.07727,-101.13855
1.043e-008,-123.99376,-46.665485
1.0445e-008,-121.7271,-5.1557236
1.046e-008,-119.7265,26.91511
1.0475e-008,-118.21918,53.819351
1.049e-008,-117.13427,77.430527
1.0505e-008,-116.36491,98.40126
1.052e-008,-115.79053,116.84851
1.0535e-008,-115.25816,132.76805
1.055e-008,-114.57896,146.45964
1.0565e-008,-113.58105,158.90289
1.058e-008,-112.20774,171.60999
1.0595e-008,-110.54865,-174.12883
1.061e-008,-108.75723,-157.77719
1.0625e-008,-106.96114,-139.41406
1.064e-008,-105.236,-119.36905
1.0655e-008,-103.61652,-97.98777
1.067e-008,-102.11368,-75.552032
1.0685e-008,-100.72641,-52.269276
1.07e-008,-99.448036,-28.284962
1.0715e-008,-98.269417,-3.6984925
1.073e-008,-97.180389,21.423748
1.0745e-008,-96.170349,47.038826
1.076e-008,-95.228302,73.119133
1.0775e-008,-94.342781,99.646317
1.079e-008,-93.501778,126.60559
1.0805e-008,-92.692673,153.98055
1.082e-008,-91.902397,-178.25208
1.0835e-008,-91.11779,-150.12694
1.085e-008,-90.326263,-121.69352
1.0865e-008,-89.516708,-93.017548
1.088e-008,-88.680496,-64.179062
1.0895e-008,-87.812256,-35.267738
1.091e-008,-86.910416,-6.3754644
1.0925e-008,-85.977028,22.411888
1.094e-008,-85.017174,51.0214
1.0955e-008,-84.038025,79.397583
1.097e-008,-83.047745,107.50369
1.0985e-008,-82.054619,135.32047
1.1e-008,-81.06633,162.84305
1.1015e-008,-80.089592,-169.92242
1.103e-008,-79.129974,-142.96249
1.1045e-008,-78.191895,-116.25922
1.106e-008,-77.278725,-89.792397
1.1075e-008,-76.392952,-63.541332
1.109e-008,-75.536293,-37.485733
1.1105e-008,-74.7099,-11.606435
1.112e-008,-73.914444,14.114317
1.1135e-008,-73.150246,39.692638
1.115e-008,-72.417351,65.143082
1.1165e-008,-71.715637,90.478653
1.118e-008,-71.04483,115.71093
1.1195e-008,-70.404549,140.85019
1.121e-008,-69.794365,165.90553
1.1225e-008,-69.213821,-169.11499
1.124e-008,-68.662415,-144.20422
1.1255e-008,-68.139664,-119.35587
1.127e-008,-67.645081,-94.564316
1.1285e-008,-67.178185,-69.8246
1.13e-008,-66.738533,-45.132286
1.1315e-008,-66.325684,-20.483448
1.133e-008,-65.939232,4.1254253
1.1345e-008,-65.578796,28.697474
1.136e-008,-65.244019,53.235504
1.1375e-008,-64.934586,77.742027
1.139e-008,-64.6502,102.21931
1.1405e-008,-64.390594,126.66941
1.142e-008,-64.155533,151.09415
1.1435e-008,-63.944801,175.49519
1.145e-008,-63.75824,-160.12593
1.1465e-008,-63.595684,-135.76785
1.148e-008,-63.457031,-111.42933
1.1495e-008,-63.342186,-87.109192
1.151e-008,-63.251095,-62.806396
1.1525e-008,-63.183731,-38.519974
1.154e-008,-63.140102,-14.248996
1.1555e-008,-63.120247,10.007369
1.157e-008,-63.124237,34.249912
1.1585e-008,-63.152184,58.479397
1.16e-008,-63.204227,82.696541
1.1615e-008,-63.280552,106.90205
1.163e-008,-63.381382,131.0966
1.1645e-008,-63.506989,155.2809
1.166e-008,-63.657684,179.4556
1.1675e-008,-63.833836,-156.37857
1.169e-008,-64.035873,-132.22087
1.1705e-008,-64.264275,-108.0705
1.172e-008,-64.519592,-83.926636
1.1735e-008,-64.80246,-59.788307
1.175e-008,-65.113586,-35.654491
1.1765e-008,-65.453789,-11.523995
1.178e-008,-65.823982,12.604561
1.1795e-008,-66.225212,36.732754
1.181e-008,-66.658676,60.862473
1.1825e-008,-67.125725,84.995941
1.184e-008,-67.627914,109.13586
1.1855e-008,-68.167038,133.28551
1.187e-008,-68.745163,157.44891
1.1885e-008,-69.364693,-178.36896
1.19e-008,-70.028427,-154.1618
1.1915e-008,-70.739677,-129.92163
1.193e-008,-71.502357,-105.63824
1.1945e-008,-72.321182,-81.298248
1.196e-008,-73.201805,-56.883972
1.1975e-008,-74.151176,-32.371552
1.199e-008,-75.177864,-7.7282057
1.2005e-008,-76.292603,17.09223
1.202e-008,-77.508972,42.156525
1.2035e-008,-78.844383,67.564316
1.205e-008,-80.321205,93.469917
1.2065e-008,-81.967949,120.12274
1.208e-008,-83.818993,147.94554
1.2095e-008,-85.907295,177.68909
1.211e-008,-88.228745,-149.28368
1.2125e-008,-90.608078,-110.72201
1.214e-008,-92.388908,-64.780746
1.2155e-008,-92.612602,-15.508045
1.217e-008,-91.46965,28.521141
1.2185e-008,-89.950966,65.250313
1.22e-008,-88.563728,96.977806
1.2215e-008,-87.417679,125.73746
1.223e-008,-86.500572,152.70432
1.2245e-008,-85.777107,178.52473
1.226e-008,-85.213631,-156.43466
1.2275e-008,-84.782639,-131.95619
1.229e-008,-84.462402,-107.90501
1.2305e-008,-84.235725,-84.194313
1.232e-008,-84.088799,-60.766663
1.2335e-008,-84.010307,-37.583027
1.235e-008,-83.990753,-14.616227
1.2365e-008,-84.02195,8.1531296
1.238e-008,-84.096664,30.739399
1.2395e-008,-84.208359,53.153809
1.241e-008,-84.350967,75.405876
1.2425e-008,-84.518784,97.504547
1.244e-008,-84.706367,119.45897
1.2455e-008,-84.90847,141.27939
1.247e-008,-85.120071,162.9776
1.2485e-008,-85.336342,-175.4326
1.25e-008,-85.552734,-153.93517
1.2515e-008,-85.764999,-132.51164
1.253e-008,-85.969315,-111.14158
1.2545e-008,-86.162308,-89.802666
1.256e-008,-86.341125,-68.471489
1.2575e-008,-86.503487,-47.124237
1.259e-008,-86.647667,-25.737556
1.2605e-008,-86.772491,-4.2893205
1.262e-008,-86.877274,17.240543
1.2635e-008,-86.961754,38.869453
1.265e-008,-87.025993,60.611713
1.2665e-008,-87.070328,82.478241
1.268e-008,-87.095222,104.47667
1.2695e-008,-87.101295,126.6113
1.271e-008,-87.089203,148.88347
1.2725e-008,-87.059616,171.29182
1.274e-008,-87.013252,-166.16716
1.2755e-008,-86.950829,-143.49899
1.277e-008,-86.873085,-120.71039
1.2785e-008,-86.780823,-97.809196
1.28e-008,-86.674896,-74.803818
1.2815e-008,-86.556229,-51.702835
1.283e-008,-86.425835,-28.514894
1.2845e-008,-86.284821,-5.2482495
1.286e-008,-86.134361,18.089306
1.2875e-008,-85.975739,41.490658
1.289e-008,-85.81028,64.949448
1.2905e-008,-85.639366,88.460098
1.292e-008,-85.464432,112.01792
1.2935e-008,-85.286896,135.61899
1.295e-008,-85.108177,159.26025
1.2965e-008,-84.92968,-177.06076
1.298e-008,-84.752747,-153.34573
1.2995e-008,-84.578682,-129.59587
1.301e-008,-84.408707,-105.81184
1.3025e-008,-84.243965,-81.993935
1.304e-008,-84.085526,-58.14209
1.3055e-008,-83.934349,-34.255985
1.307e-008,-83.791321,-10.335094
1.3085e-008,-83.657211,13.621236
1.31e-008,-83.53273,37.613789
1.3115e-008,-83.418457,61.643368
1.313e-008,-83.314919,85.710823
1.3145e-008,-83.222527,109.81696
1.316e-008,-83.14164,133.96255
1.3175e-008,-83.072517,158.1483
1.319e-008,-83.015373,-177.62518
1.3205e-008,-82.970322,-153.35741
1.322e-008,-82.937454,-129.04802
1.3235e-008,-82.916779,-104.69686
1.325e-008,-82.908272,-80.303902
1.3265e-008,-82.911865,-55.869339
1.328e-008,-82.927452,-31.393576
1.3295e-008,-82.95491,-6.8772526
1.331e-008,-82.994064,17.67873
1.3325e-008,-83.044777,42.273247
1.334e-008,-83.106857,66.904831
1.3355e-008,-83.180145,91.571838
1.337e-008,-83.264481,116.27222
1.3385e-008,-83.359741,141.00374
1.34e-008,-83.465797,165.76385
1.3415e-008,-83.582603,-169.45023
1.343e-008,-83.710121,-144.64159
1.3445e-008,-83.848389,-119.81348
1.346e-008,-83.997498,-94.969398
1.3475e-008,-84.157608,-70.112946
1.349e-008,-84.328964,-45.247902
1.3505e-008,-84.511879,-20.378115
1.352e-008,-84.706764,4.4925013
1.3535e-008,-84.914116,29.360029
1.355e-008,-85.134506,54.220528
1.3565e-008,-85.368645,79.070183
1.358e-008,-85.61731,103.90517
1.3595e-008,-85.881386,128.72186
1.361e-008,-86.161865,153.51659
1.3625e-008,-86.459854,178.28593
1.364e-008,-86.776581,-156.97353
1.3655e-008,-87.11338,-132.26509
1.367e-008,-87.47171,-107.5921
1.3685e-008,-87.853195,-82.957817
1.37e-008,-88.259605,-58.365704
1.3715e-008,-88.692879,-33.819328
1.373e-008,-89.155182,-9.3226662
1.3745e-008,-89.648895,15.119862
1.376e-008,-90.176697,39.503128
1.3775e-008,-90.741592,63.820969
1.379e-008,-91.347,88.06588
1.3805e-008,-91.996864,112.22849
1.382e-008,-92.695702,136.29671
1.3835e-008,-93.448853,160.25482
1.385e-008,-94.262611,-175.91808
1.3865e-008,-95.144547,-152.25032
1.388e-008,-96.103836,-128.78093
1.3895e-008,-97.151733,-105.56542
1.391e-008,-98.302162,-82.684303
1.3925e-008,-99.572456,-60.25819
1.394e-008,-100.98387,-38.47356
1.3955e-008,-102.56133,-17.630756
1.397e-008,-104.32944,1.7698402
1.3985e-008,-106.29599,18.874887
1.4e-008,-108.39523,32.281979
1.4015e-008,-110.33688,40.226307
1.403e-008,-111.4558,42.742664
1.4045e-008,-111.23547,44.883503
1.406e-008,-110.1039,52.189484
1.4075e-008,-108.75839,65.178307
1.409e-008,-107.53109,82.127289
1.4105e-008,-106.50525,101.56799
1.412e-008,-105.6788,122.59724
1.4135e-008,-105.02914,144.69026
1.415e-008,-104.53227,167.53737
1.4165e-008,-104.16766,-169.04729
1.418e-008,-103.91866,-145.17715
1.4195e-008,-103.77196,-120.92065
1.421e-008,-103.7168,-96.316223
1.4225e-008,-103.74426,-71.382042
