!CSV A.01.01
!Keysight Technologies,N5227B,US58420762,A.13.80.08
!Date: Tuesday, November 21, 2023 09:45:03
!Source: Standard

BEGIN CH1_DATA
Time(s),S21(DB),S21(DEG)
5e-009,-130.53697,149.43286
5.015e-009,-129.11942,168.54688
5.03e-009,-127.83839,-171.32576
5.045e-009,-126.69917,-150.52994
5.06e-009,-125.69373,-129.30493
5.075e-009,-124.81394,-107.81538
5.09e-009,-124.04929,-86.180733
5.105e-009,-123.39037,-64.480171
5.12e-009,-122.8278,-42.780235
5.135e-009,-122.35503,-21.130421
5.15e-009,-121.9642,0.42833313
5.165e-009,-121.64925,21.860786
5.18e-009,-121.40322,43.133526
5.195e-009,-121.22066,64.222687
5.21e-009,-121.09502,85.099457
5.225e-009,-121.02023,105.74583
5.24e-009,-120.98894,126.13984
5.255e-009,-120.99454,146.27222
5.27e-009,-121.02928,166.13351
5.285e-009,-121.08534,-174.2713
5.3e-009,-121.15517,-154.93303
5.315e-009,-121.23186,-135.82567
5.33e-009,-121.30904,-116.91843
5.345e-009,-121.38256,-98.167328
5.36e-009,-121.44962,-79.525551
5.375e-009,-121.51039,-60.9436
5.39e-009,-121.56717,-42.376568
5.405e-009,-121.62398,-23.784914
5.42e-009,-121.68674,-5.1475224
5.435e-009,-121.76226,13.549202
5.45e-009,-121.85757,32.298367
5.465e-009,-121.97942,51.080883
5.48e-009,-122.13334,69.860413
5.495e-009,-122.32449,88.592133
5.51e-009,-122.55473,107.21122
5.525e-009,-122.82476,125.65001
5.54e-009,-123.13103,143.826
5.555e-009,-123.4665,161.65588
5.57e-009,-123.81873,179.05795
5.585e-009,-124.16927,-164.02982
5.6e-009,-124.49267,-147.63419
5.615e-009,-124.76065,-131.71765
5.63e-009,-124.94401,-116.1571
5.645e-009,-125.02081,-100.74846
5.66e-009,-124.98192,-85.224022
5.675e-009,-124.83662,-69.313393
5.69e-009,-124.60691,-52.788219
5.705e-009,-124.32447,-35.509357
5.72e-009,-124.02065,-17.409542
5.735e-009,-123.72478,1.5109016
5.75e-009,-123.45975,21.21553
5.765e-009,-123.24282,41.654961
5.78e-009,-123.08656,62.776299
5.795e-009,-123.00007,84.540962
5.81e-009,-122.98875,106.92137
5.825e-009,-123.05668,129.90872
5.84e-009,-123.20438,153.51735
5.855e-009,-123.43211,177.78104
5.87e-009,-123.73486,-157.24042
5.885e-009,-124.10509,-131.46564
5.9e-009,-124.52626,-104.79258
5.915e-009,-124.97362,-77.113831
5.93e-009,-125.4085,-48.355156
5.945e-009,-125.7786,-18.523241
5.96e-009,-126.02483,12.217114
5.975e-009,-126.0951,43.507278
5.99e-009,-125.96576,74.82444
6.005e-009,-125.65042,105.63515
6.02e-009,-125.19473,135.53116
6.035e-009,-124.65543,164.30731
6.05e-009,-124.08495,-168.07419
6.065e-009,-123.52155,-141.5511
6.08e-009,-122.99082,-116.02233
6.095e-009,-122.50504,-91.375427
6.11e-009,-122.07011,-67.519249
6.125e-009,-121.68479,-44.373852
6.14e-009,-121.34414,-21.876364
6.155e-009,-121.03986,0.029594332
6.17e-009,-120.76202,21.39649
6.185e-009,-120.49895,42.281933
6.2e-009,-120.23891,62.750874
6.215e-009,-119.97048,82.885033
6.23e-009,-119.6846,102.77812
6.245e-009,-119.37501,122.53504
6.26e-009,-119.03951,142.26521
6.275e-009,-118.67957,162.07265
6.29e-009,-118.30058,-177.95
6.305e-009,-117.91044,-157.72971
6.32e-009,-117.5182,-137.21352
6.335e-009,-117.13355,-116.36797
6.35e-009,-116.76562,-95.176338
6.365e-009,-116.42249,-73.633064
6.38e-009,-116.1111,-51.742813
6.395e-009,-115.83698,-29.513767
6.41e-009,-115.60463,-6.955019
6.425e-009,-115.41714,15.923703
6.44e-009,-115.27711,39.115345
6.455e-009,-115.18582,62.61451
6.47e-009,-115.14413,86.4216
6.485e-009,-115.15182,110.53982
6.5e-009,-115.20824,134.97557
6.515e-009,-115.31153,159.74086
6.53e-009,-115.45879,-175.14961
6.545e-009,-115.64586,-149.67702
6.56e-009,-115.8672,-123.82587
6.575e-009,-116.115,-97.580185
6.59e-009,-116.37987,-70.931274
6.605e-009,-116.6501,-43.882011
6.62e-009,-116.9129,-16.45702
6.635e-009,-117.15377,11.296161
6.65e-009,-117.35981,39.297169
6.665e-009,-117.5203,67.439102
6.68e-009,-117.62873,95.587852
6.695e-009,-117.6848,123.60077
6.71e-009,-117.69275,151.34004
6.725e-009,-117.66273,178.68436
6.74e-009,-117.60617,-154.45816
6.755e-009,-117.53622,-128.15897
6.77e-009,-117.46501,-102.46033
6.785e-009,-117.4017,-77.387428
6.8e-009,-117.35312,-52.95351
6.815e-009,-117.32229,-29.164936
6.83e-009,-117.30907,-6.0219769
6.845e-009,-117.30981,16.477926
6.86e-009,-117.3175,38.345993
6.875e-009,-117.32207,59.608879
6.89e-009,-117.31107,80.308365
6.905e-009,-117.2717,100.51582
6.92e-009,-117.19128,120.32785
6.935e-009,-117.06131,139.86885
6.95e-009,-116.87708,159.28185
6.965e-009,-116.64061,178.71016
6.98e-009,-116.35875,-161.71596
6.995e-009,-116.04379,-141.88885
7.01e-009,-115.7095,-121.73663
7.025e-009,-115.37006,-101.21386
7.04e-009,-115.03914,-80.305237
7.055e-009,-114.72865,-59.009125
7.07e-009,-114.44862,-37.338005
7.085e-009,-114.20611,-15.311175
7.1e-009,-114.00763,7.0518107
7.115e-009,-113.85751,29.733702
7.13e-009,-113.75896,52.718052
7.145e-009,-113.71446,75.993912
7.16e-009,-113.72552,99.555824
7.175e-009,-113.79304,123.40489
7.19e-009,-113.91714,147.54726
7.205e-009,-114.09745,171.99522
7.22e-009,-114.33231,-163.23164
7.235e-009,-114.61946,-138.10614
7.25e-009,-114.95461,-112.5961
7.265e-009,-115.33145,-86.663551
7.28e-009,-115.74116,-60.269726
7.295e-009,-116.17126,-33.378407
7.31e-009,-116.60553,-5.967473
7.325e-009,-117.02376,21.959593
7.34e-009,-117.40304,50.356792
7.355e-009,-117.72028,79.128639
7.37e-009,-117.9559,108.11723
7.385e-009,-118.09845,137.12215
7.4e-009,-118.14701,165.9248
7.415e-009,-118.11118,-165.67612
7.43e-009,-118.00868,-137.83623
7.445e-009,-117.86037,-110.6538
7.46e-009,-117.68687,-84.171402
7.475e-009,-117.50565,-58.389442
7.49e-009,-117.33005,-33.280548
7.505e-009,-117.16924,-8.8026743
7.52e-009,-117.02882,15.096477
7.535e-009,-116.91142,38.470856
7.55e-009,-116.81777,61.378559
7.565e-009,-116.74746,83.87574
7.58e-009,-116.69956,106.02176
7.595e-009,-116.67289,127.87665
7.61e-009,-116.66779,149.50056
7.625e-009,-116.68498,170.95583
7.64e-009,-116.72738,-167.70021
7.655e-009,-116.79905,-146.41072
7.67e-009,-116.90668,-125.12449
7.685e-009,-117.05875,-103.79675
7.7e-009,-117.26577,-82.38958
7.715e-009,-117.54089,-60.869835
7.73e-009,-117.90037,-39.214195
7.745e-009,-118.36421,-17.399506
7.76e-009,-118.95828,4.5925598
7.775e-009,-119.71739,26.782028
7.79e-009,-120.69121,49.200924
7.805e-009,-121.95565,71.899895
7.82e-009,-123.63859,94.990341
7.835e-009,-125.98346,118.74557
7.85e-009,-129.56094,144.07127
7.865e-009,-136.32732,176.43335
7.88e-009,-143.31947,-40.924507
7.895e-009,-131.69887,14.369472
7.91e-009,-126.528,42.004505
7.925e-009,-123.22704,66.89595
7.94e-009,-120.8124,91.023628
7.955e-009,-118.9255,114.8631
7.97e-009,-117.3961,138.58482
7.985e-009,-116.13024,162.2661
8e-009,-115.07072,-174.05424
8.015e-009,-114.18031,-150.35512
8.03e-009,-113.43354,-126.62289
8.045e-009,-112.81241,-102.8465
8.06e-009,-112.30389,-79.018852
8.075e-009,-111.89844,-55.131939
8.09e-009,-111.58878,-31.177898
8.105e-009,-111.36974,-7.1471167
8.12e-009,-111.23747,16.971231
8.135e-009,-111.18919,41.191338
8.15e-009,-111.22306,65.529251
8.165e-009,-111.33788,90.00705
8.18e-009,-111.53299,114.65194
8.195e-009,-111.8079,139.49942
8.21e-009,-112.16216,164.59216
8.225e-009,-112.59476,-170.01187
8.24e-009,-113.1035,-144.24104
8.255e-009,-113.68392,-118.0067
8.27e-009,-114.32758,-91.198975
8.285e-009,-115.01926,-63.692547
8.3e-009,-115.73416,-35.357292
8.315e-009,-116.43397,-6.0896897
8.33e-009,-117.06577,24.132147
8.345e-009,-117.56679,55.174431
8.36e-009,-117.88008,86.690567
8.375e-009,-117.97511,118.15668
8.39e-009,-117.86152,149.0126
8.405e-009,-117.58305,178.82814
8.42e-009,-117.19743,-152.61543
8.435e-009,-116.75717,-125.3511
8.45e-009,-116.30088,-99.293518
8.465e-009,-115.85216,-74.30896
8.48e-009,-115.42291,-50.25177
8.495e-009,-115.017,-26.979719
8.51e-009,-114.63358,-4.3603902
8.525e-009,-114.2692,17.727888
8.54e-009,-113.92043,39.400826
8.555e-009,-113.58404,60.767128
8.57e-009,-113.25864,81.927757
8.585e-009,-112.94489,102.97346
8.6e-009,-112.64532,123.98669
8.615e-009,-112.36437,145.03442
8.63e-009,-112.10786,166.17081
8.645e-009,-111.88235,-172.56398
8.66e-009,-111.6953,-151.14293
8.675e-009,-111.55405,-129.54741
8.69e-009,-111.46635,-107.76888
8.705e-009,-111.43977,-85.804398
8.72e-009,-111.48214,-63.654625
8.735e-009,-111.60189,-41.324142
8.75e-009,-111.80777,-18.815784
8.765e-009,-112.11012,3.8664339
8.78e-009,-112.52109,26.721867
8.795e-009,-113.05545,49.754364
8.81e-009,-113.7325,72.973969
8.825e-009,-114.57795,96.402199
8.84e-009,-115.62806,120.08224
8.855e-009,-116.93629,144.09209
8.87e-009,-118.58706,168.59306
8.885e-009,-120.72517,-166.06964
8.9e-009,-123.6305,-138.98801
8.915e-009,-127.93243,-106.98569
8.93e-009,-134.7942,-51.397182
8.945e-009,-133.62646,54.086487
8.96e-009,-127.58553,101.81641
8.975e-009,-123.98633,132.61148
8.99e-009,-121.64756,159.5331
9.005e-009,-120.04041,-174.95712
9.02e-009,-118.93008,-150.10321
9.035e-009,-118.20017,-125.60591
9.05e-009,-117.79091,-101.32157
9.065e-009,-117.67609,-77.177849
9.08e-009,-117.85417,-53.13501
9.095e-009,-118.34763,-29.176653
9.11e-009,-119.21104,-5.304203
9.125e-009,-120.55243,18.4562
9.14e-009,-122.59294,42.019512
9.155e-009,-125.86158,65.103569
9.17e-009,-132.21066,86.062691
9.185e-009,-145.46397,-36.797642
9.2e-009,-128.87981,-36.394459
9.215e-009,-123.29272,-14.32322
9.23e-009,-119.86578,8.9305878
9.245e-009,-117.42564,32.509815
9.26e-009,-115.57396,56.21909
9.275e-009,-114.12772,79.989357
9.29e-009,-112.98872,103.78836
9.305e-009,-112.09935,127.59725
9.32e-009,-111.42439,151.40164
9.335e-009,-110.94242,175.19083
9.35e-009,-110.6413,-161.04796
9.365e-009,-110.51626,-137.32912
9.38e-009,-110.56894,-113.67186
9.395e-009,-110.80759,-90.103058
9.41e-009,-111.24818,-66.662323
9.425e-009,-111.91706,-43.413197
9.44e-009,-112.85586,-20.460941
9.455e-009,-114.13114,2.0014634
9.47e-009,-115.85379,23.583817
9.485e-009,-118.22057,43.368374
9.5e-009,-121.6007,58.672707
9.515e-009,-126.4177,59.018082
9.53e-009,-128.26509,23.085527
9.545e-009,-123.57441,10.008693
9.56e-009,-119.8674,21.753904
9.575e-009,-117.42406,40.500679
9.59e-009,-115.81194,61.837624
9.605e-009,-114.81349,84.43766
9.62e-009,-114.33959,107.81274
9.635e-009,-114.38564,131.79771
9.65e-009,-115.03266,156.43945
9.665e-009,-116.50486,-177.88615
9.68e-009,-119.39457,-149.71371
9.695e-009,-125.73598,-109.36397
9.71e-009,-127.8106,25.151785
9.725e-009,-117.92741,77.269745
9.74e-009,-112.56539,107.08251
9.755e-009,-108.85803,133.68279
9.77e-009,-105.99765,159.28899
9.785e-009,-103.66579,-175.50941
9.8e-009,-101.70498,-150.48692
9.815e-009,-100.02617,-125.53511
9.83e-009,-98.574516,-100.59197
9.845e-009,-97.314308,-75.614967
9.86e-009,-96.221596,-50.569332
9.875e-009,-95.280159,-25.422112
9.89e-009,-94.479301,-0.13732941
9.905e-009,-93.812477,25.327429
9.92e-009,-93.276428,51.025761
9.935e-009,-92.870712,77.028679
9.95e-009,-92.597168,103.43275
9.965e-009,-92.459198,130.37344
9.98e-009,-92.460297,158.04486
9.995e-009,-92.600594,-173.27148
1.001e-008,-92.868866,-143.1691
1.0025e-008,-93.224846,-111.08997
1.004e-008,-93.566071,-76.38797
1.0055e-008,-93.689171,-38.68618
1.007e-008,-93.317924,1.342338
1.0085e-008,-92.289322,41.587734
1.01e-008,-90.720161,79.777214
1.0115e-008,-88.881134,114.98103
1.013e-008,-86.990417,147.45866
1.0145e-008,-85.161888,177.84749
1.016e-008,-83.439774,-153.27031
1.0175e-008,-81.834473,-125.46372
1.019e-008,-80.3424,-98.433151
1.0205e-008,-78.955109,-71.97274
1.022e-008,-77.663101,-45.939766
1.0235e-008,-76.457352,-20.233654
1.025e-008,-75.329758,5.2178807
1.0265e-008,-74.273277,30.467781
1.028e-008,-73.281837,55.555511
1.0295e-008,-72.350197,80.511032
1.031e-008,-71.473869,105.35744
1.0325e-008,-70.648979,130.11275
1.034e-008,-69.872147,154.79126
1.0355e-008,-69.140465,179.40442
1.037e-008,-68.451378,-156.03851
1.0385e-008,-67.802635,-131.52994
1.04e-008,-67.192268,-107.06358
1.0415e-008,-66.61853,-82.634247
1.043e-008,-66.079872,-58.237534
1.0445e-008,-65.574913,-33.869747
1.046e-008,-65.102425,-9.5277214
1.0475e-008,-64.661308,14.791243
1.049e-008,-64.250565,39.0895
1.0505e-008,-63.869324,63.369083
1.052e-008,-63.516785,87.631752
1.0535e-008,-63.192234,111.87912
1.055e-008,-62.895027,136.11255
1.0565e-008,-62.624592,160.33328
1.058e-008,-62.380413,-175.45752
1.0595e-008,-62.162025,-151.25885
1.061e-008,-61.969021,-127.06977
1.0625e-008,-61.801033,-102.8894
1.064e-008,-61.657734,-78.716919
1.0655e-008,-61.538849,-54.551548
1.067e-008,-61.44413,-30.392536
1.0685e-008,-61.373367,-6.2391548
1.07e-008,-61.326382,17.909321
1.0715e-008,-61.303036,42.053612
1.073e-008,-61.303211,66.194466
1.0745e-008,-61.32682,90.332642
1.076e-008,-61.373814,114.46892
1.0775e-008,-61.444157,138.60414
1.079e-008,-61.537857,162.73921
1.0805e-008,-61.65493,-173.12492
1.082e-008,-61.795433,-148.98718
1.0835e-008,-61.959438,-124.84642
1.085e-008,-62.147049,-100.70137
1.0865e-008,-62.358391,-76.550621
1.088e-008,-62.59362,-52.392567
1.0895e-008,-62.852905,-28.225441
1.091e-008,-63.136444,-4.0472078
1.0925e-008,-63.444469,20.144403
1.094e-008,-63.77721,44.351986
1.0955e-008,-64.134933,68.578506
1.097e-008,-64.517929,92.827339
1.0985e-008,-64.926483,117.10238
1.1e-008,-65.360909,141.40805
1.1015e-008,-65.82151,165.74954
1.103e-008,-66.308601,-169.86726
1.1045e-008,-66.822479,-145.43555
1.106e-008,-67.363396,-120.94734
1.1075e-008,-67.931572,-96.393532
1.109e-008,-68.527138,-71.763519
1.1105e-008,-69.150108,-47.045055
1.112e-008,-69.800339,-22.223999
1.1135e-008,-70.477432,2.7159054
1.115e-008,-71.180672,27.793274
1.1165e-008,-71.908905,53.02924
1.118e-008,-72.660378,78.447456
1.1195e-008,-73.432533,104.07401
1.121e-008,-74.221817,129.9368
1.1225e-008,-75.023369,156.0645
1.124e-008,-75.830772,-177.51538
1.1255e-008,-76.635788,-150.7795
1.127e-008,-77.428238,-123.71297
1.1285e-008,-78.196136,-96.314835
1.13e-008,-78.926178,-68.604156
1.1315e-008,-79.604744,-40.625198
1.133e-008,-80.219437,-12.450109
1.1345e-008,-80.760818,15.82367
1.136e-008,-81.223961,44.081509
1.1375e-008,-81.609299,72.204582
1.139e-008,-81.922462,100.08403
1.1405e-008,-82.173134,127.63262
1.142e-008,-82.373322,154.79076
1.1435e-008,-82.535736,-178.47289
1.145e-008,-82.672379,-152.16522
1.1465e-008,-82.7938,-126.27449
1.148e-008,-82.908691,-100.77635
1.1495e-008,-83.023933,-75.638817
1.151e-008,-83.14476,-50.826385
1.1525e-008,-83.275032,-26.302494
1.154e-008,-83.417526,-2.0313146
1.1555e-008,-83.574203,22.021317
1.157e-008,-83.746414,45.88744
1.1585e-008,-83.935097,69.596756
1.16e-008,-84.140877,93.176628
1.1615e-008,-84.364189,116.65216
1.163e-008,-84.605339,140.04634
1.1645e-008,-84.86454,163.38025
1.166e-008,-85.141945,-173.32687
1.1675e-008,-85.437645,-150.05737
1.169e-008,-85.751656,-126.79509
1.1705e-008,-86.083939,-103.52515
1.172e-008,-86.434326,-80.233963
1.1735e-008,-86.802559,-56.908878
1.175e-008,-87.188179,-33.538429
1.1765e-008,-87.590553,-10.11186
1.178e-008,-88.008812,13.380533
1.1795e-008,-88.441788,36.947525
1.181e-008,-88.887993,60.596947
1.1825e-008,-89.345596,84.335304
1.184e-008,-89.812355,108.16772
1.1855e-008,-90.285606,132.09749
1.187e-008,-90.762253,156.12561
1.1885e-008,-91.238823,-179.74971
1.19e-008,-91.711433,-155.53346
1.1915e-008,-92.175957,-131.2347
1.193e-008,-92.628098,-106.86661
1.1945e-008,-93.063583,-82.446953
1.196e-008,-93.478355,-57.99791
1.1975e-008,-93.868782,-33.545437
1.199e-008,-94.231857,-9.118556
1.2005e-008,-94.565392,15.252215
1.202e-008,-94.868095,39.53616
1.2035e-008,-95.139641,63.704575
1.205e-008,-95.380638,87.731789
1.2065e-008,-95.592522,111.59682
1.208e-008,-95.777382,135.28415
1.2095e-008,-95.937874,158.78392
1.211e-008,-96.07695,-177.908
1.2125e-008,-96.1978,-154.79091
1.214e-008,-96.303673,-131.85954
1.2155e-008,-96.397812,-109.10568
1.217e-008,-96.483376,-86.51857
1.2185e-008,-96.563393,-64.086258
1.22e-008,-96.640678,-41.796192
1.2215e-008,-96.717926,-19.63611
1.223e-008,-96.797554,2.4055669
1.2245e-008,-96.881813,24.339214
1.226e-008,-96.972626,46.173973
1.2275e-008,-97.07177,67.917381
1.229e-008,-97.180664,89.575661
1.2305e-008,-97.300522,111.15329
1.232e-008,-97.432266,132.65393
1.2335e-008,-97.576561,154.07977
1.235e-008,-97.733803,175.4323
1.2365e-008,-97.904083,-163.28792
1.238e-008,-98.087341,-142.08005
1.2395e-008,-98.283211,-120.94427
1.241e-008,-98.491127,-99.88028
1.2425e-008,-98.710381,-78.887604
1.244e-008,-98.940048,-57.965328
1.2455e-008,-99.179115,-37.112411
1.247e-008,-99.426498,-16.32695
1.2485e-008,-99.681,4.3931804
1.25e-008,-99.941475,25.050743
1.2515e-008,-100.20667,45.648155
1.253e-008,-100.47546,66.188301
1.2545e-008,-100.74656,86.673172
1.256e-008,-101.01884,107.10418
1.2575e-008,-101.29103,127.48135
1.259e-008,-101.56171,147.80363
1.2605e-008,-101.82922,168.06824
1.262e-008,-102.09171,-171.72958
1.2635e-008,-102.34672,-151.59526
1.265e-008,-102.59134,-131.53572
1.2665e-008,-102.82197,-111.55708
1.268e-008,-103.03425,-91.664803
1.2695e-008,-103.22308,-71.860794
1.271e-008,-103.38272,-52.141956
1.2725e-008,-103.50705,-32.498009
1.274e-008,-103.58984,-12.910717
1.2755e-008,-103.62523,6.6487322
1.277e-008,-103.6084,26.217922
1.2785e-008,-103.53619,45.842648
1.28e-008,-103.40724,65.571777
1.2815e-008,-103.22248,85.45575
1.283e-008,-102.98501,105.54046
1.2845e-008,-102.69981,125.86395
1.286e-008,-102.37309,146.45377
1.2875e-008,-102.012,167.32684
1.289e-008,-101.6239,-171.51083
1.2905e-008,-101.21597,-150.06296
1.292e-008,-100.79495,-128.33983
1.2935e-008,-100.36694,-106.35749
1.295e-008,-99.937363,-84.135201
1.2965e-008,-99.510887,-61.693901
1.298e-008,-99.091515,-39.054657
1.2995e-008,-98.682693,-16.238602
1.301e-008,-98.287262,6.7349777
1.3025e-008,-97.907677,29.847555
1.304e-008,-97.545982,53.082909
1.3055e-008,-97.203873,76.426392
1.307e-008,-96.88279,99.865013
1.3085e-008,-96.583961,123.3875
1.31e-008,-96.30838,146.98451
1.3115e-008,-96.056908,170.64772
1.313e-008,-95.830261,-165.62956
1.3145e-008,-95.629028,-141.85287
1.316e-008,-95.453735,-118.02666
1.3175e-008,-95.304764,-94.154121
1.319e-008,-95.182472,-70.23777
1.3205e-008,-95.087128,-46.27916
1.322e-008,-95.018974,-22.278925
1.3235e-008,-94.978157,1.7629689
1.325e-008,-94.964844,25.847399
1.3265e-008,-94.979088,49.975887
1.328e-008,-95.020958,74.150726
1.3295e-008,-95.090446,98.375107
1.331e-008,-95.187508,122.65278
1.3325e-008,-95.312057,146.9884
1.334e-008,-95.463921,171.3875
1.3355e-008,-95.642876,-164.14362
1.337e-008,-95.848602,-139.5975
1.3385e-008,-96.080658,-114.96583
1.34e-008,-96.338501,-90.239243
1.3415e-008,-96.621376,-65.407166
1.343e-008,-96.928352,-40.457989
1.3445e-008,-97.258217,-15.379073
1.346e-008,-97.609459,9.8433409
1.3475e-008,-97.980156,35.22361
1.349e-008,-98.367981,60.776794
1.3505e-008,-98.770012,86.517746
1.352e-008,-99.182762,112.46062
1.3535e-008,-99.602058,138.618
1.355e-008,-100.02303,164.9993
1.3565e-008,-100.44017,-168.39058
1.358e-008,-100.84742,-141.55281
1.3595e-008,-101.23833,-114.49675
1.361e-008,-101.60654,-87.240555
1.3625e-008,-101.94601,-59.812908
1.364e-008,-102.25165,-32.251694
1.3655e-008,-102.51983,-4.6026087
1.367e-008,-102.74863,23.083622
1.3685e-008,-102.93814,50.755238
1.37e-008,-103.09038,78.363152
1.3715e-008,-103.20901,105.86497
1.373e-008,-103.299,133.22716
1.3745e-008,-103.36597,160.42673
1.376e-008,-103.41581,-172.54984
1.3775e-008,-103.45433,-145.70627
1.379e-008,-103.48677,-119.0388
1.3805e-008,-103.51783,-92.538109
1.382e-008,-103.55141,-66.190453
1.3835e-008,-103.59072,-39.979786
1.385e-008,-103.63825,-13.888735
1.3865e-008,-103.69584,12.100608
1.388e-008,-103.76472,38.004986
1.3895e-008,-103.84563,63.840679
1.391e-008,-103.93888,89.622108
1.3925e-008,-104.04443,115.36146
1.394e-008,-104.1619,141.06932
1.3955e-008,-104.29063,166.75378
1.397e-008,-104.42985,-167.58023
1.3985e-008,-104.57863,-141.92941
1.4e-008,-104.73595,-116.29407
1.4015e-008,-104.90087,-90.676979
1.403e-008,-105.07243,-65.08342
1.4045e-008,-105.24982,-39.521233
1.406e-008,-105.43247,-14.000891
1.4075e-008,-105.61991,11.465466
1.409e-008,-105.81208,36.86375
1.4105e-008,-106.0091,62.17897
1.412e-008,-106.21141,87.394745
1.4135e-008,-106.41977,112.49505
1.415e-008,-106.63508,137.46318
1.4165e-008,-106.85857,162.28311
1.418e-008,-107.09156,-173.06035
1.4195e-008,-107.3354,-148.582
1.421e-008,-107.59145,-124.29599
1.4225e-008,-107.86117,-100.21452
1.424e-008,-108.14571,-76.349136
