!CSV A.01.01
!Keysight Technologies,N5227B,US58420762,A.13.80.08
!Date: Monday, November 20, 2023 16:53:46
!Source: Standard

BEGIN CH1_DATA
Time(s),S21(DB),S21(DEG)
5e-009,-115.28544,-131.81203
5.015e-009,-113.70498,-106.54008
5.03e-009,-112.53033,-81.351883
5.045e-009,-111.66428,-56.179726
5.06e-009,-111.05067,-30.981213
5.075e-009,-110.65659,-5.7173858
5.09e-009,-110.46319,19.646385
5.105e-009,-110.46213,45.158894
5.12e-009,-110.65349,70.879745
5.135e-009,-111.04552,96.896881
5.15e-009,-111.65516,123.34542
5.165e-009,-112.51015,150.4445
5.18e-009,-113.6517,178.56778
5.195e-009,-115.13501,-151.58331
5.21e-009,-117.0101,-118.6176
5.225e-009,-119.20729,-79.728073
5.24e-009,-121.06381,-30.908798
5.255e-009,-120.99854,24.750959
5.27e-009,-119.01635,73.526131
5.285e-009,-116.69766,112.37004
5.3e-009,-114.70343,145.29565
5.315e-009,-113.1024,175.09947
5.33e-009,-111.84503,-156.82732
5.345e-009,-110.87676,-129.7941
5.36e-009,-110.15765,-103.42471
5.375e-009,-109.66072,-77.505669
5.39e-009,-109.37019,-51.907269
5.405e-009,-109.28,-26.550756
5.42e-009,-109.39236,-1.386091
5.435e-009,-109.71957,23.617702
5.45e-009,-110.28593,48.467911
5.465e-009,-111.13427,73.156944
5.48e-009,-112.33746,97.645599
5.495e-009,-114.02744,121.82122
5.51e-009,-116.46825,145.39409
5.525e-009,-120.31046,167.32442
5.54e-009,-128.00465,-179.68706
5.555e-009,-131.30704,74.836678
5.57e-009,-121.18174,78.729279
5.585e-009,-116.49448,99.805252
5.6e-009,-113.50271,123.11523
5.615e-009,-111.36079,147.15414
5.63e-009,-109.74722,171.53539
5.645e-009,-108.50765,-163.88069
5.66e-009,-107.55697,-139.1489
5.675e-009,-106.84504,-114.29205
5.69e-009,-106.34118,-89.313225
5.705e-009,-106.02766,-64.201859
5.72e-009,-105.89507,-38.935944
5.735e-009,-105.94186,-13.477086
5.75e-009,-106.17291,12.231008
5.765e-009,-106.60035,38.277966
5.78e-009,-107.24493,64.804237
5.795e-009,-108.13807,92.045296
5.81e-009,-109.3253,120.41475
5.825e-009,-110.86497,150.69434
5.84e-009,-112.80372,-175.5424
5.855e-009,-115.02563,-135.14818
5.87e-009,-116.68786,-84.272675
5.885e-009,-116.19739,-28.462511
5.9e-009,-114.02848,18.731773
5.915e-009,-111.7213,56.504345
5.93e-009,-109.78205,88.981804
5.945e-009,-108.23795,118.69414
5.96e-009,-107.03368,146.88408
5.975e-009,-106.11691,174.18642
5.99e-009,-105.45029,-159.04384
6.005e-009,-105.00985,-132.59129
6.02e-009,-104.78267,-106.30659
6.035e-009,-104.7653,-80.071907
6.05e-009,-104.96342,-53.776066
6.065e-009,-105.39281,-27.292948
6.08e-009,-106.08226,-0.44962886
6.095e-009,-107.07824,27.027832
6.11e-009,-108.45499,55.636517
6.125e-009,-110.32481,86.403152
6.14e-009,-112.82496,121.76117
6.155e-009,-115.81693,167.80354
6.17e-009,-117.26124,-128.75728
6.185e-009,-114.96053,-68.813828
6.2e-009,-111.85965,-25.951992
6.215e-009,-109.37068,8.1583204
6.23e-009,-107.50067,38.53241
6.245e-009,-106.11844,67.169472
6.26e-009,-105.12987,94.966362
6.275e-009,-104.47913,122.41251
6.29e-009,-104.13777,149.84741
6.305e-009,-104.09807,177.589
6.32e-009,-104.36799,-153.97154
6.335e-009,-104.96666,-124.24007
6.35e-009,-105.90608,-92.200935
6.365e-009,-107.12342,-56.072529
6.38e-009,-108.26112,-13.373467
6.395e-009,-108.40126,35.871666
6.41e-009,-106.93766,84.208054
6.425e-009,-104.64239,125.21535
6.44e-009,-102.35088,159.67175
6.455e-009,-100.34581,-170.0112
6.47e-009,-98.663033,-142.26425
6.485e-009,-97.278488,-116.25992
6.5e-009,-96.162216,-91.597237
6.515e-009,-95.289513,-68.128075
6.53e-009,-94.640739,-45.87991
6.545e-009,-94.195923,-25.03693
6.56e-009,-93.924057,-5.9456992
6.575e-009,-93.762062,10.893785
6.59e-009,-93.581055,24.951616
6.605e-009,-93.159843,36.110733
6.62e-009,-92.245415,45.381248
6.635e-009,-90.740372,54.915512
6.65e-009,-88.797173,66.619598
6.665e-009,-86.663177,81.099144
6.68e-009,-84.520363,98.023064
6.695e-009,-82.460342,116.80729
6.71e-009,-80.517426,136.93701
6.725e-009,-78.698235,158.03214
6.74e-009,-76.997894,179.82651
6.755e-009,-75.407509,-157.86424
6.77e-009,-73.917397,-135.16879
6.785e-009,-72.518379,-112.1784
6.8e-009,-71.202187,-88.958878
6.815e-009,-69.961601,-65.55851
6.83e-009,-68.790298,-42.013355
6.845e-009,-67.682823,-18.350739
6.86e-009,-66.63443,5.4083319
6.875e-009,-65.640999,29.247478
6.89e-009,-64.698921,53.153797
6.905e-009,-63.805031,77.117027
6.92e-009,-62.956539,101.12888
6.935e-009,-62.150974,125.18267
6.95e-009,-61.386147,149.27292
6.965e-009,-60.660095,173.39511
6.98e-009,-59.971073,-162.45448
6.995e-009,-59.317493,-138.27893
7.01e-009,-58.697945,-114.08085
7.025e-009,-58.11113,-89.862366
7.04e-009,-57.555893,-65.625328
7.055e-009,-57.03117,-41.371227
7.07e-009,-56.535988,-17.101345
7.085e-009,-56.069462,7.1832552
7.1e-009,-55.630787,31.481701
7.115e-009,-55.219219,55.793259
7.13e-009,-54.834068,80.117332
7.145e-009,-54.474709,104.45347
7.16e-009,-54.140553,128.80128
7.175e-009,-53.83107,153.16051
7.19e-009,-53.545757,177.53094
7.205e-009,-53.284153,-158.08749
7.22e-009,-53.045826,-133.69485
7.235e-009,-52.830372,-109.2911
7.25e-009,-52.637424,-84.876144
7.265e-009,-52.466629,-60.449844
7.28e-009,-52.317654,-36.011963
7.295e-009,-52.190189,-11.562258
7.31e-009,-52.083946,12.899609
7.325e-009,-51.998642,37.374001
7.34e-009,-51.934006,61.861359
7.355e-009,-51.88979,86.362144
7.37e-009,-51.865738,110.8769
7.385e-009,-51.861614,135.40619
7.4e-009,-51.877174,159.95067
7.415e-009,-51.912189,-175.48898
7.43e-009,-51.966419,-150.91206
7.445e-009,-52.039623,-126.31775
7.46e-009,-52.131557,-101.70525
7.475e-009,-52.24197,-77.073685
7.49e-009,-52.370598,-52.422153
7.505e-009,-52.517166,-27.749697
7.52e-009,-52.681377,-3.055351
7.535e-009,-52.862919,21.661892
7.55e-009,-53.061462,46.40303
7.565e-009,-53.276634,71.169083
7.58e-009,-53.508053,95.961044
7.595e-009,-53.755287,120.77989
7.61e-009,-54.017876,145.62653
7.625e-009,-54.295319,170.50182
7.64e-009,-54.587067,-164.59352
7.655e-009,-54.892532,-139.65886
7.67e-009,-55.211071,-114.69376
7.685e-009,-55.541992,-89.698044
7.7e-009,-55.884563,-64.671707
7.715e-009,-56.237984,-39.615101
7.73e-009,-56.601425,-14.528905
7.745e-009,-56.973999,10.585782
7.76e-009,-57.354786,35.727421
7.775e-009,-57.742832,60.893997
7.79e-009,-58.137177,86.082947
7.805e-009,-58.536819,111.29116
7.82e-009,-58.9408,136.515
7.835e-009,-59.348148,161.7502
7.85e-009,-59.757957,-173.00792
7.865e-009,-60.169357,-147.7646
7.88e-009,-60.581558,-122.52543
7.895e-009,-60.993858,-97.296333
7.91e-009,-61.405678,-72.083344
7.925e-009,-61.816536,-46.89257
7.94e-009,-62.226097,-21.729958
7.955e-009,-62.634159,3.3988309
7.97e-009,-63.040676,28.488594
7.985e-009,-63.445732,53.534798
8e-009,-63.84956,78.533646
8.015e-009,-64.252533,103.48226
8.03e-009,-64.655151,128.3788
8.045e-009,-65.058029,153.2225
8.06e-009,-65.461906,178.01376
8.075e-009,-65.867607,-157.24586
8.09e-009,-66.27607,-132.55359
8.105e-009,-66.688293,-107.90552
8.12e-009,-67.105362,-83.296562
8.135e-009,-67.528427,-58.72057
8.15e-009,-67.958679,-34.170307
8.165e-009,-68.397377,-9.6375351
8.18e-009,-68.84581,14.886992
8.195e-009,-69.30529,39.413464
8.21e-009,-69.777161,63.95311
8.225e-009,-70.262756,88.518158
8.24e-009,-70.763374,113.12193
8.255e-009,-71.280304,137.77888
8.27e-009,-71.81472,162.5049
8.285e-009,-72.367691,-172.68274
8.3e-009,-72.940086,-147.76505
8.315e-009,-73.532532,-122.72111
8.33e-009,-74.145279,-97.528015
8.345e-009,-74.778069,-72.160561
8.36e-009,-75.430008,-46.591457
8.375e-009,-76.099297,-20.79138
8.39e-009,-76.782997,5.270195
8.405e-009,-77.476746,31.623547
8.42e-009,-78.174461,58.296738
8.435e-009,-78.86808,85.311653
8.45e-009,-79.547478,112.67933
8.465e-009,-80.200699,140.39372
8.48e-009,-80.814606,168.42529
8.495e-009,-81.376137,-163.28433
8.51e-009,-81.874008,-134.82346
8.525e-009,-82.30056,-106.30603
8.54e-009,-82.653229,-77.861099
8.555e-009,-82.935089,-49.618198
8.57e-009,-83.154228,-21.692533
8.585e-009,-83.322227,5.8250871
8.6e-009,-83.452286,32.872768
8.615e-009,-83.557457,59.415886
8.63e-009,-83.649406,85.4422
8.645e-009,-83.737686,110.95518
8.66e-009,-83.829514,135.96867
8.675e-009,-83.929794,160.50188
8.69e-009,-84.041344,-175.42332
8.705e-009,-84.165115,-151.78424
8.72e-009,-84.300514,-128.55765
8.735e-009,-84.445671,-105.71989
8.75e-009,-84.597656,-83.245796
8.765e-009,-84.7528,-61.107735
8.78e-009,-84.907028,-39.274738
8.795e-009,-85.056114,-17.711487
8.81e-009,-85.196083,3.621964
8.825e-009,-85.323524,24.769716
8.84e-009,-85.435951,45.779442
8.855e-009,-85.531975,66.700096
8.87e-009,-85.611496,87.580574
8.885e-009,-85.675583,108.46674
8.9e-009,-85.726448,129.39998
8.915e-009,-85.767136,150.41547
8.93e-009,-85.801277,171.54137
8.945e-009,-85.832748,-167.20132
8.96e-009,-85.865501,-145.79828
8.975e-009,-85.903236,-124.24121
8.99e-009,-85.949364,-102.5267
9.005e-009,-86.006821,-80.654999
9.02e-009,-86.078072,-58.629436
9.035e-009,-86.165123,-36.455013
9.05e-009,-86.269516,-14.137878
9.065e-009,-86.392311,8.3153925
9.08e-009,-86.534256,30.898035
9.095e-009,-86.69574,53.603745
9.11e-009,-86.876839,76.426689
9.125e-009,-87.077393,99.36174
9.14e-009,-87.29705,122.40483
9.155e-009,-87.535316,145.55247
9.17e-009,-87.791527,168.80234
9.185e-009,-88.064972,-167.84715
9.2e-009,-88.354897,-144.39661
9.215e-009,-88.660545,-120.8457
9.23e-009,-88.981133,-97.193481
9.245e-009,-89.316048,-73.438156
9.26e-009,-89.664711,-49.577003
9.275e-009,-90.026749,-25.607214
9.29e-009,-90.401985,-1.5247681
9.305e-009,-90.790459,22.67482
9.32e-009,-91.192505,46.996727
9.335e-009,-91.608841,71.447334
9.35e-009,-92.040504,96.033875
9.365e-009,-92.488968,120.76527
9.38e-009,-92.9562,145.65236
9.395e-009,-93.444633,170.70927
9.41e-009,-93.957153,-164.04698
9.425e-009,-94.497269,-138.59268
9.44e-009,-95.068878,-112.89862
9.455e-009,-95.676369,-86.923988
9.47e-009,-96.324272,-60.615982
9.485e-009,-97.017204,-33.903378
9.5e-009,-97.758713,-6.6901817
9.515e-009,-98.550407,21.152084
9.53e-009,-99.38913,49.792141
9.545e-009,-100.26313,79.446892
9.56e-009,-101.14445,110.37019
9.575e-009,-101.97965,142.81078
9.59e-009,-102.6823,176.89023
9.605e-009,-103.14082,-147.58948
9.62e-009,-103.25838,-111.30182
9.635e-009,-103.00945,-75.253983
9.65e-009,-102.45862,-40.353661
9.665e-009,-101.71853,-7.0645375
9.68e-009,-100.89579,24.578306
9.695e-009,-100.06485,54.773434
9.71e-009,-99.269753,83.782501
9.725e-009,-98.53302,111.84853
9.74e-009,-97.86454,139.16995
9.755e-009,-97.267365,165.89963
9.77e-009,-96.741104,-167.84666
9.785e-009,-96.28363,-141.98206
9.8e-009,-95.892319,-116.44161
9.815e-009,-95.564293,-91.176666
9.83e-009,-95.296844,-66.150963
9.845e-009,-95.087402,-41.33757
9.86e-009,-94.933647,-16.716509
9.875e-009,-94.83345,7.7260652
9.89e-009,-94.784874,31.999846
9.905e-009,-94.786026,56.110527
9.92e-009,-94.835243,80.060684
9.935e-009,-94.930656,103.85027
9.95e-009,-95.070518,127.47722
9.965e-009,-95.252846,150.9371
9.98e-009,-95.475426,174.22467
9.995e-009,-95.735733,-162.66702
1.001e-008,-96.030846,-139.74471
1.0025e-008,-96.357292,-117.01482
1.004e-008,-96.711098,-94.482483
1.0055e-008,-97.087471,-72.149193
1.007e-008,-97.481117,-50.013348
1.0085e-008,-97.886024,-28.065073
1.01e-008,-98.29583,-6.2877631
1.0115e-008,-98.703949,15.346724
1.013e-008,-99.104088,36.877125
1.0145e-008,-99.490631,58.353989
1.016e-008,-99.859322,79.837227
1.0175e-008,-100.20739,101.39582
1.019e-008,-100.53409,123.10177
1.0205e-008,-100.8404,145.0274
1.022e-008,-101.12894,167.23886
1.0235e-008,-101.40333,-170.20201
1.025e-008,-101.66765,-147.24695
1.0265e-008,-101.92578,-123.85616
1.028e-008,-102.18075,-99.999992
1.0295e-008,-102.43437,-75.66111
1.031e-008,-102.68697,-50.831657
1.0325e-008,-102.93725,-25.514462
1.034e-008,-103.1824,0.27424592
1.0355e-008,-103.41848,26.50687
1.037e-008,-103.64095,53.138798
1.0385e-008,-103.84554,80.11158
1.04e-008,-104.02881,107.35106
1.0415e-008,-104.18965,134.77216
1.043e-008,-104.3292,162.28383
1.0445e-008,-104.45179,-170.20419
1.046e-008,-104.56431,-142.77902
1.0475e-008,-104.67619,-115.51482
1.049e-008,-104.79839,-88.47493
1.0505e-008,-104.94317,-61.710609
1.052e-008,-105.12294,-35.264351
1.0535e-008,-105.35065,-9.1720076
1.055e-008,-105.63923,16.526966
1.0565e-008,-106.00189,41.788578
1.058e-008,-106.45222,66.549194
1.0595e-008,-107.00487,90.717659
1.061e-008,-107.6747,114.1543
1.0625e-008,-108.47628,136.64342
1.064e-008,-109.41973,157.84811
1.0655e-008,-110.50074,177.24527
1.067e-008,-111.67233,-165.93082
1.0685e-008,-112.78853,-152.59094
1.07e-008,-113.53899,-143.10771
1.0715e-008,-113.54574,-135.9247
1.073e-008,-112.72772,-127.6306
1.0745e-008,-111.40543,-115.84248
1.076e-008,-109.93933,-100.42348
1.0775e-008,-108.52785,-82.226303
1.079e-008,-107.24411,-62.104507
1.0805e-008,-106.10339,-40.671307
1.082e-008,-105.09986,-18.328644
1.0835e-008,-104.22092,4.6596293
1.085e-008,-103.45365,28.118412
1.0865e-008,-102.78607,51.928715
1.088e-008,-102.20787,76.008904
1.0895e-008,-101.71035,100.30103
1.091e-008,-101.28604,124.76007
1.0925e-008,-100.92867,149.35425
1.094e-008,-100.63303,174.05771
1.0955e-008,-100.39435,-161.15033
1.097e-008,-100.20876,-136.28719
1.0985e-008,-100.07296,-111.36736
1.1e-008,-99.98391,-86.406471
1.1015e-008,-99.939079,-61.416275
1.103e-008,-99.936371,-36.409958
1.1045e-008,-99.973694,-11.401734
1.106e-008,-100.04978,13.595773
1.1075e-008,-100.16299,38.567982
1.109e-008,-100.31242,63.498795
1.1105e-008,-100.49706,88.372643
1.112e-008,-100.71686,113.1701
1.1135e-008,-100.9708,137.87303
1.115e-008,-101.25925,162.45773
1.1165e-008,-101.58195,-173.09875
1.118e-008,-101.93929,-148.82358
1.1195e-008,-102.33149,-124.745
1.121e-008,-102.75864,-100.89736
1.1225e-008,-103.22112,-77.317917
1.124e-008,-103.71871,-54.047424
1.1255e-008,-104.25075,-31.133413
1.127e-008,-104.81539,-8.6298771
1.1285e-008,-105.41048,13.404221
1.13e-008,-106.03072,34.905014
1.1315e-008,-106.66882,55.802174
1.133e-008,-107.31403,76.028
1.1345e-008,-107.95113,95.525528
1.136e-008,-108.55976,114.25487
1.1375e-008,-109.11601,132.21632
1.139e-008,-109.59403,149.46892
1.1405e-008,-109.96901,166.13451
1.142e-008,-110.22406,-177.60236
1.1435e-008,-110.35278,-161.52708
1.145e-008,-110.36134,-145.42505
1.1465e-008,-110.26585,-129.13211
1.148e-008,-110.08723,-112.53439
1.1495e-008,-109.84655,-95.588745
1.151e-008,-109.56184,-78.290024
1.1525e-008,-109.24641,-60.659496
1.154e-008,-108.90955,-42.729458
1.1555e-008,-108.55648,-24.526667
1.157e-008,-108.19013,-6.0722804
1.1585e-008,-107.8124,12.623882
1.16e-008,-107.42479,31.565552
1.1615e-008,-107.02893,50.758732
1.163e-008,-106.62737,70.216614
1.1645e-008,-106.22342,89.954422
1.166e-008,-105.82124,109.98208
1.1675e-008,-105.42512,130.30978
1.169e-008,-105.04008,150.93947
1.1705e-008,-104.67071,171.87125
1.172e-008,-104.32141,-166.90097
1.1735e-008,-103.99642,-145.38376
1.175e-008,-103.69934,-123.58941
1.1765e-008,-103.43325,-101.52798
1.178e-008,-103.20074,-79.212624
1.1795e-008,-103.00397,-56.654362
1.181e-008,-102.84476,-33.865005
1.1825e-008,-102.72442,-10.852876
1.184e-008,-102.64388,12.373453
1.1855e-008,-102.6041,35.807323
1.187e-008,-102.60531,59.445965
1.1885e-008,-102.64791,83.286171
1.19e-008,-102.73162,107.32935
1.1915e-008,-102.85631,131.57709
1.193e-008,-103.02112,156.03435
1.1945e-008,-103.22501,-179.29112
1.196e-008,-103.46639,-154.39041
1.1975e-008,-103.74318,-129.25249
1.199e-008,-104.0524,-103.86552
1.2005e-008,-104.3903,-78.216339
1.202e-008,-104.75224,-52.293262
1.2035e-008,-105.13225,-26.086729
1.205e-008,-105.52335,0.40642485
1.2065e-008,-105.9172,27.182791
1.208e-008,-106.3048,54.227833
1.2095e-008,-106.67645,81.509338
1.211e-008,-107.02309,108.98227
1.2125e-008,-107.33646,136.5829
1.214e-008,-107.6107,164.2336
1.2155e-008,-107.84268,-168.15254
1.217e-008,-108.0326,-140.66223
1.2185e-008,-108.18374,-113.37614
1.22e-008,-108.30203,-86.361748
1.2215e-008,-108.39459,-59.66964
1.223e-008,-108.46964,-33.331497
1.2245e-008,-108.53504,-7.3597808
1.226e-008,-108.59805,18.245317
1.2275e-008,-108.66458,43.499863
1.229e-008,-108.74016,68.427155
1.2305e-008,-108.82864,93.058235
1.232e-008,-108.93378,117.43169
1.2335e-008,-109.05817,141.58859
1.235e-008,-109.20493,165.5741
1.2365e-008,-109.37682,-170.56108
1.238e-008,-109.57686,-146.76509
1.2395e-008,-109.80888,-122.98087
1.241e-008,-110.07717,-99.148117
1.2425e-008,-110.38737,-75.19883
1.244e-008,-110.74543,-51.060349
1.2455e-008,-111.15884,-26.643591
1.247e-008,-111.63557,-1.8443037
1.2485e-008,-112.18365,23.469734
1.25e-008,-112.81087,49.470783
1.2515e-008,-113.52143,76.394249
1.253e-008,-114.31042,104.55338
1.2545e-008,-115.15406,134.36967
1.256e-008,-115.9884,166.32585
1.2575e-008,-116.68407,-159.19087
1.259e-008,-117.04513,-122.34959
1.2605e-008,-116.89223,-84.315842
1.262e-008,-116.20386,-46.932884
1.2635e-008,-115.13899,-11.57556
1.265e-008,-113.90304,21.394789
1.2665e-008,-112.64297,52.288662
1.268e-008,-111.43616,81.582596
1.2695e-008,-110.31517,109.70739
1.271e-008,-109.28952,136.98663
1.2725e-008,-108.35802,163.65263
1.274e-008,-107.5152,-170.1282
1.2755e-008,-106.7544,-144.23981
1.277e-008,-106.06845,-118.59804
1.2785e-008,-105.45103,-93.1427
1.28e-008,-104.89603,-67.829582
1.2815e-008,-104.39787,-42.62608
1.283e-008,-103.95166,-17.508888
1.2845e-008,-103.55273,7.53929
1.286e-008,-103.19675,32.530704
1.2875e-008,-102.87974,57.474014
1.289e-008,-102.59789,82.374176
1.2905e-008,-102.34757,107.23298
1.292e-008,-102.12508,132.0519
1.2935e-008,-101.92708,156.828
1.295e-008,-101.75005,-178.44119
1.2965e-008,-101.59072,-153.76051
1.298e-008,-101.44575,-129.13588
1.2995e-008,-101.31187,-104.57339
1.301e-008,-101.18589,-80.0802
1.3025e-008,-101.0648,-55.66386
1.304e-008,-100.94557,-31.329607
1.3055e-008,-100.82547,-7.084743
1.307e-008,-100.70184,17.066803
1.3085e-008,-100.57233,41.122181
1.31e-008,-100.43482,65.079956
1.3115e-008,-100.28768,88.941368
1.313e-008,-100.12945,112.70985
1.3145e-008,-99.959351,136.3909
1.316e-008,-99.776833,159.99232
1.3175e-008,-99.582001,-176.47556
1.319e-008,-99.375259,-153.00214
1.3205e-008,-99.157722,-129.5755
1.322e-008,-98.930779,-106.18274
1.3235e-008,-98.696182,-82.812164
1.325e-008,-98.456047,-59.4524
1.3265e-008,-98.212761,-36.092522
1.328e-008,-97.968773,-12.724002
1.3295e-008,-97.7267,10.661468
1.331e-008,-97.489105,34.069481
1.3325e-008,-97.258514,57.505146
1.334e-008,-97.037415,80.971191
1.3355e-008,-96.828102,104.46918
1.337e-008,-96.632759,128.00003
1.3385e-008,-96.453384,151.56351
1.34e-008,-96.291786,175.15762
1.3415e-008,-96.149635,-161.21933
1.343e-008,-96.028343,-137.57031
1.3445e-008,-95.929207,-113.89863
1.346e-008,-95.853432,-90.20826
1.3475e-008,-95.801949,-66.503372
1.349e-008,-95.775574,-42.788746
1.3505e-008,-95.775055,-19.069696
1.352e-008,-95.800903,4.6482325
1.3535e-008,-95.853561,28.358717
1.355e-008,-95.933327,52.055077
1.3565e-008,-96.040321,75.72995
1.358e-008,-96.174469,99.375038
1.3595e-008,-96.335579,122.98145
1.361e-008,-96.523178,146.53938
1.3625e-008,-96.736588,170.03758
1.364e-008,-96.974747,-166.53571
1.3655e-008,-97.236305,-143.19376
1.367e-008,-97.519348,-119.95071
1.3685e-008,-97.821533,-96.821945
1.37e-008,-98.139755,-73.822647
1.3715e-008,-98.4702,-50.969131
1.373e-008,-98.808174,-28.275999
1.3745e-008,-99.147987,-5.7562103
1.376e-008,-99.483009,16.58098
1.3775e-008,-99.805489,38.732616
1.379e-008,-100.10714,60.703327
1.3805e-008,-100.37894,82.508347
1.382e-008,-100.61211,104.175
1.3835e-008,-100.79843,125.74265
1.385e-008,-100.93137,147.26279
1.3865e-008,-101.0062,168.79373
1.388e-008,-101.02106,-169.60223
1.3895e-008,-100.97659,-147.86574
1.391e-008,-100.87611,-125.94557
1.3925e-008,-100.72473,-103.80231
1.394e-008,-100.52902,-81.410217
1.3955e-008,-100.29594,-58.757729
1.397e-008,-100.03291,-35.845688
1.3985e-008,-99.746658,-12.685093
1.4e-008,-99.443573,10.706057
1.4015e-008,-99.129189,34.304806
1.403e-008,-98.808502,58.086082
1.4045e-008,-98.485733,82.024399
1.406e-008,-98.16449,106.09391
1.4075e-008,-97.848007,130.27187
1.409e-008,-97.538879,154.53603
1.4105e-008,-97.239471,178.86763
1.412e-008,-96.951736,-156.74995
1.4135e-008,-96.677383,-132.33134
1.415e-008,-96.417831,-107.88833
1.4165e-008,-96.174347,-83.430573
1.418e-008,-95.947922,-58.966431
1.4195e-008,-95.739471,-34.501518
1.421e-008,-95.549767,-10.041424
1.4225e-008,-95.379379,14.411136
