!CSV A.01.01
!Keysight Technologies,N5227B,US58420762,A.13.80.08
!Date: Tuesday, November 21, 2023 09:31:08
!Source: Standard

BEGIN CH1_DATA
Time(s),S21(DB),S21(DEG)
5e-009,-112.73711,40.159241
5.015e-009,-113.34229,62.21228
5.03e-009,-114.1925,83.398743
5.045e-009,-115.32413,103.25066
5.06e-009,-116.77476,120.89127
5.075e-009,-118.53744,134.66997
5.09e-009,-120.37037,141.79259
5.105e-009,-121.38254,140.54807
5.12e-009,-120.55562,137.66129
5.135e-009,-118.53556,142.28484
5.15e-009,-116.40913,154.4153
5.165e-009,-114.56045,171.07742
5.18e-009,-113.0324,-169.69926
5.195e-009,-111.79091,-148.97702
5.21e-009,-110.79486,-127.31911
5.225e-009,-110.01218,-105.04659
5.24e-009,-109.41891,-82.350716
5.255e-009,-108.99891,-59.350395
5.27e-009,-108.74233,-36.125511
5.285e-009,-108.64478,-12.729765
5.3e-009,-108.70655,10.802506
5.315e-009,-108.93334,34.441818
5.33e-009,-109.33659,58.173336
5.345e-009,-109.9364,81.981201
5.36e-009,-110.76358,105.86039
5.375e-009,-111.86791,129.80852
5.39e-009,-113.33185,153.8335
5.405e-009,-115.30255,177.95688
5.42e-009,-118.08073,-157.74307
5.435e-009,-122.44801,-132.98773
5.45e-009,-132.0347,-105.17576
5.465e-009,-131.76736,87.788963
5.48e-009,-122.47421,115.46857
5.495e-009,-118.2411,140.30087
5.51e-009,-115.5825,164.73427
5.525e-009,-113.73643,-170.95155
5.54e-009,-112.4117,-146.68123
5.555e-009,-111.46818,-122.42175
5.57e-009,-110.83241,-98.15744
5.585e-009,-110.46412,-73.877113
5.6e-009,-110.34549,-49.569916
5.615e-009,-110.47496,-25.223183
5.63e-009,-110.86723,-0.8190769
5.645e-009,-111.55662,23.674627
5.66e-009,-112.6084,48.310337
5.675e-009,-114.14276,73.200394
5.69e-009,-116.40253,98.618797
5.705e-009,-119.97092,125.47122
5.72e-009,-126.91692,159.3654
5.735e-009,-133.2193,-51.777252
5.75e-009,-121.82647,0.95848346
5.765e-009,-116.81838,29.417337
5.78e-009,-113.67337,55.307411
5.795e-009,-111.43707,80.422768
5.81e-009,-109.75989,105.20582
5.825e-009,-108.47723,129.82013
5.84e-009,-107.49987,154.33968
5.855e-009,-106.77637,178.80475
5.87e-009,-106.27636,-156.76218
5.885e-009,-105.98361,-132.3447
5.9e-009,-105.89191,-107.93004
5.915e-009,-106.0044,-83.507019
5.93e-009,-106.33363,-59.063885
5.945e-009,-106.9045,-34.584152
5.96e-009,-107.75918,-10.045458
5.975e-009,-108.96922,14.592667
5.99e-009,-110.66164,39.410252
6.005e-009,-113.08828,64.597351
6.02e-009,-116.85532,90.785683
6.035e-009,-124.21198,122.02792
6.05e-009,-131.0856,-72.407219
6.065e-009,-119.13477,-27.494778
6.08e-009,-114.33036,-0.1451356
6.095e-009,-111.43507,25.537809
6.11e-009,-109.48868,50.783882
6.125e-009,-108.15247,75.918587
6.14e-009,-107.27786,101.09705
6.155e-009,-106.79839,126.44153
6.17e-009,-106.69573,152.10023
6.185e-009,-106.9896,178.30443
6.2e-009,-107.74358,-154.51361
6.215e-009,-109.08297,-125.41901
6.23e-009,-111.21564,-92.0056
6.245e-009,-114.2096,-47.074303
6.26e-009,-115.61126,21.508657
6.275e-009,-112.00614,84.499634
6.29e-009,-107.87432,125.32517
6.305e-009,-104.63972,157.01636
6.32e-009,-102.11771,-174.92563
6.335e-009,-100.10871,-148.6368
6.35e-009,-98.489723,-123.38368
6.365e-009,-97.188271,-98.846733
6.38e-009,-96.162369,-74.894264
6.395e-009,-95.390244,-51.501564
6.41e-009,-94.865051,-28.731014
6.425e-009,-94.592514,-6.7427254
6.44e-009,-94.589127,14.154577
6.455e-009,-94.877693,33.396328
6.47e-009,-95.467171,49.941734
6.485e-009,-96.273659,61.949562
6.5e-009,-96.882355,67.043343
6.515e-009,-96.349014,66.033447
6.53e-009,-94.230278,66.79245
6.545e-009,-91.367897,74.74427
6.56e-009,-88.514404,88.670074
6.575e-009,-85.903419,106.23296
6.59e-009,-83.554543,125.93252
6.605e-009,-81.43631,146.93491
6.62e-009,-79.51236,168.77249
6.635e-009,-77.751633,-168.82909
6.65e-009,-76.129387,-146.03848
6.665e-009,-74.626152,-122.9642
6.68e-009,-73.226593,-99.678696
6.695e-009,-71.918457,-76.23201
6.71e-009,-70.691864,-52.659672
6.725e-009,-69.538727,-28.987558
6.74e-009,-68.452347,-5.2348866
6.755e-009,-67.427147,18.583755
6.77e-009,-66.458389,42.457169
6.785e-009,-65.54203,66.376595
6.8e-009,-64.674606,90.335136
6.815e-009,-63.853119,114.32725
6.83e-009,-63.074932,138.3485
6.845e-009,-62.337746,162.39526
6.86e-009,-61.639534,-173.53542
6.875e-009,-60.978485,-149.44595
6.89e-009,-60.353001,-125.33834
6.905e-009,-59.761639,-101.21428
6.92e-009,-59.203121,-77.075096
6.935e-009,-58.676281,-52.921959
6.95e-009,-58.180069,-28.755774
6.965e-009,-57.713543,-4.5772929
6.98e-009,-57.275848,19.612856
6.995e-009,-56.866196,43.814194
7.01e-009,-56.483879,68.02636
7.025e-009,-56.128254,92.249084
7.04e-009,-55.798729,116.48219
7.055e-009,-55.494766,140.72557
7.07e-009,-55.215878,164.97923
7.085e-009,-54.961617,-170.75677
7.1e-009,-54.731567,-146.48233
7.115e-009,-54.525364,-122.19718
7.13e-009,-54.342659,-97.901115
7.145e-009,-54.183147,-73.593781
7.16e-009,-54.046543,-49.274757
7.175e-009,-53.93259,-24.943581
7.19e-009,-53.841049,-0.59969944
7.205e-009,-53.771706,23.757509
7.22e-009,-53.724369,48.128735
7.235e-009,-53.698856,72.514771
7.25e-009,-53.695004,96.916473
7.265e-009,-53.712666,121.33482
7.28e-009,-53.751694,145.77084
7.295e-009,-53.811962,170.22574
7.31e-009,-53.893345,-165.29927
7.325e-009,-53.995724,-140.80273
7.34e-009,-54.11898,-116.2832
7.355e-009,-54.262989,-91.738976
7.37e-009,-54.427631,-67.168289
7.385e-009,-54.61277,-42.569202
7.4e-009,-54.818256,-17.939625
7.415e-009,-55.043934,6.7226949
7.43e-009,-55.289608,31.420181
7.445e-009,-55.555061,56.155418
7.46e-009,-55.84005,80.93116
7.475e-009,-56.144272,105.75033
7.49e-009,-56.467377,130.616
7.505e-009,-56.80896,155.53136
7.52e-009,-57.168533,-179.50027
7.535e-009,-57.545532,-154.47551
7.55e-009,-57.939289,-129.39096
7.565e-009,-58.349037,-104.2433
7.58e-009,-58.773876,-79.029358
7.595e-009,-59.212791,-53.746235
7.61e-009,-59.664604,-28.391443
7.625e-009,-60.127995,-2.9630902
7.64e-009,-60.601498,22.539928
7.655e-009,-61.083485,48.117683
7.67e-009,-61.572193,73.768967
7.685e-009,-62.065735,99.491066
7.7e-009,-62.562138,125.27946
7.715e-009,-63.059376,151.12766
7.73e-009,-63.555431,177.02693
7.745e-009,-64.048355,-157.03358
7.76e-009,-64.536354,-131.06706
7.775e-009,-65.017822,-105.08873
7.79e-009,-65.49147,-79.115585
7.805e-009,-65.956337,-53.165966
7.82e-009,-66.411858,-27.259008
7.835e-009,-66.857887,-1.4140447
7.85e-009,-67.294693,24.350069
7.865e-009,-67.722908,50.015541
7.88e-009,-68.143524,75.566238
7.895e-009,-68.557808,100.98807
7.91e-009,-68.967232,126.26934
7.925e-009,-69.373405,151.40092
7.94e-009,-69.778015,176.3763
7.955e-009,-70.182747,-158.80852
7.97e-009,-70.589272,-134.15503
7.985e-009,-70.999176,-109.66248
8e-009,-71.413979,-85.32811
8.015e-009,-71.835121,-61.147308
8.03e-009,-72.263954,-37.113873
8.045e-009,-72.701767,-13.220171
8.06e-009,-73.149834,10.542613
8.075e-009,-73.609383,34.18428
8.09e-009,-74.081718,57.715542
8.105e-009,-74.568146,81.147797
8.12e-009,-75.070122,104.49301
8.135e-009,-75.589188,127.76365
8.15e-009,-76.127083,150.9725
8.165e-009,-76.685745,174.13278
8.18e-009,-77.267334,-162.74213
8.195e-009,-77.874306,-139.63843
8.21e-009,-78.50943,-116.54186
8.225e-009,-79.17585,-93.437622
8.24e-009,-79.877159,-70.309975
8.255e-009,-80.617416,-47.14164
8.27e-009,-81.40136,-23.913412
8.285e-009,-82.23439,-0.60269576
8.3e-009,-83.122871,22.817581
8.315e-009,-84.074272,46.381641
8.33e-009,-85.097481,70.134087
8.345e-009,-86.20314,94.135529
8.36e-009,-87.404099,118.47105
8.375e-009,-88.71579,143.26494
8.39e-009,-90.156311,168.70479
8.405e-009,-91.745193,-164.91592
8.42e-009,-93.498466,-137.12488
8.435e-009,-95.411011,-107.15526
8.45e-009,-97.406731,-73.83754
8.465e-009,-99.225899,-35.862644
8.48e-009,-100.34395,6.5724149
8.495e-009,-100.34869,49.631214
8.51e-009,-99.50779,88.764091
8.525e-009,-98.380219,122.95543
8.54e-009,-97.293633,153.36452
8.555e-009,-96.357414,-178.75009
8.57e-009,-95.58773,-152.52925
8.585e-009,-94.97123,-127.4442
8.6e-009,-94.488129,-103.16989
8.615e-009,-94.119125,-79.503036
8.63e-009,-93.84726,-56.312309
8.645e-009,-93.657921,-33.511097
8.66e-009,-93.538544,-11.039292
8.675e-009,-93.47805,11.145617
8.69e-009,-93.466591,33.076187
8.705e-009,-93.495186,54.778698
8.72e-009,-93.555557,76.277061
8.735e-009,-93.640007,97.594269
8.75e-009,-93.741402,118.75481
8.765e-009,-93.853188,139.7847
8.78e-009,-93.969498,160.71344
8.795e-009,-94.085182,-178.42781
8.81e-009,-94.195999,-157.60509
8.825e-009,-94.298538,-136.78375
8.84e-009,-94.390358,-115.92857
8.855e-009,-94.469879,-95.006554
8.87e-009,-94.536423,-73.986023
8.885e-009,-94.589745,-52.839832
8.9e-009,-94.630318,-31.54483
8.915e-009,-94.65873,-10.082382
8.93e-009,-94.675789,11.561342
8.945e-009,-94.682304,33.395481
8.96e-009,-94.678947,55.425289
8.975e-009,-94.66629,77.652077
8.99e-009,-94.644676,100.0742
9.005e-009,-94.614288,122.68739
9.02e-009,-94.575172,145.48511
9.035e-009,-94.527336,168.4594
9.05e-009,-94.470695,-168.39954
9.065e-009,-94.405281,-145.10162
9.08e-009,-94.3312,-121.65798
9.095e-009,-94.248604,-98.07988
9.11e-009,-94.158043,-74.37841
9.125e-009,-94.060127,-50.564281
9.14e-009,-93.955742,-26.648121
9.155e-009,-93.845963,-2.639235
9.17e-009,-93.732025,21.454048
9.185e-009,-93.615479,45.624027
9.2e-009,-93.497795,69.864326
9.215e-009,-93.380646,94.170158
9.23e-009,-93.265732,118.53713
9.245e-009,-93.154701,142.96262
9.26e-009,-93.049202,167.44447
9.275e-009,-92.95076,-168.01826
9.29e-009,-92.860817,-143.42596
9.305e-009,-92.780647,-118.77863
9.32e-009,-92.71138,-94.075356
9.335e-009,-92.653976,-69.315552
9.35e-009,-92.609154,-44.498299
9.365e-009,-92.57753,-19.622633
9.38e-009,-92.559456,5.3119993
9.395e-009,-92.555115,30.305588
9.41e-009,-92.564438,55.357845
9.425e-009,-92.587303,80.467316
9.44e-009,-92.623322,105.63166
9.455e-009,-92.671974,130.84744
9.47e-009,-92.732643,156.1095
9.485e-009,-92.804626,-178.58832
9.5e-009,-92.887123,-153.25427
9.515e-009,-92.979378,-127.89832
9.53e-009,-93.080597,-102.53223
9.545e-009,-93.190079,-77.169655
9.56e-009,-93.307259,-51.826069
9.575e-009,-93.431671,-26.518513
9.59e-009,-93.563042,-1.2654445
9.605e-009,-93.701286,23.913063
9.62e-009,-93.846458,48.996357
9.635e-009,-93.99881,73.962822
9.65e-009,-94.158714,98.79071
9.665e-009,-94.326607,123.45746
9.68e-009,-94.502914,147.94112
9.695e-009,-94.687981,172.21971
9.71e-009,-94.881981,-163.72821
9.725e-009,-95.084778,-139.92349
9.74e-009,-95.295815,-116.38603
9.755e-009,-95.514046,-93.1343
9.77e-009,-95.737755,-70.184792
9.785e-009,-95.964493,-47.551304
9.8e-009,-96.191063,-25.243555
9.815e-009,-96.413467,-3.2657173
9.83e-009,-96.627075,18.384703
9.845e-009,-96.826675,39.718998
9.86e-009,-97.006966,60.758625
9.875e-009,-97.16288,81.535507
9.89e-009,-97.290207,102.09214
9.905e-009,-97.385948,122.47968
9.92e-009,-97.448883,142.75488
9.935e-009,-97.479729,162.97649
9.95e-009,-97.481148,-176.79932
9.965e-009,-97.45752,-156.52325
9.98e-009,-97.414482,-136.15405
9.995e-009,-97.35833,-115.66225
1.001e-008,-97.295753,-95.028587
1.0025e-008,-97.233131,-74.243065
1.004e-008,-97.176414,-53.304607
1.0055e-008,-97.130859,-32.218178
1.007e-008,-97.100952,-10.993363
1.0085e-008,-97.090347,10.357076
1.01e-008,-97.101997,31.818754
1.0115e-008,-97.1381,53.376495
1.013e-008,-97.200287,75.0149
1.0145e-008,-97.289566,96.719902
1.016e-008,-97.406464,118.47754
1.0175e-008,-97.551079,140.27628
1.019e-008,-97.723114,162.10503
1.0205e-008,-97.921814,-176.04427
1.022e-008,-98.146294,-154.17769
1.0235e-008,-98.395126,-132.29871
1.025e-008,-98.66684,-110.4083
1.0265e-008,-98.959663,-88.503029
1.028e-008,-99.271629,-66.577271
1.0295e-008,-99.600662,-44.619877
1.031e-008,-99.944603,-22.616699
1.0325e-008,-100.30141,-0.54804438
1.034e-008,-100.66885,21.609461
1.0355e-008,-101.04507,43.884079
1.037e-008,-101.42809,66.307358
1.0385e-008,-101.81618,88.915565
1.04e-008,-102.20757,111.74596
1.0415e-008,-102.60046,134.83896
1.043e-008,-102.99263,158.23337
1.0445e-008,-103.38161,-178.03096
1.046e-008,-103.76399,-153.91951
1.0475e-008,-104.13559,-129.40349
1.049e-008,-104.49094,-104.46259
1.0505e-008,-104.82374,-79.090363
1.052e-008,-105.12671,-53.296032
1.0535e-008,-105.39251,-27.109421
1.055e-008,-105.61418,-0.58080584
1.0565e-008,-105.78696,26.218269
1.058e-008,-105.90829,53.201893
1.0595e-008,-105.97957,80.274239
1.061e-008,-106.00553,107.34166
1.0625e-008,-105.99436,134.32048
1.064e-008,-105.95646,161.14171
1.0655e-008,-105.90372,-172.24333
1.067e-008,-105.84805,-145.8667
1.0685e-008,-105.80117,-119.74168
1.07e-008,-105.77367,-93.871635
1.0715e-008,-105.77505,-68.251015
1.073e-008,-105.81363,-42.868832
1.0745e-008,-105.89686,-17.712553
1.076e-008,-106.03136,7.2294908
1.0775e-008,-106.22355,31.970877
1.079e-008,-106.47955,56.519306
1.0805e-008,-106.80563,80.879166
1.082e-008,-107.20883,105.05168
1.0835e-008,-107.69717,129.02884
1.085e-008,-108.27998,152.79646
1.0865e-008,-108.96922,176.32684
1.088e-008,-109.77968,-160.42361
1.0895e-008,-110.73156,-137.53001
1.091e-008,-111.85039,-115.10845
1.0925e-008,-113.17391,-93.36628
1.094e-008,-114.75214,-72.665298
1.0955e-008,-116.65396,-53.704731
1.097e-008,-118.95374,-37.934292
1.0985e-008,-121.61704,-28.477808
1.1e-008,-123.92828,-30.351244
1.1015e-008,-123.96197,-40.084469
1.103e-008,-121.84901,-41.034248
1.1045e-008,-119.48444,-31.016958
1.106e-008,-117.49087,-15.048145
1.1075e-008,-115.88316,3.922956
1.109e-008,-114.58276,24.52347
1.1105e-008,-113.51981,46.094814
1.112e-008,-112.6423,68.289215
1.1135e-008,-111.91077,90.911797
1.115e-008,-111.29691,113.84872
1.1165e-008,-110.7774,137.02933
1.118e-008,-110.33442,160.41138
1.1195e-008,-109.95197,-176.03377
1.121e-008,-109.61735,-152.32237
1.1225e-008,-109.3191,-128.4659
1.124e-008,-109.04646,-104.47094
1.1255e-008,-108.79037,-80.344666
1.127e-008,-108.54278,-56.094204
1.1285e-008,-108.29631,-31.725149
1.13e-008,-108.04436,-7.2471066
1.1315e-008,-107.7826,17.327278
1.133e-008,-107.50675,41.984089
1.1345e-008,-107.21455,66.704765
1.136e-008,-106.90504,91.472252
1.1375e-008,-106.5786,116.26832
1.139e-008,-106.23667,141.07439
1.1405e-008,-105.88216,165.87361
1.142e-008,-105.51827,-169.34749
1.1435e-008,-105.14933,-144.60129
1.145e-008,-104.77988,-119.89558
1.1465e-008,-104.41436,-95.236153
1.148e-008,-104.05773,-70.626274
1.1495e-008,-103.71461,-46.065762
1.151e-008,-103.3894,-21.553383
1.1525e-008,-103.08636,2.9128339
1.154e-008,-102.80952,27.3379
1.1555e-008,-102.56274,51.726753
1.157e-008,-102.34968,76.08519
1.1585e-008,-102.17393,100.41975
1.16e-008,-102.03902,124.73789
1.1615e-008,-101.94859,149.047
1.163e-008,-101.90657,173.35614
1.1645e-008,-101.91687,-162.32451
1.166e-008,-101.98428,-137.98314
1.1675e-008,-102.11397,-113.60555
1.169e-008,-102.31231,-89.174278
1.1705e-008,-102.58663,-64.665764
1.172e-008,-102.94638,-40.049297
1.1735e-008,-103.40324,-15.282705
1.175e-008,-103.97233,9.694685
1.1765e-008,-104.67354,34.974613
1.178e-008,-105.53373,60.698643
1.1795e-008,-106.58924,87.103699
1.181e-008,-107.8896,114.60349
1.1825e-008,-109.49722,143.98689
1.184e-008,-111.4641,176.85211
1.1855e-008,-113.6759,-143.57489
1.187e-008,-115.26472,-93.303848
1.1885e-008,-114.58871,-38.175041
1.19e-008,-112.1801,7.9181528
1.1915e-008,-109.60999,44.447186
1.193e-008,-107.3671,75.660065
1.1945e-008,-105.46589,104.08585
1.196e-008,-103.84326,130.94891
1.1975e-008,-102.43959,156.86758
1.199e-008,-101.20973,-177.82315
1.2005e-008,-100.12005,-152.92816
1.202e-008,-99.145805,-128.32629
1.2035e-008,-98.268105,-103.93824
1.205e-008,-97.472488,-79.710739
1.2065e-008,-96.747467,-55.605095
1.208e-008,-96.083862,-31.592651
1.2095e-008,-95.474205,-7.6516972
1.211e-008,-94.912285,16.234608
1.2125e-008,-94.392891,40.080414
1.214e-008,-93.911621,63.897316
1.2155e-008,-93.464706,87.695633
1.217e-008,-93.048874,111.48351
1.2185e-008,-92.661308,135.2691
1.22e-008,-92.299522,159.05922
1.2215e-008,-91.961349,-177.13983
1.223e-008,-91.644875,-153.32246
1.2245e-008,-91.348427,-129.48323
1.226e-008,-91.070518,-105.61767
1.2275e-008,-90.809845,-81.721474
1.229e-008,-90.565216,-57.790928
1.2305e-008,-90.335655,-33.82272
1.232e-008,-90.120255,-9.814065
1.2335e-008,-89.918228,14.237384
1.235e-008,-89.728889,38.333542
1.2365e-008,-89.551666,62.475857
1.238e-008,-89.386032,86.665199
1.2395e-008,-89.231567,110.90218
1.241e-008,-89.087875,135.1869
1.2425e-008,-88.954704,159.51913
1.244e-008,-88.831787,-176.10175
1.2455e-008,-88.718941,-151.67677
1.247e-008,-88.616028,-127.20692
1.2485e-008,-88.522964,-102.69379
1.25e-008,-88.439705,-78.138939
1.2515e-008,-88.366226,-53.544109
1.253e-008,-88.302567,-28.911057
1.2545e-008,-88.248772,-4.2416492
1.256e-008,-88.20491,20.46232
1.2575e-008,-88.171082,45.19902
1.259e-008,-88.147392,69.96698
1.2605e-008,-88.133965,94.76458
1.262e-008,-88.130898,119.59061
1.2635e-008,-88.138313,144.444
1.265e-008,-88.156288,169.32401
1.2665e-008,-88.184906,-165.77005
1.268e-008,-88.224205,-140.83833
1.2695e-008,-88.27417,-115.88085
1.271e-008,-88.33477,-90.897324
1.2725e-008,-88.405891,-65.887146
1.274e-008,-88.487389,-40.8494
1.2755e-008,-88.578995,-15.783061
1.277e-008,-88.680412,9.313098
1.2785e-008,-88.791214,34.440647
1.28e-008,-88.910904,59.600914
1.2815e-008,-89.038864,84.79567
1.283e-008,-89.174377,110.02619
1.2845e-008,-89.316612,135.2939
1.286e-008,-89.464615,160.59979
1.2875e-008,-89.61734,-174.05548
1.289e-008,-89.773628,-148.67181
1.2905e-008,-89.932243,-123.24985
1.292e-008,-90.091827,-97.790977
1.2935e-008,-90.25103,-72.297401
1.295e-008,-90.408424,-46.772697
1.2965e-008,-90.562637,-21.221455
1.298e-008,-90.712311,4.350781
1.2995e-008,-90.856201,29.937017
1.301e-008,-90.993172,55.529278
1.3025e-008,-91.122299,81.118507
1.304e-008,-91.242844,106.69505
1.3055e-008,-91.354355,132.2489
1.307e-008,-91.456573,157.76929
1.3085e-008,-91.549583,-176.75406
1.31e-008,-91.633728,-151.33105
1.3115e-008,-91.709618,-125.97085
1.313e-008,-91.778099,-100.68201
1.3145e-008,-91.840225,-75.471603
1.316e-008,-91.897217,-50.345234
1.3175e-008,-91.950447,-25.307722
1.319e-008,-92.001366,-0.36218271
1.3205e-008,-92.051468,24.489672
1.322e-008,-92.10231,49.24715
1.3235e-008,-92.155396,73.910667
1.325e-008,-92.212234,98.481804
1.3265e-008,-92.274269,122.96248
1.328e-008,-92.342873,147.35571
1.3295e-008,-92.419357,171.66476
1.331e-008,-92.504944,-164.10663
1.3325e-008,-92.600815,-139.95459
1.334e-008,-92.707985,-115.87528
1.3355e-008,-92.827423,-91.864517
1.337e-008,-92.960052,-67.918213
1.3385e-008,-93.106644,-44.032658
1.34e-008,-93.267937,-20.204021
1.3415e-008,-93.444504,3.5712714
1.343e-008,-93.63694,27.29656
1.3445e-008,-93.845657,50.974976
1.346e-008,-94.071022,74.60952
1.3475e-008,-94.313293,98.203011
1.349e-008,-94.572624,121.75775
1.3505e-008,-94.849068,145.27628
1.352e-008,-95.142548,168.76051
1.3535e-008,-95.452866,-167.78748
1.355e-008,-95.779694,-144.36574
1.3565e-008,-96.122528,-120.97314
1.358e-008,-96.480682,-97.608093
1.3595e-008,-96.853348,-74.269081
1.361e-008,-97.239426,-50.95541
1.3625e-008,-97.637642,-27.665993
1.364e-008,-98.04641,-4.4004416
1.3655e-008,-98.463951,18.841793
1.367e-008,-98.88813,42.060284
1.3685e-008,-99.316452,65.254852
1.37e-008,-99.746208,88.424385
1.3715e-008,-100.17426,111.56669
1.373e-008,-100.59715,134.68008
1.3745e-008,-101.01115,157.76099
1.376e-008,-101.41223,-179.19458
1.3775e-008,-101.7961,-156.19142
1.379e-008,-102.15842,-133.23544
1.3805e-008,-102.49468,-110.33244
1.382e-008,-102.80061,-87.489029
1.3835e-008,-103.07204,-64.71183
1.385e-008,-103.30528,-42.005909
1.3865e-008,-103.49709,-19.376019
1.388e-008,-103.64492,3.1746902
1.3895e-008,-103.747,25.646629
1.391e-008,-103.80247,48.04171
1.3925e-008,-103.81135,70.365433
1.394e-008,-103.77445,92.624863
1.3955e-008,-103.6936,114.8307
1.397e-008,-103.5714,136.99586
1.3985e-008,-103.41098,159.13332
1.4e-008,-103.21608,-178.74126
1.4015e-008,-102.99083,-156.61407
1.403e-008,-102.73958,-134.47015
1.4045e-008,-102.46684,-112.29669
1.406e-008,-102.17696,-90.08078
1.4075e-008,-101.87436,-67.812149
1.409e-008,-101.56315,-45.481129
1.4105e-008,-101.24722,-23.080126
1.412e-008,-100.93021,-0.602063
1.4135e-008,-100.61545,21.957693
1.415e-008,-100.30598,44.603321
1.4165e-008,-100.00446,67.337791
1.418e-008,-99.713379,90.164314
1.4195e-008,-99.434891,113.08361
1.421e-008,-99.170891,136.09744
1.4225e-008,-98.923042,159.20686
