!CSV A.01.01
!Keysight Technologies,N5227B,US58420762,A.13.80.08
!Date: Monday, November 20, 2023 16:24:53
!Source: Standard

BEGIN CH1_DATA
Freq(Hz),S21(DB),S21(DEG)
3000000000,-59.151737,-103.34769
3003000000,-59.042976,-118.88232
3006000000,-59.27227,-135.29982
3009000000,-59.15485,-151.25966
3012000000,-58.990585,-169.52617
3015000000,-59.041367,173.9393
3018000000,-58.900642,157.77753
3021000000,-58.599094,140.86038
3024000000,-58.509689,124.76413
3027000000,-58.392815,108.0941
3030000000,-58.129742,90.237335
3033000000,-57.941994,74.203377
3036000000,-57.428177,54.42363
3039000000,-57.154953,37.580936
3042000000,-56.98505,19.461548
3045000000,-56.841705,0.39786297
3048000000,-56.661629,-17.605415
3051000000,-56.438866,-36.616524
3054000000,-56.331867,-56.207062
3057000000,-56.266235,-75.845345
3060000000,-56.148087,-94.257431
3063000000,-56.168545,-113.65735
3066000000,-56.101612,-132.79085
3069000000,-56.400421,-152.98872
3072000000,-56.524357,-171.47067
3075000000,-56.728195,170.51457
3078000000,-56.843376,152.67241
3081000000,-57.085476,133.99377
3084000000,-57.223705,116.65698
3087000000,-57.448147,98.022194
3090000000,-57.629208,82.446373
3093000000,-57.633095,66.357269
3096000000,-57.615265,49.032322
3099000000,-57.644848,31.015148
3102000000,-57.588669,13.876987
3105000000,-57.417877,-4.1855063
3108000000,-57.202236,-22.576359
3111000000,-57.456688,-42.557426
3114000000,-57.495087,-61.799953
3117000000,-57.825893,-79.263519
3120000000,-58.468788,-96.968834
3123000000,-58.548283,-114.36388
3126000000,-58.79845,-129.5544
3129000000,-58.979893,-145.87444
3132000000,-59.187778,-160.89746
3135000000,-58.918411,-179.22234
3138000000,-58.985275,166.55421
3141000000,-59.004803,150.31938
3144000000,-59.00515,133.80807
3147000000,-58.730339,116.19232
3150000000,-58.854122,100.18259
3153000000,-58.816078,84.387497
3156000000,-58.751297,68.603912
3159000000,-58.479195,50.858624
3162000000,-58.576977,33.477295
3165000000,-58.219219,15.585748
3168000000,-58.226921,-1.2301157
3171000000,-58.322262,-18.852343
3174000000,-58.185913,-34.803726
3177000000,-58.062901,-52.146637
3180000000,-57.828121,-68.702675
3183000000,-57.490723,-85.872162
3186000000,-57.122936,-103.22234
3189000000,-56.774006,-123.08576
3192000000,-56.70953,-142.15514
3195000000,-56.758247,-162.22357
3198000000,-56.873764,179.12268
3201000000,-57.105621,161.70775
3204000000,-57.205269,143.68576
3207000000,-57.406647,126.51274
3210000000,-57.347275,109.68552
3213000000,-57.243652,92.656487
3216000000,-57.382057,74.317551
3219000000,-57.550186,57.81171
3222000000,-57.612495,40.771061
3225000000,-57.547447,23.85277
3228000000,-57.535984,8.724534
3231000000,-57.218086,-6.7649713
3234000000,-56.892624,-24.133522
3237000000,-56.75116,-42.583889
3240000000,-56.380562,-60.200974
3243000000,-56.06105,-78.751602
3246000000,-56.063377,-98.346275
3249000000,-56.172421,-118.29218
3252000000,-56.079453,-137.08391
3255000000,-56.384113,-154.37776
3258000000,-56.511631,-173.06236
3261000000,-56.602474,169.54118
3264000000,-56.547039,153.84338
3267000000,-56.503597,136.6646
3270000000,-56.119408,120.39873
3273000000,-55.961849,101.07524
3276000000,-55.910709,81.14698
3279000000,-55.778831,62.620037
3282000000,-56.040279,45.008022
3285000000,-56.063366,27.025333
3288000000,-56.056473,8.5780554
3291000000,-56.01416,-8.4660616
3294000000,-55.977867,-26.011087
3297000000,-55.836327,-44.873634
3300000000,-55.824734,-63.145058
3303000000,-55.807632,-83.307335
3306000000,-55.896404,-101.14526
3309000000,-56.234016,-119.37981
3312000000,-56.178432,-137.24384
3315000000,-56.261486,-154.42297
3318000000,-56.329433,-173.40271
3321000000,-56.225979,168.61717
3324000000,-56.435127,149.72656
3327000000,-56.589458,131.53172
3330000000,-56.750343,111.53162
3333000000,-57.08036,92.732979
3336000000,-57.457829,75.579002
3339000000,-58.067703,60.142536
3342000000,-58.027294,44.267059
3345000000,-57.809933,27.138369
3348000000,-57.819729,8.43293
3351000000,-58.160519,-9.9520054
3354000000,-58.713161,-25.95446
3357000000,-58.966702,-40.866039
3360000000,-59.202934,-56.59428
3363000000,-59.118668,-72.301308
3366000000,-59.041603,-88.161179
3369000000,-58.767044,-104.57587
3372000000,-58.713238,-121.37399
3375000000,-58.487644,-139.04865
3378000000,-58.496506,-157.81491
3381000000,-58.544746,-175.55032
3384000000,-58.618237,166.22153
3387000000,-59.057201,148.79228
3390000000,-59.490585,132.85567
3393000000,-59.601536,117.5441
3396000000,-59.777107,105.10992
3399000000,-59.53529,89.997139
3402000000,-59.334667,74.415436
3405000000,-59.039379,58.066513
3408000000,-58.961826,42.270752
3411000000,-58.64782,26.71801
3414000000,-58.130306,11.567544
3417000000,-57.649231,-5.4509335
3420000000,-57.297543,-23.813721
3423000000,-56.702007,-42.065132
3426000000,-56.285629,-62.745724
3429000000,-56.241882,-83.20874
3432000000,-55.995762,-103.35538
3435000000,-56.250809,-122.95958
3438000000,-56.348984,-141.81157
3441000000,-56.535568,-160.83012
3444000000,-56.405758,-178.55023
3447000000,-56.559666,165.80061
3450000000,-56.442348,147.45207
3453000000,-56.515965,128.72247
3456000000,-56.468773,110.56973
3459000000,-56.572704,92.684372
3462000000,-56.673801,74.803902
3465000000,-56.682297,57.550266
3468000000,-56.788956,39.818336
3471000000,-56.613682,23.936275
3474000000,-56.183002,4.4503078
3477000000,-56.197155,-13.974146
3480000000,-56.014091,-34.80426
3483000000,-56.233955,-54.801506
3486000000,-56.608688,-74.976357
3489000000,-56.919659,-90.757858
3492000000,-57.131157,-108.26851
3495000000,-56.996922,-124.59092
3498000000,-57.127037,-143.72182
3501000000,-57.083431,-160.75418
3504000000,-57.011307,179.97203
3507000000,-57.231937,162.25005
3510000000,-57.393288,142.58157
3513000000,-57.570461,124.06864
3516000000,-58.046772,105.82423
3519000000,-58.271328,89.973145
3522000000,-58.63747,73.017754
3525000000,-59.002205,57.456127
3528000000,-59.027554,39.363338
3531000000,-59.116245,21.993965
3534000000,-59.630539,4.9935884
3537000000,-59.832375,-12.268381
3540000000,-59.95927,-27.334555
3543000000,-60.261799,-41.372196
3546000000,-60.341423,-55.673302
3549000000,-60.228477,-70.538902
3552000000,-59.834743,-86.449532
3555000000,-59.644257,-102.07321
3558000000,-59.325481,-118.7346
3561000000,-59.305164,-138.29549
3564000000,-59.23127,-156.87337
3567000000,-59.348259,-174.76166
3570000000,-59.586128,168.48032
3573000000,-59.443043,151.1514
3576000000,-59.446873,136.73705
3579000000,-59.495811,120.79445
3582000000,-59.244865,102.59827
3585000000,-58.993614,84.26194
3588000000,-59.047588,66.651115
3591000000,-59.149166,49.395077
3594000000,-59.396172,32.8717
3597000000,-59.461796,18.560577
3600000000,-59.189823,2.3428423
3603000000,-58.577511,-12.579735
3606000000,-58.309814,-32.254444
3609000000,-57.940739,-50.40102
3612000000,-57.948898,-67.999146
3615000000,-57.79652,-88.343025
3618000000,-58.100517,-107.18015
3621000000,-58.408905,-123.96485
3624000000,-58.417408,-138.71425
3627000000,-58.182934,-155.8521
3630000000,-57.898922,-172.61276
3633000000,-57.60746,169.08315
3636000000,-57.20895,149.87631
3639000000,-57.237587,131.52939
3642000000,-57.2943,112.07102
3645000000,-57.486855,94.00824
3648000000,-57.601013,76.174088
3651000000,-57.618073,59.276588
3654000000,-57.478561,41.493767
3657000000,-57.295433,22.732952
3660000000,-57.155293,4.3171945
3663000000,-57.260365,-16.179632
3666000000,-57.641724,-35.798912
3669000000,-58.168217,-55.100002
3672000000,-58.691463,-69.887436
3675000000,-59.001099,-86.586823
3678000000,-58.984863,-99.866226
3681000000,-58.7523,-114.51675
3684000000,-58.455853,-131.73225
3687000000,-58.315155,-150.43997
3690000000,-58.125969,-167.09253
3693000000,-58.069321,172.69183
3696000000,-57.902905,154.56227
3699000000,-58.165779,138.19336
3702000000,-58.354973,119.68004
3705000000,-58.400391,103.01569
3708000000,-58.135338,87.693443
3711000000,-58.168194,68.97287
3714000000,-58.275543,48.16317
3717000000,-58.255898,30.490808
3720000000,-58.520626,12.797696
3723000000,-58.924679,-3.4776058
3726000000,-59.27874,-20.447168
3729000000,-59.351276,-35.559811
3732000000,-59.528992,-52.88092
3735000000,-59.283428,-67.115868
3738000000,-59.052082,-85.120003
3741000000,-58.989304,-101.15961
3744000000,-58.981201,-118.77544
3747000000,-59.124393,-136.71622
3750000000,-59.290211,-153.46727
3753000000,-59.521927,-167.49701
3756000000,-59.386765,176.71205
3759000000,-59.399967,159.173
3762000000,-59.265045,142.49081
3765000000,-59.049568,125.59286
3768000000,-58.883472,108.48257
3771000000,-58.737503,91.983223
3774000000,-58.532139,73.19838
3777000000,-58.626095,56.818314
3780000000,-58.499527,39.175995
3783000000,-58.13813,21.334379
3786000000,-57.722065,3.8215683
3789000000,-57.667145,-14.014491
3792000000,-57.6423,-34.638824
3795000000,-57.594002,-52.539558
3798000000,-57.612904,-71.346077
3801000000,-57.800182,-91.053848
3804000000,-58.144005,-108.91571
3807000000,-58.215317,-125.65366
3810000000,-58.341503,-141.9158
3813000000,-58.477867,-157.27966
3816000000,-58.296223,-173.97598
3819000000,-58.184616,170.6718
3822000000,-57.954666,152.90964
3825000000,-57.880901,135.60712
3828000000,-57.893497,116.13624
3831000000,-57.589737,99.920319
3834000000,-57.615955,83.365608
3837000000,-57.511246,65.113632
3840000000,-57.389507,47.955467
3843000000,-57.366283,28.125788
3846000000,-57.240128,9.9244108
3849000000,-57.356297,-7.9403338
3852000000,-57.32671,-25.763302
3855000000,-57.52412,-44.459053
3858000000,-57.795162,-62.742653
3861000000,-57.841717,-79.314537
3864000000,-57.699326,-95.514107
3867000000,-57.664619,-112.43242
3870000000,-57.740585,-129.35774
3873000000,-57.549198,-146.37769
3876000000,-57.597046,-163.9334
3879000000,-57.501038,177.07167
3882000000,-57.442158,159.75699
3885000000,-57.570396,145.03369
3888000000,-57.540833,126.24449
3891000000,-57.322136,109.08498
3894000000,-57.290325,92.126266
3897000000,-57.548447,74.427063
3900000000,-57.62011,57.592449
3903000000,-57.32209,40.507763
3906000000,-57.249165,23.987892
3909000000,-57.216763,8.1140432
3912000000,-56.950428,-10.807389
3915000000,-56.774597,-26.233278
3918000000,-56.6707,-43.960541
3921000000,-56.285435,-62.207985
3924000000,-56.035549,-81.374809
3927000000,-56.016907,-100.6346
3930000000,-56.001007,-118.50845
3933000000,-56.099632,-136.93488
3936000000,-56.24728,-155.20551
3939000000,-56.252941,-173.83977
3942000000,-56.25576,170.16725
3945000000,-56.177067,152.32166
3948000000,-55.944122,134.31815
3951000000,-56.166096,116.00127
3954000000,-56.018147,98.546295
3957000000,-56.052044,81.433266
3960000000,-56.058861,64.606285
3963000000,-55.882862,47.198963
3966000000,-55.715889,29.818892
3969000000,-55.444294,11.421959
3972000000,-55.288338,-8.2894382
3975000000,-55.151493,-27.137005
3978000000,-55.323009,-46.081024
3981000000,-55.23465,-64.942039
3984000000,-55.490929,-82.318047
3987000000,-55.523781,-100.97617
3990000000,-55.567654,-118.77853
3993000000,-55.644825,-136.8759
3996000000,-55.54314,-154.29036
3999000000,-55.655888,-172.71805
4002000000,-55.596046,168.26926
4005000000,-55.694992,148.8083
4008000000,-55.928593,131.1461
4011000000,-56.31572,115.70026
4014000000,-56.256451,97.121086
4017000000,-56.395248,81.189507
4020000000,-56.51519,62.512295
4023000000,-56.229103,45.461895
4026000000,-56.111771,27.834139
4029000000,-56.446072,9.0222673
4032000000,-56.553749,-9.7267036
4035000000,-56.608681,-28.219917
4038000000,-57.120754,-45.707428
4041000000,-57.532143,-61.128384
4044000000,-57.42181,-76.800964
4047000000,-57.409595,-92.632164
4050000000,-56.980061,-109.1642
4053000000,-57.151962,-128.56088
4056000000,-57.180519,-143.37566
4059000000,-57.030052,-159.95744
4062000000,-57.015995,179.62285
4065000000,-57.071194,164.03268
4068000000,-57.065994,146.77853
4071000000,-56.955978,128.66808
4074000000,-56.915295,111.18768
4077000000,-56.775265,93.403946
4080000000,-56.644802,75.446472
4083000000,-56.598423,57.729752
4086000000,-56.868309,40.525608
4089000000,-57.054222,22.068027
4092000000,-57.113392,5.7615819
4095000000,-57.087948,-9.4177189
4098000000,-56.971409,-26.975534
4101000000,-56.863331,-43.83427
4104000000,-56.566647,-61.107586
4107000000,-56.496441,-79.451118
4110000000,-56.416447,-98.152405
4113000000,-56.48151,-116.22541
4116000000,-56.471897,-134.9715
4119000000,-56.797844,-150.3429
4122000000,-56.870693,-167.57062
4125000000,-56.361568,176.74252
4128000000,-56.351162,158.23857
4131000000,-56.125648,139.1628
4134000000,-56.330032,120.69444
4137000000,-56.321583,102.12054
4140000000,-56.185703,85.971603
4143000000,-56.139637,68.71965
4146000000,-56.23122,51.494171
4149000000,-55.952465,35.475853
4152000000,-55.98119,17.395214
4155000000,-55.662441,-1.8519022
4158000000,-55.534737,-21.629585
4161000000,-55.465477,-40.330269
4164000000,-55.394348,-59.480915
4167000000,-55.790569,-78.138077
4170000000,-55.968204,-96.464439
4173000000,-56.21397,-112.47784
4176000000,-56.378357,-130.14197
4179000000,-56.38102,-146.68175
4182000000,-56.126442,-163.4856
4185000000,-56.130386,178.94786
4188000000,-55.808842,161.57545
4191000000,-55.588196,141.56903
4194000000,-55.737717,123.7914
4197000000,-55.845818,105.24351
4200000000,-55.720974,87.802605
4203000000,-55.805637,70.022095
4206000000,-55.652283,50.297028
4209000000,-55.781796,32.752766
4212000000,-55.644497,13.626615
4215000000,-56.049831,-7.0813017
4218000000,-56.296085,-22.885698
4221000000,-56.581715,-41.657063
4224000000,-56.647327,-60.636372
4227000000,-56.849419,-78.168503
4230000000,-57.077103,-95.256226
4233000000,-57.049747,-110.20356
4236000000,-57.175568,-126.85832
4239000000,-56.999119,-143.65784
4242000000,-57.112209,-162.74005
4245000000,-57.167515,178.12914
4248000000,-57.183781,162.44136
4251000000,-57.477325,143.1375
4254000000,-57.608456,126.52666
4257000000,-57.55407,110.32749
4260000000,-57.828468,91.504959
4263000000,-57.526966,74.701141
4266000000,-57.806396,57.171646
4269000000,-57.846951,39.094185
4272000000,-58.052082,21.35961
4275000000,-58.356346,4.2663088
4278000000,-58.512466,-9.2737617
4281000000,-58.449932,-26.73686
4284000000,-58.273266,-43.867085
4287000000,-58.133705,-61.197941
4290000000,-58.075218,-77.817459
4293000000,-58.014038,-95.429955
4296000000,-57.699745,-112.33976
4299000000,-57.985909,-132.308
4302000000,-57.985283,-148.66212
4305000000,-58.028996,-165.72893
4308000000,-58.165646,176.67998
4311000000,-58.305447,158.99814
4314000000,-58.408733,144.94046
4317000000,-58.251171,125.95255
4320000000,-58.140167,111.00185
4323000000,-57.930584,93.605858
4326000000,-58.020042,75.261986
4329000000,-57.766563,58.772236
4332000000,-57.905018,42.464634
4335000000,-57.538879,24.268526
4338000000,-57.530209,6.3543758
4341000000,-57.397648,-13.837821
4344000000,-57.43412,-29.144022
4347000000,-57.267052,-48.701851
4350000000,-57.508453,-67.527
4353000000,-57.374542,-86.121658
4356000000,-57.2425,-102.12637
4359000000,-57.722359,-121.37738
4362000000,-57.576492,-137.20465
4365000000,-58.139633,-154.86404
4368000000,-57.489159,-170.56944
4371000000,-57.486191,171.28857
4374000000,-57.47443,154.86772
4377000000,-57.532234,134.86458
4380000000,-57.224136,117.65343
4383000000,-57.449448,99.268456
4386000000,-57.409298,82.940239
4389000000,-57.061737,63.846916
4392000000,-57.148026,45.337215
4395000000,-57.244228,26.243229
4398000000,-57.294704,8.2204943
4401000000,-57.362885,-9.0516796
4404000000,-57.480331,-27.122414
4407000000,-57.349747,-46.260361
4410000000,-58.024017,-62.836498
4413000000,-57.694138,-80.626564
4416000000,-57.95396,-99.000458
4419000000,-57.755753,-116.13107
4422000000,-58.117062,-134.9422
4425000000,-58.184071,-151.69452
4428000000,-58.410984,-170.32304
4431000000,-58.309315,173.54378
4434000000,-58.35672,156.47604
4437000000,-58.604431,139.71439
4440000000,-58.500309,119.65053
4443000000,-58.803047,103.78297
4446000000,-58.753456,85.866997
4449000000,-58.789684,70.169281
4452000000,-59.052143,53.226563
4455000000,-59.358727,34.684803
4458000000,-59.342346,19.565502
4461000000,-59.29393,2.5624113
4464000000,-59.061295,-15.163865
4467000000,-59.270023,-30.542309
4470000000,-58.921547,-48.112877
4473000000,-58.966209,-67.276772
4476000000,-59.042786,-85.286346
4479000000,-59.243046,-101.31834
4482000000,-59.217133,-119.59875
4485000000,-59.328274,-135.18265
4488000000,-59.502308,-153.44772
4491000000,-59.071281,-168.94987
4494000000,-59.225979,174.62292
4497000000,-59.757248,156.51041
4500000000,-59.568043,137.96701
4503000000,-59.685638,121.21468
4506000000,-59.994976,105.18835
4509000000,-59.61787,91.199295
4512000000,-59.392696,74.824646
4515000000,-59.128807,58.149418
4518000000,-58.957489,40.471344
4521000000,-58.870033,21.751373
4524000000,-58.713921,5.4170032
4527000000,-58.742916,-12.426067
4530000000,-58.729,-29.191965
4533000000,-58.569954,-48.549652
4536000000,-58.460114,-65.346687
4539000000,-58.123348,-83.898987
4542000000,-58.156811,-99.961578
4545000000,-58.076977,-117.96857
4548000000,-58.025204,-136.88939
4551000000,-57.792171,-153.81119
4554000000,-57.799236,-173.10896
4557000000,-57.908699,167.66225
4560000000,-57.815525,153.62326
4563000000,-57.825352,132.13594
4566000000,-57.583817,117.71043
4569000000,-57.573463,97.840385
4572000000,-57.602489,78.203072
4575000000,-57.476532,60.659927
4578000000,-57.611164,41.174854
4581000000,-57.80415,24.441254
4584000000,-57.916214,7.0637908
4587000000,-57.985294,-11.471191
4590000000,-58.089928,-28.037319
4593000000,-58.261208,-44.638992
4596000000,-58.009319,-61.309349
4599000000,-57.707306,-80.394531
4602000000,-57.619999,-98.896492
4605000000,-57.545925,-118.6804
4608000000,-57.668983,-137.39734
4611000000,-57.916222,-155.18715
4614000000,-57.657879,-172.00134
4617000000,-57.960159,170.14142
4620000000,-58.05344,151.11798
4623000000,-58.009247,132.61458
4626000000,-58.407162,115.2594
4629000000,-58.714298,97.22924
4632000000,-58.775837,79.288521
4635000000,-59.19408,61.995045
4638000000,-59.2868,45.997086
4641000000,-59.831005,24.941114
4644000000,-59.754803,13.617352
4647000000,-60.092323,-3.7509141
4650000000,-59.829075,-19.762466
4653000000,-59.940277,-38.154648
4656000000,-59.515522,-52.604916
4659000000,-59.663578,-71.17717
4662000000,-59.498566,-88.638222
4665000000,-59.542862,-105.55251
4668000000,-59.368332,-123.84528
4671000000,-59.572605,-140.6075
4674000000,-59.661072,-156.0735
4677000000,-59.627075,-172.17096
4680000000,-59.459621,171.6927
4683000000,-59.301483,153.81735
4686000000,-59.719246,135.65715
4689000000,-59.446507,120.15652
4692000000,-59.360237,102.33344
4695000000,-59.736412,84.181831
4698000000,-59.689224,67.067741
4701000000,-59.577202,49.972866
4704000000,-59.414001,34.448566
4707000000,-59.369545,17.879478
4710000000,-59.000378,1.0318518
4713000000,-59.416126,-17.902931
4716000000,-59.103767,-33.095272
4719000000,-59.104271,-51.533508
4722000000,-58.758404,-67.121613
4725000000,-58.776283,-85.729439
4728000000,-58.74839,-102.51881
4731000000,-58.553829,-118.40275
4734000000,-58.473866,-138.3904
4737000000,-58.196915,-156.34912
4740000000,-57.916191,-174.23778
4743000000,-58.071667,168.98764
4746000000,-57.835136,148.61116
4749000000,-57.85778,130.58
4752000000,-57.919205,112.84265
4755000000,-57.939468,94.55336
4758000000,-57.937149,76.945892
4761000000,-57.951454,59.874035
4764000000,-57.653046,40.184155
4767000000,-57.747543,22.184404
4770000000,-57.890957,2.8904722
4773000000,-57.997005,-14.560683
4776000000,-58.270428,-31.902407
4779000000,-58.278851,-48.590546
4782000000,-58.249474,-64.954865
4785000000,-58.089367,-83.690742
4788000000,-58.471367,-98.861755
4791000000,-58.32056,-118.47298
4794000000,-58.243618,-135.96239
4797000000,-58.102879,-155.08365
4800000000,-58.141552,-171.91194
4803000000,-58.085037,170.01105
4806000000,-58.508179,151.63135
4809000000,-58.607021,134.77635
4812000000,-58.555546,115.62879
4815000000,-58.326328,99.569199
4818000000,-58.291336,81.178276
4821000000,-58.707817,63.734852
4824000000,-58.910137,46.023438
4827000000,-58.796021,30.540386
4830000000,-58.66169,12.410487
4833000000,-58.674355,-6.4666834
4836000000,-58.649239,-24.45719
4839000000,-58.997936,-39.541302
