!CSV A.01.01
!Keysight Technologies,N5227B,US58420762,A.13.80.08
!Date: Monday, November 20, 2023 16:25:31
!Source: Standard

BEGIN CH1_DATA
Freq(Hz),S21(DB),S21(DEG)
3000000000,-58.881371,104.69733
3003000000,-58.437725,89.865067
3006000000,-58.26939,73.954971
3009000000,-57.938564,58.326366
3012000000,-57.509823,41.307259
3015000000,-57.506187,23.682171
3018000000,-57.245831,5.7178864
3021000000,-57.321262,-11.120573
3024000000,-57.390331,-28.757662
3027000000,-57.441746,-44.461525
3030000000,-57.4776,-61.054749
3033000000,-57.462807,-76.819786
3036000000,-57.32922,-92.893753
3039000000,-57.320976,-109.78558
3042000000,-57.351948,-125.47308
3045000000,-57.413372,-142.08841
3048000000,-57.463974,-158.05522
3051000000,-57.518932,-174.0869
3054000000,-57.499523,170.11021
3057000000,-57.278095,155.47406
3060000000,-57.204029,139.38405
3063000000,-56.921452,122.98152
3066000000,-56.954552,105.94062
3069000000,-56.989124,87.651604
3072000000,-57.100552,70.305946
3075000000,-57.23505,54.295307
3078000000,-57.464138,38.14909
3081000000,-57.449623,23.79833
3084000000,-57.587238,9.2017021
3087000000,-57.488083,-7.5742888
3090000000,-57.380367,-22.945986
3093000000,-57.412201,-39.925064
3096000000,-57.338562,-55.787296
3099000000,-57.305614,-72.442467
3102000000,-57.310131,-89.65715
3105000000,-57.169628,-105.44693
3108000000,-57.221645,-120.42161
3111000000,-57.289906,-139.14334
3114000000,-57.345589,-156.55904
3117000000,-57.798729,-172.41327
3120000000,-58.189217,171.51634
3123000000,-58.346039,154.72134
3126000000,-58.772156,141.23428
3129000000,-58.905704,128.20076
3132000000,-58.783756,114.93084
3135000000,-58.491497,101.16203
3138000000,-58.339069,85.495934
3141000000,-57.958115,69.762726
3144000000,-57.861942,52.820168
3147000000,-57.702999,37.886211
3150000000,-57.908657,20.923178
3153000000,-57.707558,5.0744066
3156000000,-57.812092,-10.570252
3159000000,-57.618435,-27.327475
3162000000,-57.523674,-43.438251
3165000000,-57.43615,-59.313671
3168000000,-57.568825,-77.85463
3171000000,-57.681091,-94.493523
3174000000,-57.846241,-109.98705
3177000000,-57.916733,-124.8402
3180000000,-57.928558,-139.80009
3183000000,-56.474102,-154.06616
3186000000,-56.658615,-170.29903
3189000000,-56.659813,172.95407
3192000000,-56.911362,156.40398
3195000000,-57.075073,141.71191
3198000000,-57.337898,126.86983
3201000000,-57.303684,113.56242
3204000000,-56.91732,97.971428
3207000000,-56.835857,83.180779
3210000000,-56.59988,67.873108
3213000000,-56.377445,50.903961
3216000000,-56.29348,34.085541
3219000000,-56.563988,18.586569
3222000000,-56.41449,2.0428638
3225000000,-56.337227,-13.430387
3228000000,-56.269176,-28.794968
3231000000,-56.161465,-45.423489
3234000000,-56.045826,-61.426289
3237000000,-56.055191,-80.353577
3240000000,-56.383842,-97.299271
3243000000,-56.835464,-113.50756
3246000000,-57.023544,-127.09941
3249000000,-56.945778,-140.50935
3252000000,-56.810963,-156.31757
3255000000,-56.63245,-169.85275
3258000000,-56.313274,174.45917
3261000000,-56.082886,157.16034
3264000000,-55.885201,141.22423
3267000000,-55.989979,124.53372
3270000000,-55.874622,108.76482
3273000000,-55.922009,92.612816
3276000000,-55.702934,76.355293
3279000000,-55.501995,59.105362
3282000000,-55.564297,42.972637
3285000000,-55.60751,25.596441
3288000000,-55.731018,8.6142683
3291000000,-55.752636,-8.8200798
3294000000,-55.910675,-24.469372
3297000000,-56.103405,-41.022003
3300000000,-56.17841,-54.843723
3303000000,-56.31134,-71.795273
3306000000,-56.353443,-88.715508
3309000000,-56.389473,-105.16011
3312000000,-56.342861,-119.99289
3315000000,-56.446037,-136.55478
3318000000,-56.605644,-152.58768
3321000000,-56.601711,-167.79283
3324000000,-56.570385,175.91637
3327000000,-56.468456,160.39676
3330000000,-56.54393,144.16106
3333000000,-56.483574,127.85475
3336000000,-56.517239,110.70919
3339000000,-56.749226,93.225853
3342000000,-57.00423,77.814491
3345000000,-57.331024,61.192158
3348000000,-57.583847,46.994175
3351000000,-57.536827,32.338951
3354000000,-57.559338,17.043066
3357000000,-57.682907,0.20406671
3360000000,-57.752831,-15.567509
3363000000,-58.34174,-31.66222
3366000000,-58.409031,-46.369396
3369000000,-58.643353,-57.229237
3372000000,-58.731182,-70.385841
3375000000,-58.498646,-85.023605
3378000000,-58.230232,-100.04908
3381000000,-58.017097,-114.71548
3384000000,-57.849209,-131.29659
3387000000,-58.054684,-145.71127
3390000000,-58.145111,-162.13637
3393000000,-57.787743,-175.19208
3396000000,-57.580269,169.86882
3399000000,-57.405071,153.87373
3402000000,-57.160702,137.44917
3405000000,-56.614521,120.71129
3408000000,-56.808418,104.40512
3411000000,-56.752087,85.956215
3414000000,-57.013012,70.153976
3417000000,-56.93726,54.507542
3420000000,-57.26722,38.595982
3423000000,-57.009228,24.875683
3426000000,-56.752048,8.6553946
3429000000,-56.779362,-8.1513004
3432000000,-56.84103,-25.43479
3435000000,-57.041195,-38.990147
3438000000,-57.103928,-53.386719
3441000000,-56.759708,-69.637817
3444000000,-56.473404,-84.149979
3447000000,-56.242798,-100.50751
3450000000,-55.910034,-117.74659
3453000000,-55.768955,-135.61497
3456000000,-55.688293,-153.60966
3459000000,-55.651646,-171.21431
3462000000,-56.10144,171.43631
3465000000,-56.152405,154.58659
3468000000,-56.214233,139.20438
3471000000,-56.337654,122.74761
3474000000,-56.367477,104.73138
3477000000,-56.520603,87.22036
3480000000,-56.745914,71.079544
3483000000,-57.36636,54.961575
3486000000,-57.706856,39.8559
3489000000,-57.998539,27.473656
3492000000,-57.687237,14.183888
3495000000,-57.493717,-1.7666631
3498000000,-57.474491,-18.834177
3501000000,-57.683098,-34.259331
3504000000,-57.504345,-50.934528
3507000000,-57.538647,-66.926559
3510000000,-58.036644,-82.025276
3513000000,-58.2048,-96.693954
3516000000,-58.045841,-109.38149
3519000000,-57.843021,-125.53365
3522000000,-57.715305,-142.07002
3525000000,-57.736347,-157.99278
3528000000,-57.815556,-174.60738
3531000000,-58.00116,169.4919
3534000000,-58.303436,155.44856
3537000000,-58.386311,140.0179
3540000000,-58.315876,127.29454
3543000000,-58.084473,112.76818
3546000000,-57.947639,96.802071
3549000000,-57.895927,78.659218
3552000000,-57.924461,63.056839
3555000000,-58.081135,47.796768
3558000000,-58.350773,32.040157
3561000000,-58.229561,18.744041
3564000000,-58.084408,3.5198762
3567000000,-58.184708,-10.439904
3570000000,-57.91,-25.868643
3573000000,-58.008698,-41.721455
3576000000,-57.747578,-56.356419
3579000000,-57.757195,-72.661621
3582000000,-57.681797,-86.732147
3585000000,-57.374008,-102.26062
3588000000,-57.234921,-117.67166
3591000000,-57.128582,-132.91719
3594000000,-56.598755,-148.57863
3597000000,-56.422806,-165.77521
3600000000,-56.235725,176.03122
3603000000,-56.457539,158.62947
3606000000,-56.482449,140.98698
3609000000,-56.652893,125.19606
3612000000,-56.864452,110.38381
3615000000,-56.617153,96.437263
3618000000,-56.526405,80.44384
3621000000,-56.333519,63.602055
3624000000,-56.313053,48.711769
3627000000,-56.0993,29.950466
3630000000,-56.305145,12.062531
3633000000,-56.440895,-3.250875
3636000000,-56.531994,-17.35076
3639000000,-56.318085,-32.812729
3642000000,-56.279167,-49.920071
3645000000,-56.116676,-65.827385
3648000000,-56.16618,-83.191322
3651000000,-56.212914,-100.29724
3654000000,-56.418407,-116.75255
3657000000,-56.597771,-132.66505
3660000000,-56.846924,-147.98346
3663000000,-56.733967,-162.24011
3666000000,-56.420982,-176.98441
3669000000,-56.402264,166.04057
3672000000,-56.444351,149.58017
3675000000,-56.536846,131.82098
3678000000,-56.755661,114.14693
3681000000,-56.830227,97.301262
3684000000,-57.113457,81.288376
3687000000,-57.219795,66.226341
3690000000,-57.571381,50.637665
3693000000,-57.707474,36.809769
3696000000,-57.750278,22.030037
3699000000,-58.111156,4.0717926
3702000000,-58.459179,-8.1205368
3705000000,-58.501011,-22.801147
3708000000,-58.300667,-33.340103
3711000000,-58.290524,-46.530617
3714000000,-57.871799,-60.323967
3717000000,-57.405022,-76.877029
3720000000,-57.115723,-91.57135
3723000000,-57.137924,-108.38018
3726000000,-56.930782,-125.61189
3729000000,-56.836338,-142.56056
3732000000,-56.703114,-157.46381
3735000000,-56.821926,-173.44527
3738000000,-56.734348,170.88805
3741000000,-56.545933,154.24826
3744000000,-56.464912,137.50487
3747000000,-56.727825,120.49652
3750000000,-56.747116,104.47157
3753000000,-56.917202,90.394936
3756000000,-56.924999,75.918648
3759000000,-56.690029,60.769253
3762000000,-56.538002,46.515625
3765000000,-56.491341,30.684608
3768000000,-56.155025,14.884263
3771000000,-56.162701,-1.2667375
3774000000,-56.154671,-18.144335
3777000000,-56.138756,-34.287666
3780000000,-56.222717,-48.568729
3783000000,-55.845921,-64.469772
3786000000,-55.567383,-81.485985
3789000000,-55.499943,-97.192169
3792000000,-55.454838,-113.03734
3795000000,-55.212898,-129.89844
3798000000,-55.269539,-146.17197
3801000000,-55.129299,-162.66531
3804000000,-55.144348,-179.96429
3807000000,-55.160564,164.6572
3810000000,-54.949917,148.99663
3813000000,-54.783096,131.37651
3816000000,-54.785496,114.40554
3819000000,-54.635948,96.377831
3822000000,-54.768745,79.845467
3825000000,-55.076107,63.573299
3828000000,-55.279541,46.833706
3831000000,-55.183537,30.020899
3834000000,-55.358303,15.222074
3837000000,-55.39307,1.2671634
3840000000,-55.339958,-15.065243
3843000000,-55.322334,-31.48621
3846000000,-55.475273,-48.013714
3849000000,-55.379948,-63.453114
3852000000,-55.34977,-79.209137
3855000000,-55.109234,-94.419243
3858000000,-55.004082,-110.60833
3861000000,-54.98019,-128.03061
3864000000,-54.97031,-145.30138
3867000000,-54.934471,-161.72556
3870000000,-55.133015,-178.76404
3873000000,-55.271339,165.46626
3876000000,-55.383423,149.84042
3879000000,-55.469906,135.02589
3882000000,-55.50108,118.16566
3885000000,-55.563751,102.46839
3888000000,-55.466667,86.665497
3891000000,-55.81469,70.424561
3894000000,-55.832203,54.670563
3897000000,-55.832603,39.735744
3900000000,-55.982517,24.409233
3903000000,-55.970455,9.6002274
3906000000,-55.919876,-5.4139347
3909000000,-55.869404,-20.629967
3912000000,-55.708855,-35.753563
3915000000,-55.649818,-52.941494
3918000000,-55.516087,-69.180931
3921000000,-55.446522,-84.443031
3924000000,-55.522572,-101.02731
3927000000,-55.355278,-116.01196
3930000000,-55.337078,-132.55916
3933000000,-55.216366,-148.98456
3936000000,-55.0247,-165.33507
3939000000,-55.318047,177.22308
3942000000,-55.356319,162.00714
3945000000,-55.192654,145.81798
3948000000,-55.18222,129.74615
3951000000,-55.334129,114.34084
3954000000,-55.191757,96.900551
3957000000,-55.078732,81.368698
3960000000,-54.807777,65.598343
3963000000,-54.983902,48.53616
3966000000,-55.019127,31.850603
3969000000,-55.165768,15.598089
3972000000,-55.156548,-1.4723082
3975000000,-55.239933,-16.95359
3978000000,-55.092621,-32.884624
3981000000,-55.207836,-48.809708
3984000000,-55.083801,-66.190712
3987000000,-55.262005,-83.17495
3990000000,-55.353683,-100.12036
3993000000,-55.386654,-117.3022
3996000000,-55.778774,-132.4718
3999000000,-55.848564,-147.65799
4002000000,-55.759613,-162.34624
4005000000,-55.853882,-179.34727
4008000000,-55.907299,165.33385
4011000000,-56.001789,149.45915
4014000000,-56.076557,132.41446
4017000000,-56.461529,116.84638
4020000000,-56.736641,101.38751
4023000000,-56.61557,86.708984
4026000000,-56.451736,73.160316
4029000000,-56.387482,57.842339
4032000000,-56.360088,40.897621
4035000000,-56.177746,24.246408
4038000000,-56.226025,7.5371137
4041000000,-56.328075,-8.8636761
4044000000,-56.512569,-24.048103
4047000000,-56.636772,-39.156849
4050000000,-56.711071,-54.54126
4053000000,-56.350788,-68.717438
4056000000,-56.59174,-85.773163
4059000000,-56.720871,-104.0691
4062000000,-56.715088,-117.88448
4065000000,-56.848831,-133.62044
4068000000,-56.870148,-149.23582
4071000000,-56.644447,-166.81252
4074000000,-56.941891,179.01097
4077000000,-56.891499,164.81313
4080000000,-56.629417,150.21117
4083000000,-56.378819,133.54449
4086000000,-56.565506,116.73322
4089000000,-56.624481,99.999985
4092000000,-56.465244,84.120079
4095000000,-56.739182,70.540871
4098000000,-56.380272,53.663731
4101000000,-56.514805,38.203671
4104000000,-56.576893,22.359203
4107000000,-56.4589,6.8506675
4110000000,-56.417042,-11.497488
4113000000,-56.501389,-27.11088
4116000000,-56.511482,-42.796883
4119000000,-56.711647,-58.366978
4122000000,-56.715515,-73.396179
4125000000,-56.490482,-90.229767
4128000000,-56.756763,-105.27051
4131000000,-56.573387,-122.45031
4134000000,-56.417965,-137.59842
4137000000,-56.530991,-153.17767
4140000000,-56.671204,-166.54782
4143000000,-56.457066,176.73897
4146000000,-56.182076,160.05261
4149000000,-56.179485,144.23207
4152000000,-56.187084,127.53444
4155000000,-55.940407,111.38126
4158000000,-55.987297,93.423691
4161000000,-56.023552,76.569519
4164000000,-56.273972,60.483196
4167000000,-56.346626,43.43364
4170000000,-56.506905,27.315109
4173000000,-56.787498,10.291506
4176000000,-56.720264,-3.7042711
4179000000,-56.973152,-20.100397
4182000000,-56.915253,-35.26067
4185000000,-56.864609,-51.586826
4188000000,-56.72514,-66.839928
4191000000,-56.920837,-82.229729
4194000000,-56.785858,-98.977585
4197000000,-56.834496,-114.76371
4200000000,-56.744083,-130.43503
4203000000,-56.529846,-148.58092
4206000000,-56.941349,-163.37881
4209000000,-57.009018,-179.63736
4212000000,-56.871185,165.09641
4215000000,-57.068398,147.90938
4218000000,-56.960751,130.91882
4221000000,-57.190495,115.78835
4224000000,-57.463882,97.4617
4227000000,-57.329922,84.279419
4230000000,-57.481201,65.098228
4233000000,-57.886982,50.59409
4236000000,-58.125629,34.667671
4239000000,-58.329914,20.520521
4242000000,-58.271862,4.9668026
4245000000,-58.279598,-11.038152
4248000000,-58.329548,-24.031723
4251000000,-58.31612,-41.385342
4254000000,-58.450516,-57.092136
4257000000,-58.673977,-71.240875
4260000000,-58.696133,-83.087128
4263000000,-58.415047,-98.974182
4266000000,-58.433624,-114.03008
4269000000,-58.180244,-130.86249
4272000000,-58.186848,-146.44048
4275000000,-58.28701,-163.29906
4278000000,-58.107891,-178.76973
4281000000,-58.112705,165.65605
4284000000,-57.965332,151.09161
4287000000,-58.692493,134.08284
4290000000,-58.321342,118.5592
4293000000,-58.268829,103.74292
4296000000,-58.070644,88.655586
4299000000,-58.249306,70.983673
4302000000,-58.268894,57.228947
4305000000,-58.562546,43.190369
4308000000,-58.378731,26.162806
4311000000,-58.379795,12.315251
4314000000,-58.007374,-5.4943871
4317000000,-57.744652,-19.490587
4320000000,-57.420422,-36.651661
4323000000,-57.431721,-53.998547
4326000000,-57.789936,-70.631622
4329000000,-57.759247,-84.618744
4332000000,-57.59885,-100.8615
4335000000,-57.100685,-115.68663
4338000000,-57.152103,-133.24574
4341000000,-57.293533,-151.07835
4344000000,-57.454861,-168.90253
4347000000,-57.376965,174.9579
4350000000,-57.63493,158.74654
4353000000,-57.752911,142.12488
4356000000,-57.676208,128.6196
4359000000,-57.84668,112.09515
4362000000,-57.761456,95.900414
4365000000,-57.667156,79.577599
4368000000,-57.786163,64.535866
4371000000,-57.691429,47.600899
4374000000,-57.698231,30.33814
4377000000,-57.727379,14.924195
4380000000,-57.871944,0.14815623
4383000000,-58.007576,-15.494887
4386000000,-57.940701,-31.600014
4389000000,-57.876598,-49.337952
4392000000,-57.737522,-64.660004
4395000000,-57.754452,-80.611877
4398000000,-57.529663,-97.42205
4401000000,-58.011566,-114.19843
4404000000,-58.076218,-129.54164
4407000000,-58.191929,-145.71872
4410000000,-58.320206,-162.88547
4413000000,-58.604061,-178.20827
4416000000,-58.457714,166.08533
4419000000,-58.822147,148.27701
4422000000,-58.937611,134.62038
4425000000,-59.252834,118.37252
4428000000,-59.206837,104.62911
4431000000,-59.246044,89.207047
4434000000,-59.469532,74.343437
4437000000,-59.363846,59.636303
4440000000,-59.30344,46.104362
4443000000,-59.324604,30.120148
4446000000,-59.252796,14.082065
4449000000,-59.264744,-2.031455
4452000000,-59.49699,-17.344797
4455000000,-59.076653,-32.106216
4458000000,-59.179573,-47.715652
4461000000,-59.017788,-65.061111
4464000000,-59.121284,-79.991119
4467000000,-58.861881,-97.707726
4470000000,-58.669792,-112.74283
4473000000,-59.290249,-128.97086
4476000000,-59.242905,-145.45609
4479000000,-59.399723,-159.99066
4482000000,-59.555466,-174.65236
4485000000,-59.517021,171.02071
4488000000,-59.321678,157.01245
4491000000,-59.02248,141.91107
4494000000,-59.013405,123.08411
4497000000,-59.45393,107.05792
4500000000,-59.464333,93.246323
4503000000,-59.477013,78.549881
4506000000,-59.087048,65.854027
4509000000,-59.08147,49.776077
4512000000,-58.989719,33.544071
4515000000,-58.843563,19.406437
4518000000,-58.443405,2.5707734
4521000000,-58.253342,-14.197038
4524000000,-58.513809,-31.021904
4527000000,-58.623238,-46.488766
4530000000,-58.075115,-61.246361
4533000000,-58.190285,-78.97039
4536000000,-58.037056,-95.798462
4539000000,-57.7784,-109.82407
4542000000,-57.765614,-126.47308
4545000000,-57.691578,-143.92715
4548000000,-57.622158,-161.82825
4551000000,-57.786465,-178.37975
4554000000,-57.707253,166.08043
4557000000,-57.765293,149.10995
4560000000,-57.543556,134.66788
4563000000,-57.716259,115.22623
4566000000,-57.927769,98.264557
4569000000,-57.956661,83.783363
4572000000,-58.07037,66.487946
4575000000,-58.023445,51.668453
4578000000,-58.332401,35.388416
4581000000,-57.96225,20.137917
4584000000,-57.79071,3.7489531
4587000000,-57.832172,-12.247767
4590000000,-57.903343,-29.577469
4593000000,-57.778553,-44.776756
4596000000,-58.145332,-62.995178
4599000000,-57.989178,-79.383537
4602000000,-58.165379,-97.21373
4605000000,-58.233833,-112.85835
4608000000,-58.589447,-128.82381
4611000000,-58.391937,-146.91316
4614000000,-58.581421,-161.1366
4617000000,-59.034409,-179.27844
4620000000,-59.349102,166.36125
4623000000,-59.60096,151.19022
4626000000,-59.440479,134.26193
4629000000,-59.739513,119.12043
4632000000,-59.970585,103.77715
4635000000,-60.099915,87.952759
4638000000,-60.218906,75.041328
4641000000,-60.354385,61.478275
4644000000,-60.405235,46.781502
4647000000,-60.572025,32.983482
4650000000,-60.52636,17.690704
4653000000,-60.426708,2.0361423
4656000000,-60.106339,-12.725632
4659000000,-60.482147,-28.305325
4662000000,-60.34008,-44.021847
4665000000,-59.909096,-58.881626
4668000000,-60.117218,-76.056313
4671000000,-60.0802,-89.966522
4674000000,-60.077698,-106.12015
4677000000,-59.878735,-118.09153
4680000000,-59.899773,-135.31216
4683000000,-59.909889,-151.82535
4686000000,-59.905834,-167.37274
4689000000,-59.978592,177.90353
4692000000,-59.803795,163.34409
4695000000,-59.745758,147.51299
4698000000,-59.669624,132.37469
4701000000,-59.411396,119.18674
4704000000,-59.083965,102.41157
4707000000,-58.995178,87.139641
4710000000,-59.045166,70.464584
4713000000,-58.945206,56.181778
4716000000,-58.395302,40.383522
4719000000,-58.466995,24.578405
4722000000,-58.123322,6.6218352
4725000000,-58.0079,-9.1858826
4728000000,-57.831966,-26.580843
4731000000,-57.732716,-44.390163
4734000000,-57.741234,-63.413334
4737000000,-57.904419,-79.557434
4740000000,-58.078178,-96.468422
4743000000,-58.256607,-110.97585
4746000000,-58.251991,-129.48497
4749000000,-57.946377,-144.04834
4752000000,-57.915306,-162.78693
4755000000,-57.920101,179.54091
4758000000,-58.215843,163.18085
4761000000,-58.285912,147.74184
4764000000,-58.753471,130.57219
4767000000,-58.772106,116.47358
4770000000,-58.723606,102.23147
4773000000,-58.766544,87.867195
4776000000,-58.617893,72.985443
4779000000,-58.471531,56.51268
4782000000,-58.392029,39.100315
4785000000,-58.759975,22.251221
4788000000,-58.68145,7.2246833
4791000000,-58.600266,-7.2686296
4794000000,-58.745731,-22.568392
4797000000,-58.45187,-38.779125
4800000000,-58.001019,-56.821808
4803000000,-58.148155,-74.311882
4806000000,-58.164051,-91.29628
4809000000,-58.542355,-107.93289
4812000000,-58.709999,-123.90154
4815000000,-59.237782,-141.10674
4818000000,-59.058609,-154.17575
4821000000,-58.91774,-170.50954
4824000000,-59.098526,174.46678
4827000000,-59.145493,158.90503
4830000000,-59.080322,142.78673
4833000000,-59.126648,127.0651
4836000000,-59.72403,110.29458
