!CSV A.01.01
!Keysight Technologies,N5227B,US58420762,A.13.80.08
!Date: Monday, November 20, 2023 16:10:38
!Source: Standard

BEGIN CH1_DATA
Time(s),S21(DB),S21(DEG)
1e-008,-120.38865,-79.532715
1.001e-008,-119.51067,-66.512787
1.002e-008,-118.73495,-52.952534
1.003e-008,-118.05238,-38.98391
1.004e-008,-117.45526,-24.698719
1.005e-008,-116.93649,-10.161008
1.006e-008,-116.4906,4.5776887
1.007e-008,-116.11282,19.483067
1.008e-008,-115.79955,34.525352
1.009e-008,-115.54728,49.686382
1.01e-008,-115.35372,64.946983
1.011e-008,-115.21775,80.299408
1.012e-008,-115.1377,95.727837
1.013e-008,-115.11313,111.23179
1.014e-008,-115.1443,126.80121
1.015e-008,-115.23106,142.43829
1.016e-008,-115.375,158.1393
1.017e-008,-115.57732,173.90607
1.018e-008,-115.84076,-170.25775
1.019e-008,-116.16814,-154.3463
1.02e-008,-116.56364,-138.35149
1.021e-008,-117.03221,-122.25713
1.022e-008,-117.58069,-106.04636
1.023e-008,-118.21677,-89.691055
1.024e-008,-118.95233,-73.149094
1.025e-008,-119.80014,-56.365356
1.026e-008,-120.77982,-39.247723
1.027e-008,-121.91405,-21.65365
1.028e-008,-123.23637,-3.3531644
1.029e-008,-124.78708,16.050484
1.03e-008,-126.61516,37.302475
1.031e-008,-128.74539,61.798916
1.032e-008,-131.05292,92.168571
1.033e-008,-132.8436,131.32446
1.034e-008,-132.84264,175.30502
1.035e-008,-131.21532,-147.00215
1.036e-008,-129.2327,-117.92531
1.037e-008,-127.47473,-94.31752
1.038e-008,-126.02354,-73.791496
1.039e-008,-124.85016,-55.063412
1.04e-008,-123.90653,-37.486431
1.041e-008,-123.1558,-20.699251
1.042e-008,-122.56804,-4.5135636
1.043e-008,-122.12279,11.182931
1.044e-008,-121.80248,26.441088
1.045e-008,-121.59711,41.288685
1.046e-008,-121.49543,55.705338
1.047e-008,-121.49147,69.665184
1.048e-008,-121.5765,83.110191
1.049e-008,-121.74267,95.963882
1.05e-008,-121.97772,108.11507
1.051e-008,-122.26537,119.44886
1.052e-008,-122.57875,129.82767
1.053e-008,-122.88088,139.1485
1.054e-008,-123.11786,147.36258
1.055e-008,-123.22986,154.5936
1.056e-008,-123.15728,161.1449
1.057e-008,-122.8702,167.51953
1.058e-008,-122.3741,174.25644
1.059e-008,-121.71322,-178.21764
1.06e-008,-120.94498,-169.67647
1.061e-008,-120.12767,-160.08121
1.062e-008,-119.30259,-149.51329
1.063e-008,-118.50101,-138.10458
1.064e-008,-117.74024,-125.98908
1.065e-008,-117.03072,-113.29462
1.066e-008,-116.37703,-100.1277
1.067e-008,-115.78184,-86.574638
1.068e-008,-115.24436,-72.707413
1.069e-008,-114.76488,-58.583012
1.07e-008,-114.34066,-44.24416
1.071e-008,-113.97168,-29.730482
1.072e-008,-113.65591,-15.06881
1.073e-008,-113.39261,-0.28471521
1.074e-008,-113.18041,14.603571
1.075e-008,-113.01881,29.577978
1.076e-008,-112.90723,44.624981
1.077e-008,-112.84641,59.734596
1.078e-008,-112.83537,74.894409
1.079e-008,-112.87551,90.096893
1.08e-008,-112.96757,105.33422
1.081e-008,-113.11324,120.6004
1.082e-008,-113.31406,135.88733
1.083e-008,-113.57314,151.19099
1.084e-008,-113.89342,166.50423
1.085e-008,-114.27933,-178.17641
1.086e-008,-114.736,-162.86003
1.087e-008,-115.2704,-147.55049
1.088e-008,-115.89136,-132.25775
1.089e-008,-116.61001,-116.98594
1.09e-008,-117.44154,-101.74902
1.091e-008,-118.40717,-86.559593
1.092e-008,-119.53529,-71.444809
1.093e-008,-120.87019,-56.422962
1.094e-008,-122.47466,-41.568001
1.095e-008,-124.46418,-26.983408
1.096e-008,-127.04359,-12.915036
1.097e-008,-130.67125,-0.11698839
1.098e-008,-136.75662,7.6883965
1.099e-008,-148.66779,-60.756439
1.1e-008,-136.46919,-113.40423
1.101e-008,-130.99522,-104.99657
1.102e-008,-127.79485,-92.290047
1.103e-008,-125.59747,-78.530273
1.104e-008,-123.97421,-64.388275
1.105e-008,-122.72977,-50.10704
1.106e-008,-121.75785,-35.805843
1.107e-008,-120.99635,-21.551701
1.108e-008,-120.40486,-7.3958116
1.109e-008,-119.95579,6.6154308
1.11e-008,-119.62962,20.442209
1.111e-008,-119.4119,34.041832
1.112e-008,-119.29049,47.36021
1.113e-008,-119.25559,60.336826
1.114e-008,-119.29633,72.906441
1.115e-008,-119.40202,84.999817
1.116e-008,-119.55817,96.529762
1.117e-008,-119.74664,107.41415
1.118e-008,-119.94387,117.58484
1.119e-008,-120.11864,127.00681
1.12e-008,-120.23506,135.71228
1.121e-008,-120.25644,143.82457
1.122e-008,-120.15276,151.5687
1.123e-008,-119.90919,159.24872
1.124e-008,-119.53081,167.17413
1.125e-008,-119.04181,175.60547
1.126e-008,-118.47433,-175.29739
1.127e-008,-117.86315,-165.4628
1.128e-008,-117.23872,-154.91377
1.129e-008,-116.62423,-143.70822
1.13e-008,-116.03753,-131.92345
1.131e-008,-115.489,-119.64306
1.132e-008,-114.98621,-106.94775
1.133e-008,-114.53387,-93.905731
1.134e-008,-114.13457,-80.578445
1.135e-008,-113.78961,-67.016357
1.136e-008,-113.50047,-53.270191
1.137e-008,-113.26695,-39.374489
1.138e-008,-113.0902,-25.366367
1.139e-008,-112.97012,-11.275106
1.14e-008,-112.90799,2.867027
1.141e-008,-112.90465,17.035868
1.142e-008,-112.9616,31.199041
1.143e-008,-113.08051,45.329117
1.144e-008,-113.26392,59.392418
1.145e-008,-113.51453,73.349884
1.146e-008,-113.83588,87.156128
1.147e-008,-114.23214,100.75503
1.148e-008,-114.70745,114.0758
1.149e-008,-115.26675,127.0217
1.15e-008,-115.91406,139.46768
1.151e-008,-116.65144,151.24539
1.152e-008,-117.47581,162.11847
1.153e-008,-118.37177,171.78682
1.154e-008,-119.3013,179.87097
1.155e-008,-120.18481,-173.99753
1.156e-008,-120.88926,-169.97354
1.157e-008,-121.24835,-167.60976
1.158e-008,-121.14961,-165.71162
1.159e-008,-120.62283,-162.80644
1.16e-008,-119.81308,-157.95798
1.161e-008,-118.88222,-150.99033
1.162e-008,-117.94398,-142.17392
1.163e-008,-117.06043,-131.89944
1.164e-008,-116.26077,-120.51596
1.165e-008,-115.5555,-108.30152
1.166e-008,-114.94669,-95.459732
1.167e-008,-114.43256,-82.14241
1.168e-008,-114.00998,-68.462463
1.169e-008,-113.67621,-54.502815
1.17e-008,-113.42907,-40.330067
1.171e-008,-113.26737,-25.991858
1.172e-008,-113.19086,-11.532264
1.173e-008,-113.20086,3.0135903
1.174e-008,-113.30027,17.613462
1.175e-008,-113.49323,32.234241
1.176e-008,-113.78683,46.840702
1.177e-008,-114.19033,61.394592
1.178e-008,-114.71712,75.844269
1.179e-008,-115.38536,90.118607
1.18e-008,-116.22206,104.11639
1.181e-008,-117.26413,117.66959
1.182e-008,-118.56741,130.48532
1.183e-008,-120.21539,142.01048
1.184e-008,-122.33001,151.0356
1.185e-008,-125.03788,154.62828
1.186e-008,-127.99894,145.68707
1.187e-008,-128.62187,120.86002
1.188e-008,-125.79968,105.34029
1.189e-008,-122.64564,105.6155
1.19e-008,-120.0762,113.28908
1.191e-008,-118.02439,124.24709
1.192e-008,-116.35434,136.86281
1.193e-008,-114.96926,150.4131
1.194e-008,-113.80435,164.53537
1.195e-008,-112.81605,179.03581
1.196e-008,-111.97395,-166.205
1.197e-008,-111.25653,-151.26057
1.198e-008,-110.64822,-136.17867
1.199e-008,-110.13721,-120.99612
1.2e-008,-109.71498,-105.73452
1.201e-008,-109.37526,-90.41362
1.202e-008,-109.11359,-75.047424
1.203e-008,-108.92682,-59.647667
1.204e-008,-108.81308,-44.224682
1.205e-008,-108.77184,-28.78627
1.206e-008,-108.80324,-13.341208
1.207e-008,-108.90894,2.1025546
1.208e-008,-109.09155,17.536493
1.209e-008,-109.35507,32.951305
1.21e-008,-109.70532,48.335918
1.211e-008,-110.15005,63.676029
1.212e-008,-110.69958,78.952042
1.213e-008,-111.36845,94.13929
1.214e-008,-112.17611,109.20047
1.215e-008,-113.15055,124.075
1.216e-008,-114.33192,138.67036
1.217e-008,-115.78217,152.81604
1.218e-008,-117.60091,166.18294
1.219e-008,-119.96197,178.01524
1.22e-008,-123.19205,-173.76488
1.221e-008,-127.80254,-176.89893
1.222e-008,-131.25989,144.20531
1.223e-008,-126.90852,113.2151
1.224e-008,-122.67286,113.47627
1.225e-008,-119.73447,122.63083
1.226e-008,-117.59077,134.77736
1.227e-008,-115.95483,148.23395
1.228e-008,-114.67263,162.36414
1.229e-008,-113.65588,176.87506
1.23e-008,-112.85017,-168.38911
1.231e-008,-112.22015,-153.51695
1.232e-008,-111.74378,-138.56944
1.233e-008,-111.40572,-123.59066
1.234e-008,-111.19732,-108.61651
1.235e-008,-111.11362,-93.676704
1.236e-008,-111.1543,-78.808952
1.237e-008,-111.32224,-64.051025
1.238e-008,-111.62486,-49.45472
1.239e-008,-112.07393,-35.089581
1.24e-008,-112.68697,-21.056244
1.241e-008,-113.48991,-7.5165958
1.242e-008,-114.51946,5.268487
1.243e-008,-115.82507,16.831642
1.244e-008,-117.46936,26.280777
1.245e-008,-119.48937,31.799965
1.246e-008,-121.69214,29.845215
1.247e-008,-123.00306,17.194086
1.248e-008,-121.96698,2.3967683
1.249e-008,-119.55641,-2.3912036
1.25e-008,-117.15907,1.5036731
1.251e-008,-115.12704,10.089919
1.252e-008,-113.45152,21.156029
1.253e-008,-112.07171,33.621437
1.254e-008,-110.93397,46.936962
1.255e-008,-109.99957,60.797153
1.256e-008,-109.24124,75.021347
1.257e-008,-108.64072,89.497635
1.258e-008,-108.18652,104.15202
1.259e-008,-107.87276,118.93253
1.26e-008,-107.6984,133.80154
1.261e-008,-107.66762,148.73004
1.262e-008,-107.78981,163.69559
1.263e-008,-108.08224,178.67734
1.264e-008,-108.57176,-166.34462
1.265e-008,-109.30182,-151.39093
1.266e-008,-110.34315,-136.49304
1.267e-008,-111.82084,-121.69873
1.268e-008,-113.97925,-107.11395
1.269e-008,-117.40855,-93.071365
1.27e-008,-124.29583,-81.617172
1.271e-008,-132.8237,136.83562
1.272e-008,-118.97311,137.91956
1.273e-008,-113.53095,151.0873
1.274e-008,-110.01287,165.17084
1.275e-008,-107.38415,179.45604
1.276e-008,-105.27768,-166.23447
1.277e-008,-103.51962,-151.97577
1.278e-008,-102.01343,-137.81029
1.279e-008,-100.69955,-123.76953
1.28e-008,-99.538185,-109.87964
1.281e-008,-98.500961,-96.166924
1.282e-008,-97.566391,-82.655785
1.283e-008,-96.71698,-69.372223
1.284e-008,-95.93795,-56.341385
1.285e-008,-95.215645,-43.586849
1.286e-008,-94.53698,-31.129866
1.287e-008,-93.888809,-18.985367
1.288e-008,-93.257668,-7.1593776
1.289e-008,-92.629807,4.3548632
1.29e-008,-91.991592,15.58108
1.291e-008,-91.33007,26.562315
1.292e-008,-90.634209,37.361629
1.293e-008,-89.895737,48.058796
1.294e-008,-89.110153,58.744102
1.295e-008,-88.277046,69.509323
1.296e-008,-87.399834,80.438896
1.297e-008,-86.485008,91.601776
1.298e-008,-85.540962,103.04813
1.299e-008,-84.576828,114.80824
1.3e-008,-83.60157,126.89451
1.301e-008,-82.623299,139.30534
1.302e-008,-81.648949,152.02882
1.303e-008,-80.684158,165.04671
1.304e-008,-79.733345,178.33701
1.305e-008,-78.799812,-168.12358
1.306e-008,-77.885963,-154.35826
1.307e-008,-76.993439,-140.38922
1.308e-008,-76.123299,-126.23714
1.309e-008,-75.276131,-111.92093
1.31e-008,-74.452209,-97.457603
1.311e-008,-73.65152,-82.86248
1.312e-008,-72.873886,-68.149132
1.313e-008,-72.11898,-53.329639
1.314e-008,-71.386398,-38.4147
1.315e-008,-70.675674,-23.41374
1.316e-008,-69.986298,-8.3351536
1.317e-008,-69.317734,6.8136544
1.318e-008,-68.669464,22.026102
1.319e-008,-68.040939,37.296383
1.32e-008,-67.431641,52.619293
1.321e-008,-66.841057,67.990227
1.322e-008,-66.268692,83.405045
1.323e-008,-65.714066,98.860077
1.324e-008,-65.17672,114.35202
1.325e-008,-64.656219,129.8779
1.326e-008,-64.152138,145.43503
1.327e-008,-63.664074,161.02103
1.328e-008,-63.191658,176.63371
1.329e-008,-62.734524,-167.7289
1.33e-008,-62.292328,-152.06857
1.331e-008,-61.864746,-136.38696
1.332e-008,-61.451469,-120.68554
1.333e-008,-61.052208,-104.96564
1.334e-008,-60.666683,-89.228516
1.335e-008,-60.294636,-73.475281
1.336e-008,-59.935814,-57.706997
1.337e-008,-59.589989,-41.924606
1.338e-008,-59.256931,-26.128986
1.339e-008,-58.936436,-10.320952
1.34e-008,-58.628307,5.4987497
1.341e-008,-58.332352,21.32943
1.342e-008,-58.048397,37.170452
1.343e-008,-57.776272,53.021206
1.344e-008,-57.515827,68.881149
1.345e-008,-57.266903,84.749763
1.346e-008,-57.029373,100.62658
1.347e-008,-56.803093,116.51113
1.348e-008,-56.587952,132.40302
1.349e-008,-56.38382,148.30183
1.35e-008,-56.190601,164.20724
1.351e-008,-56.00819,-179.88113
1.352e-008,-55.836491,-163.96361
1.353e-008,-55.675419,-148.04047
1.354e-008,-55.524891,-132.11201
1.355e-008,-55.38483,-116.17853
1.356e-008,-55.255173,-100.24025
1.357e-008,-55.135849,-84.297401
1.358e-008,-55.026806,-68.350235
1.359e-008,-54.92799,-52.398956
1.36e-008,-54.839359,-36.443779
1.361e-008,-54.760868,-20.484882
1.362e-008,-54.692478,-4.5224652
1.363e-008,-54.634167,11.443299
1.364e-008,-54.585907,27.412249
1.365e-008,-54.547672,43.38422
1.366e-008,-54.519459,59.359058
1.367e-008,-54.501247,75.336609
1.368e-008,-54.493042,91.316742
1.369e-008,-54.494835,107.29932
1.37e-008,-54.506638,123.28419
1.371e-008,-54.528458,139.27126
1.372e-008,-54.560314,155.26038
1.373e-008,-54.602226,171.25143
1.374e-008,-54.654224,-172.75569
1.375e-008,-54.716339,-156.76109
1.376e-008,-54.788609,-140.76491
1.377e-008,-54.871075,-124.76722
1.378e-008,-54.963795,-108.76816
1.379e-008,-55.066814,-92.767822
1.38e-008,-55.180202,-76.766304
1.381e-008,-55.304028,-60.763725
1.382e-008,-55.438362,-44.760181
1.383e-008,-55.58329,-28.755779
1.384e-008,-55.738903,-12.75062
1.385e-008,-55.9053,3.255188
1.386e-008,-56.082581,19.261538
1.387e-008,-56.270866,35.268322
1.388e-008,-56.470272,51.275417
1.389e-008,-56.680943,67.282722
1.39e-008,-56.903004,83.290108
1.391e-008,-57.136627,99.297447
1.392e-008,-57.381962,115.3046
1.393e-008,-57.639194,131.31146
1.394e-008,-57.908508,147.31786
1.395e-008,-58.190113,163.32362
1.396e-008,-58.484219,179.32861
1.397e-008,-58.791065,-164.66737
1.398e-008,-59.110901,-148.66451
1.399e-008,-59.444,-132.66302
1.4e-008,-59.790646,-116.66314
1.401e-008,-60.151161,-100.66513
1.402e-008,-60.525871,-84.669243
1.403e-008,-60.91515,-68.675827
1.404e-008,-61.319386,-52.685204
1.405e-008,-61.739002,-36.697781
1.406e-008,-62.174461,-20.713987
1.407e-008,-62.626259,-4.734313
1.408e-008,-63.094944,11.240667
1.409e-008,-63.581104,27.210314
1.41e-008,-64.085388,43.173893
1.411e-008,-64.608513,59.130562
1.412e-008,-65.151245,75.079315
1.413e-008,-65.714447,91.019035
1.414e-008,-66.299065,106.94838
1.415e-008,-66.906158,122.86576
1.416e-008,-67.536896,138.76933
1.417e-008,-68.192589,154.65688
1.418e-008,-68.874702,170.52574
1.419e-008,-69.584908,-173.6273
1.42e-008,-70.325073,-157.80614
1.421e-008,-71.097351,-142.01555
1.422e-008,-71.904213,-126.26144
1.423e-008,-72.748497,-110.55122
1.424e-008,-73.633514,-94.894234
1.425e-008,-74.563148,-79.302391
1.426e-008,-75.541977,-63.791145
1.427e-008,-76.575462,-48.38084
1.428e-008,-77.670174,-33.098598
1.429e-008,-78.834061,-17.98147
1.43e-008,-80.076859,-3.0808876
1.431e-008,-81.410515,11.529608
1.432e-008,-82.849716,25.742416
1.433e-008,-84.412224,39.394547
1.434e-008,-86.118576,52.231556
1.435e-008,-87.988953,63.842155
1.436e-008,-90.031586,73.548889
1.437e-008,-92.205429,80.260925
1.438e-008,-94.321678,82.510948
1.439e-008,-95.901894,79.614273
1.44e-008,-96.374596,74.438263
1.441e-008,-95.802536,72.353767
1.442e-008,-94.787003,75.573509
1.443e-008,-93.760689,83.140953
1.444e-008,-92.881889,93.621056
1.445e-008,-92.181107,105.99966
1.446e-008,-91.648041,119.65755
1.447e-008,-91.263031,134.22464
1.448e-008,-91.006927,149.47778
1.449e-008,-90.863235,165.28204
1.45e-008,-90.818436,-178.44226
1.451e-008,-90.861252,-161.73853
1.452e-008,-90.982147,-144.62434
1.453e-008,-91.172539,-127.0976
1.454e-008,-91.424179,-109.14117
1.455e-008,-91.728355,-90.724091
1.456e-008,-92.075096,-71.806084
1.457e-008,-92.452225,-52.340073
1.458e-008,-92.844353,-32.278923
1.459e-008,-93.232162,-11.585594
1.46e-008,-93.592003,9.7526302
1.461e-008,-93.896904,31.705332
1.462e-008,-94.119255,54.182316
1.463e-008,-94.235237,77.026215
1.464e-008,-94.230118,100.02444
1.465e-008,-94.101837,122.94193
1.466e-008,-93.861259,145.56339
1.467e-008,-93.528603,167.72731
1.468e-008,-93.128288,-170.6599
1.469e-008,-92.684326,-149.62927
1.47e-008,-92.217285,-129.16617
1.471e-008,-91.743187,-109.22803
1.472e-008,-91.273659,-89.759262
1.473e-008,-90.816544,-70.70063
1.474e-008,-90.376862,-51.995842
1.475e-008,-89.95742,-33.593437
1.476e-008,-89.55957,-15.448154
1.477e-008,-89.18364,2.4785843
1.478e-008,-88.829239,20.220406
1.479e-008,-88.495605,37.80526
1.48e-008,-88.181618,55.257103
1.481e-008,-87.886086,72.595985
1.482e-008,-87.607727,89.838966
1.483e-008,-87.345222,107.00033
1.484e-008,-87.097282,124.09219
1.485e-008,-86.862679,141.12476
1.486e-008,-86.640244,158.10669
1.487e-008,-86.428856,175.04523
1.488e-008,-86.227501,-168.05368
1.489e-008,-86.03524,-151.18489
1.49e-008,-85.851234,-134.34416
1.491e-008,-85.674683,-117.52812
1.492e-008,-85.504913,-100.73392
1.493e-008,-85.341316,-83.959335
1.494e-008,-85.183388,-67.202621
1.495e-008,-85.03067,-50.462482
1.496e-008,-84.882805,-33.737797
1.497e-008,-84.739502,-17.027933
1.498e-008,-84.60054,-0.33234781
1.499e-008,-84.465752,16.34923
1.5e-008,-84.335045,33.016987
1.501e-008,-84.208359,49.670906
1.502e-008,-84.085724,66.31102
1.503e-008,-83.967171,82.937248
1.504e-008,-83.852806,99.549446
1.505e-008,-83.742744,116.14756
1.506e-008,-83.637146,132.73154
1.507e-008,-83.536194,149.3013
1.508e-008,-83.440079,165.85692
1.509e-008,-83.349014,-177.60159
1.51e-008,-83.263245,-161.07405
1.511e-008,-83.183006,-144.56029
1.512e-008,-83.108521,-128.05998
1.513e-008,-83.040047,-111.57284
1.514e-008,-82.977814,-95.098305
1.515e-008,-82.922058,-78.635994
1.516e-008,-82.873024,-62.185287
1.517e-008,-82.830917,-45.745537
1.518e-008,-82.795952,-29.316006
1.519e-008,-82.768341,-12.895908
1.52e-008,-82.74826,3.5156217
1.521e-008,-82.735886,19.919456
1.522e-008,-82.731392,36.316662
1.523e-008,-82.734924,52.708218
1.524e-008,-82.746597,69.095261
1.525e-008,-82.766548,85.478966
1.526e-008,-82.794853,101.86058
1.527e-008,-82.831612,118.24137
1.528e-008,-82.876892,134.62268
1.529e-008,-82.930725,151.00595
1.53e-008,-82.993164,167.39264
1.531e-008,-83.064194,-176.2157
1.532e-008,-83.143814,-159.81741
1.533e-008,-83.232002,-143.41086
1.534e-008,-83.328697,-126.99429
1.535e-008,-83.43383,-110.5659
1.536e-008,-83.54731,-94.123787
1.537e-008,-83.668999,-77.665993
1.538e-008,-83.798767,-61.19054
1.539e-008,-83.936417,-44.695324
1.54e-008,-84.081764,-28.178228
1.541e-008,-84.234566,-11.637037
1.542e-008,-84.394547,4.9304442
1.543e-008,-84.561401,21.526438
1.544e-008,-84.734795,38.153244
1.545e-008,-84.914337,54.813103
1.546e-008,-85.099609,71.508224
1.547e-008,-85.290146,88.24073
1.548e-008,-85.485428,105.01279
1.549e-008,-85.684906,121.82622
1.55e-008,-85.88797,138.68294
1.551e-008,-86.093994,155.58434
1.552e-008,-86.302254,172.5318
1.553e-008,-86.512054,-170.4738
1.554e-008,-86.72261,-153.43193
1.555e-008,-86.933136,-136.34235
1.556e-008,-87.142815,-119.20552
1.557e-008,-87.350822,-102.02243
1.558e-008,-87.556328,-84.794502
1.559e-008,-87.758537,-67.524033
1.56e-008,-87.956657,-50.213829
1.561e-008,-88.149971,-32.867268
1.562e-008,-88.337822,-15.488678
1.563e-008,-88.519608,1.9174471
1.564e-008,-88.69487,19.34584
1.565e-008,-88.863243,36.790634
1.566e-008,-89.024467,54.245926
1.567e-008,-89.178474,71.70546
1.568e-008,-89.325287,89.162865
1.569e-008,-89.46508,106.61189
1.57e-008,-89.59816,124.04636
1.571e-008,-89.724998,141.46056
1.572e-008,-89.846153,158.84918
1.573e-008,-89.962318,176.20715
1.574e-008,-90.074226,-166.46968
1.575e-008,-90.182739,-149.18486
1.576e-008,-90.288773,-131.94153
1.577e-008,-90.393227,-114.74192
1.578e-008,-90.497063,-97.587753
1.579e-008,-90.601265,-80.480064
1.58e-008,-90.706795,-63.41925
1.581e-008,-90.814621,-46.405312
1.582e-008,-90.925644,-29.437672
1.583e-008,-91.040794,-12.515465
1.584e-008,-91.160919,4.3626962
1.585e-008,-91.286858,21.198526
1.586e-008,-91.419388,37.99358
1.587e-008,-91.559273,54.750217
1.588e-008,-91.70723,71.470665
1.589e-008,-91.863914,88.157021
1.59e-008,-92.029945,104.81194
1.591e-008,-92.205971,121.43793
1.592e-008,-92.392517,138.03728
1.593e-008,-92.590134,154.61278
1.594e-008,-92.799286,171.16673
1.595e-008,-93.020485,-172.29822
1.596e-008,-93.254166,-155.77939
1.597e-008,-93.500755,-139.27464
1.598e-008,-93.760635,-122.78119
1.599e-008,-94.034187,-106.29681
1.6e-008,-94.321777,-89.819138
1.601e-008,-94.623695,-73.34539
1.602e-008,-94.940247,-56.873837
1.603e-008,-95.27179,-40.401756
1.604e-008,-95.618484,-23.926851
1.605e-008,-95.980667,-7.4472661
1.606e-008,-96.358383,9.0399847
1.607e-008,-96.751984,25.536388
1.608e-008,-97.161476,42.044445
1.609e-008,-97.586929,58.566605
1.61e-008,-98.028473,75.104286
1.611e-008,-98.486115,91.660187
1.612e-008,-98.959625,108.23557
1.613e-008,-99.448967,124.8328
1.614e-008,-99.953888,141.45357
1.615e-008,-100.47411,158.09912
