!CSV A.01.01
!Keysight Technologies,N5227B,US58420762,A.13.80.08
!Date: Monday, November 20, 2023 16:07:34
!Source: Standard

BEGIN CH1_DATA
Time(s),S21(DB),S21(DEG)
1e-008,-119.35949,-35.17078
1.001e-008,-119.24755,-20.000187
1.002e-008,-119.16511,-4.7428145
1.003e-008,-119.11239,10.619066
1.004e-008,-119.0901,26.108633
1.005e-008,-119.09898,41.739563
1.006e-008,-119.1396,57.539993
1.007e-008,-119.21335,73.529938
1.008e-008,-119.32018,89.737823
1.009e-008,-119.46116,106.19473
1.01e-008,-119.63608,122.93812
1.011e-008,-119.84467,140.00748
1.012e-008,-120.08508,157.4558
1.013e-008,-120.35385,175.33568
1.014e-008,-120.64597,-166.28616
1.015e-008,-120.9521,-147.34132
1.016e-008,-121.25952,-127.7685
1.017e-008,-121.54922,-107.50951
1.018e-008,-121.79707,-86.537422
1.019e-008,-121.97433,-64.890808
1.02e-008,-122.0508,-42.665623
1.021e-008,-122.00146,-20.053772
1.022e-008,-121.81255,2.6877258
1.023e-008,-121.48609,25.288893
1.024e-008,-121.04024,47.508507
1.025e-008,-120.5022,69.179802
1.026e-008,-119.90139,90.218719
1.027e-008,-119.26677,110.61066
1.028e-008,-118.62111,130.39287
1.029e-008,-117.98192,149.62263
1.03e-008,-117.36082,168.36772
1.031e-008,-116.76657,-173.3084
1.032e-008,-116.20369,-155.33975
1.033e-008,-115.67571,-137.67596
1.034e-008,-115.18377,-120.27011
1.035e-008,-114.72879,-103.08275
1.036e-008,-114.31091,-86.082741
1.037e-008,-113.92953,-69.242264
1.038e-008,-113.58437,-52.538639
1.039e-008,-113.27489,-35.953125
1.04e-008,-113.00013,-19.469463
1.041e-008,-112.75973,-3.075455
1.042e-008,-112.55299,13.240429
1.043e-008,-112.3795,29.488092
1.044e-008,-112.23867,45.674816
1.045e-008,-112.13023,61.808922
1.046e-008,-112.05379,77.893539
1.047e-008,-112.0093,93.936729
1.048e-008,-111.99656,109.94144
1.049e-008,-112.01562,125.91222
1.05e-008,-112.06657,141.85207
1.051e-008,-112.14954,157.7644
1.052e-008,-112.26493,173.65173
1.053e-008,-112.41313,-170.4816
1.054e-008,-112.59459,-154.63445
1.055e-008,-112.81017,-138.80266
1.056e-008,-113.0604,-122.98335
1.057e-008,-113.34639,-107.17374
1.058e-008,-113.66946,-91.370277
1.059e-008,-114.03073,-75.56604
1.06e-008,-114.4318,-59.758835
1.061e-008,-114.87445,-43.939751
1.062e-008,-115.36092,-28.103193
1.063e-008,-115.89365,-12.23592
1.064e-008,-116.47546,3.673754
1.065e-008,-117.10951,19.643494
1.066e-008,-117.80005,35.69276
1.067e-008,-118.55119,51.854721
1.068e-008,-119.3681,68.170166
1.069e-008,-120.257,84.692474
1.07e-008,-121.22454,101.49657
1.071e-008,-122.2775,118.69481
1.072e-008,-123.42197,136.43222
1.073e-008,-124.66151,154.9379
1.074e-008,-125.99042,174.52007
1.075e-008,-127.38342,-164.3866
1.076e-008,-128.77493,-141.25005
1.077e-008,-130.02382,-115.65478
1.078e-008,-130.91315,-87.709312
1.079e-008,-131.23868,-58.724697
1.08e-008,-130.97675,-30.749866
1.081e-008,-130.30894,-5.2640634
1.082e-008,-129.459,17.428368
1.083e-008,-128.57614,37.718754
1.084e-008,-127.73508,56.145016
1.085e-008,-126.9612,73.169128
1.086e-008,-126.25912,89.143333
1.087e-008,-125.62302,104.31915
1.088e-008,-125.0449,118.87957
1.089e-008,-124.51566,132.964
1.09e-008,-124.0264,146.68082
1.091e-008,-123.57108,160.1142
1.092e-008,-123.14349,173.33475
1.093e-008,-122.74052,-173.60022
1.094e-008,-122.35867,-160.64206
1.095e-008,-121.99753,-147.75021
1.096e-008,-121.65584,-134.89125
1.097e-008,-121.33512,-122.04737
1.098e-008,-121.03566,-109.19594
1.099e-008,-120.75901,-96.330971
1.1e-008,-120.50693,-83.443619
1.101e-008,-120.28101,-70.53389
1.102e-008,-120.08321,-57.612839
1.103e-008,-119.9146,-44.687634
1.104e-008,-119.77724,-31.767323
1.105e-008,-119.67229,-18.875153
1.106e-008,-119.60077,-6.028995
1.107e-008,-119.56329,6.7440481
1.108e-008,-119.55976,19.41995
1.109e-008,-119.59081,31.962591
1.11e-008,-119.65396,44.334824
1.111e-008,-119.74825,56.500294
1.112e-008,-119.86975,68.412094
1.113e-008,-120.01353,80.020996
1.114e-008,-120.17232,91.286644
1.115e-008,-120.33575,102.16161
1.116e-008,-120.49101,112.61732
1.117e-008,-120.62236,122.64008
1.118e-008,-120.71121,132.24921
1.119e-008,-120.73893,141.50658
1.12e-008,-120.68927,150.51392
1.121e-008,-120.55104,159.41602
1.122e-008,-120.32052,168.37749
1.123e-008,-120.0032,177.56026
1.124e-008,-119.61155,-172.89771
1.125e-008,-119.16286,-162.90167
1.126e-008,-118.67576,-152.39816
1.127e-008,-118.16825,-141.37233
1.128e-008,-117.65592,-129.84047
1.129e-008,-117.15128,-117.83433
1.13e-008,-116.66393,-105.3904
1.131e-008,-116.20099,-92.554588
1.132e-008,-115.76772,-79.363968
1.133e-008,-115.36767,-65.862495
1.134e-008,-115.00299,-52.079662
1.135e-008,-114.67573,-38.047688
1.136e-008,-114.3869,-23.789114
1.137e-008,-114.13737,-9.3273516
1.138e-008,-113.92751,5.3219485
1.139e-008,-113.75793,20.143726
1.14e-008,-113.62909,35.127422
1.141e-008,-113.54153,50.266167
1.142e-008,-113.49564,65.553963
1.143e-008,-113.49209,80.989777
1.144e-008,-113.53171,96.573044
1.145e-008,-113.61555,112.30804
1.146e-008,-113.74464,128.20322
1.147e-008,-113.92041,144.26672
1.148e-008,-114.14429,160.51712
1.149e-008,-114.41803,176.97433
1.15e-008,-114.74332,-166.3336
1.151e-008,-115.12178,-149.3699
1.152e-008,-115.55502,-132.08652
1.153e-008,-116.04407,-114.42146
1.154e-008,-116.58857,-96.29641
1.155e-008,-117.1858,-77.611046
1.156e-008,-117.8291,-58.238102
1.157e-008,-118.50484,-38.034016
1.158e-008,-119.18874,-16.838774
1.159e-008,-119.84122,5.4854093
1.16e-008,-120.40571,28.992413
1.161e-008,-120.81303,53.563251
1.162e-008,-120.99856,78.82534
1.163e-008,-120.93029,104.19868
1.164e-008,-120.62329,129.05913
1.165e-008,-120.13387,152.9446
1.166e-008,-119.5319,175.64958
1.167e-008,-118.88049,-162.82657
1.168e-008,-118.22546,-142.37042
1.169e-008,-117.59582,-122.82251
1.17e-008,-117.00926,-104.03494
1.171e-008,-116.47474,-85.873566
1.172e-008,-115.99609,-68.232521
1.173e-008,-115.57458,-51.026192
1.174e-008,-115.20947,-34.190182
1.175e-008,-114.89969,-17.675854
1.176e-008,-114.64365,-1.4438607
1.177e-008,-114.43917,14.531651
1.178e-008,-114.28475,30.268253
1.179e-008,-114.17845,45.781475
1.18e-008,-114.11858,61.074329
1.181e-008,-114.10345,76.150963
1.182e-008,-114.1315,91.007736
1.183e-008,-114.20079,105.63865
1.184e-008,-114.3093,120.03312
1.185e-008,-114.45501,134.17746
1.186e-008,-114.6348,148.05585
1.187e-008,-114.84577,161.64914
1.188e-008,-115.08329,174.93752
1.189e-008,-115.34245,-172.0994
1.19e-008,-115.61688,-159.47797
1.191e-008,-115.89864,-147.2132
1.192e-008,-116.17924,-135.30965
1.193e-008,-116.44866,-123.75745
1.194e-008,-116.69604,-112.53226
1.195e-008,-116.91123,-101.5884
1.196e-008,-117.08551,-90.8629
1.197e-008,-117.21387,-80.272247
1.198e-008,-117.29301,-69.718575
1.199e-008,-117.32532,-59.112488
1.2e-008,-117.31684,-48.365601
1.201e-008,-117.27653,-37.407593
1.202e-008,-117.21564,-26.189211
1.203e-008,-117.14583,-14.681984
1.204e-008,-117.07879,-2.8769565
1.205e-008,-117.02589,9.2237692
1.206e-008,-116.99691,21.597044
1.207e-008,-117.001,34.225342
1.208e-008,-117.04661,47.074581
1.209e-008,-117.14081,60.114639
1.21e-008,-117.29077,73.309952
1.211e-008,-117.50408,86.621941
1.212e-008,-117.7886,100.01334
1.213e-008,-118.15359,113.43902
1.214e-008,-118.60918,126.846
1.215e-008,-119.16835,140.16701
1.216e-008,-119.84804,153.31947
1.217e-008,-120.66895,166.1763
1.218e-008,-121.65986,178.54993
1.219e-008,-122.85744,-169.866
1.22e-008,-124.30926,-159.60326
1.221e-008,-126.06598,-151.6713
1.222e-008,-128.12003,-148.02815
1.223e-008,-130.15883,-151.97441
1.224e-008,-131.05435,-164.81303
1.225e-008,-129.85838,-177.13197
1.226e-008,-127.62811,179.68336
1.227e-008,-125.42608,-176.07431
1.228e-008,-123.52924,-167.66919
1.229e-008,-121.93349,-156.95644
1.23e-008,-120.58994,-144.88252
1.231e-008,-119.45287,-131.96591
1.232e-008,-118.48579,-118.48896
1.233e-008,-117.6615,-104.63085
1.234e-008,-116.96049,-90.498413
1.235e-008,-116.36774,-76.171936
1.236e-008,-115.87231,-61.702988
1.237e-008,-115.46532,-47.131016
1.238e-008,-115.14109,-32.486
1.239e-008,-114.89495,-17.793449
1.24e-008,-114.72359,-3.0769658
1.241e-008,-114.62561,11.647079
1.242e-008,-114.59982,26.355167
1.243e-008,-114.64666,41.031094
1.244e-008,-114.76742,55.649506
1.245e-008,-114.96482,70.186401
1.246e-008,-115.24212,84.610405
1.247e-008,-115.60463,98.883614
1.248e-008,-116.05844,112.9522
1.249e-008,-116.61288,126.74783
1.25e-008,-117.27779,140.17111
1.251e-008,-118.06637,153.08232
1.252e-008,-118.99307,165.2675
1.253e-008,-120.07152,176.40453
1.254e-008,-121.30764,-174.02246
1.255e-008,-122.67582,-166.79475
1.256e-008,-124.06339,-162.99573
1.257e-008,-125.17759,-163.50229
1.258e-008,-125.55399,-167.36456
1.259e-008,-124.96377,-170.85135
1.26e-008,-123.71703,-170.61136
1.261e-008,-122.26485,-166.16
1.262e-008,-120.86276,-158.49171
1.263e-008,-119.60232,-148.64871
1.264e-008,-118.50159,-137.36526
1.265e-008,-117.55213,-125.11369
1.266e-008,-116.74036,-112.19777
1.267e-008,-116.05263,-98.814598
1.268e-008,-115.4763,-85.100197
1.269e-008,-115.00218,-71.151505
1.27e-008,-114.62234,-57.035191
1.271e-008,-114.33141,-42.809174
1.272e-008,-114.12513,-28.511936
1.273e-008,-114.00124,-14.184576
1.274e-008,-113.95798,0.13921377
1.275e-008,-113.9959,14.425602
1.276e-008,-114.11569,28.637939
1.277e-008,-114.32025,42.734032
1.278e-008,-114.61295,56.66637
1.279e-008,-114.99934,70.369286
1.28e-008,-115.48562,83.762444
1.281e-008,-116.08012,96.732422
1.282e-008,-116.79082,109.1184
1.283e-008,-117.62611,120.6924
1.284e-008,-118.58838,131.11705
1.285e-008,-119.66288,139.89784
1.286e-008,-120.79518,146.3734
1.287e-008,-121.845,149.84201
1.288e-008,-122.55079,150.14435
1.289e-008,-122.62053,148.62691
1.29e-008,-121.98888,147.96548
1.291e-008,-120.89328,150.15677
1.292e-008,-119.62887,155.51811
1.293e-008,-118.38084,163.45326
1.294e-008,-117.23143,173.25288
1.295e-008,-116.2056,-175.64441
1.296e-008,-115.30582,-163.63132
1.297e-008,-114.52534,-150.97366
1.298e-008,-113.85546,-137.85573
1.299e-008,-113.2877,-124.40823
1.3e-008,-112.8147,-110.72672
1.301e-008,-112.43042,-96.881104
1.302e-008,-112.13011,-82.929153
1.303e-008,-111.91025,-68.919128
1.304e-008,-111.76868,-54.891754
1.305e-008,-111.70388,-40.888283
1.306e-008,-111.71548,-26.945881
1.307e-008,-111.80366,-13.10881
1.308e-008,-111.96961,0.57431102
1.309e-008,-112.21503,14.047531
1.31e-008,-112.54198,27.238874
1.311e-008,-112.95232,40.06002
1.312e-008,-113.44763,52.393291
1.313e-008,-114.02643,64.088623
1.314e-008,-114.6823,74.948883
1.315e-008,-115.39841,84.727158
1.316e-008,-116.13894,93.135826
1.317e-008,-116.83835,99.91745
1.318e-008,-117.39467,104.98289
1.319e-008,-117.68467,108.65316
1.32e-008,-117.61726,111.76254
1.321e-008,-117.1915,115.41508
1.322e-008,-116.4985,120.45455
1.323e-008,-115.66089,127.21011
1.324e-008,-114.78174,135.59807
1.325e-008,-113.92768,145.36122
1.326e-008,-113.13525,156.2119
1.327e-008,-112.422,167.90338
1.328e-008,-111.79472,-179.76294
1.329e-008,-111.25538,-166.93689
1.33e-008,-110.80325,-153.73627
1.331e-008,-110.43707,-140.25081
1.332e-008,-110.15526,-126.55042
1.333e-008,-109.95716,-112.6923
1.334e-008,-109.84264,-98.725212
1.335e-008,-109.81264,-84.69104
1.336e-008,-109.86897,-70.629776
1.337e-008,-110.01514,-56.58168
1.338e-008,-110.25593,-42.589802
1.339e-008,-110.59795,-28.703094
1.34e-008,-111.05022,-14.984259
1.341e-008,-111.62446,-1.5153285
1.342e-008,-112.33615,11.588451
1.343e-008,-113.20487,24.159595
1.344e-008,-114.2551,35.930126
1.345e-008,-115.51447,46.47192
1.346e-008,-117.00345,55.051945
1.347e-008,-118.69865,60.413052
1.348e-008,-120.41068,60.685707
1.349e-008,-121.5696,54.671631
1.35e-008,-121.42861,45.856331
1.351e-008,-120.11613,41.084076
1.352e-008,-118.42094,42.511837
1.353e-008,-116.82157,48.515564
1.354e-008,-115.45692,57.321449
1.355e-008,-114.34123,67.796814
1.356e-008,-113.45663,79.269417
1.357e-008,-112.78385,91.323372
1.358e-008,-112.30858,103.67871
1.359e-008,-112.02383,116.11495
1.36e-008,-111.92969,128.43549
1.361e-008,-112.03312,140.41281
1.362e-008,-112.34786,151.75821
1.363e-008,-112.89211,162.03474
1.364e-008,-113.68021,170.53828
1.365e-008,-114.68742,176.0835
1.366e-008,-115.74718,176.8983
1.367e-008,-116.34343,171.63213
1.368e-008,-115.72828,163.04095
1.369e-008,-113.89516,157.78185
1.37e-008,-111.58586,158.65193
1.371e-008,-109.31367,164.32054
1.372e-008,-107.24118,173.0183
1.373e-008,-105.38652,-176.425
1.374e-008,-103.72845,-164.69899
1.375e-008,-102.23967,-152.21225
1.376e-008,-100.8959,-139.21625
1.377e-008,-99.677155,-125.87356
1.378e-008,-98.567413,-112.29443
1.379e-008,-97.553993,-98.557343
1.38e-008,-96.626595,-84.720917
1.381e-008,-95.776932,-70.830597
1.382e-008,-94.998177,-56.924545
1.383e-008,-94.284607,-43.035709
1.384e-008,-93.631355,-29.193865
1.385e-008,-93.034065,-15.427574
1.386e-008,-92.488892,-1.765128
1.387e-008,-91.99202,11.764722
1.388e-008,-91.539642,25.132004
1.389e-008,-91.127686,38.305233
1.39e-008,-90.751534,51.251568
1.391e-008,-90.405739,63.93697
1.392e-008,-90.083717,76.327454
1.393e-008,-89.777458,88.391327
1.394e-008,-89.477219,100.102
1.395e-008,-89.17144,111.44301
1.396e-008,-88.84687,122.41354
1.397e-008,-88.489197,133.03488
1.398e-008,-88.084213,143.35526
1.399e-008,-87.619308,153.45201
1.4e-008,-87.085411,163.42764
1.401e-008,-86.478401,173.40047
1.402e-008,-85.799805,-176.50945
1.403e-008,-85.056366,-166.19464
1.404e-008,-84.258644,-155.57101
1.405e-008,-83.419281,-144.58296
1.406e-008,-82.551254,-133.20247
1.407e-008,-81.666611,-121.42469
1.408e-008,-80.775742,-109.26154
1.409e-008,-79.887123,-96.73587
1.41e-008,-79.007355,-83.876305
1.411e-008,-78.141365,-70.713837
1.412e-008,-77.292702,-57.279205
1.413e-008,-76.463814,-43.601662
1.414e-008,-75.656296,-29.708082
1.415e-008,-74.871094,-15.622746
1.416e-008,-74.108696,-1.3672752
1.417e-008,-73.369225,13.039254
1.418e-008,-72.652573,27.580048
1.419e-008,-71.95845,42.240421
1.42e-008,-71.286469,57.007504
1.421e-008,-70.636139,71.870041
1.422e-008,-70.006958,86.818161
1.423e-008,-69.398384,101.84325
1.424e-008,-68.809845,116.93769
1.425e-008,-68.240814,132.09479
1.426e-008,-67.69075,147.30867
1.427e-008,-67.159126,162.57411
1.428e-008,-66.645432,177.88651
1.429e-008,-66.149193,-166.7583
1.43e-008,-65.669945,-151.36397
1.431e-008,-65.207245,-135.93373
1.432e-008,-64.760681,-120.47057
1.433e-008,-64.329849,-104.97709
1.434e-008,-63.914387,-89.455696
1.435e-008,-63.513927,-73.908516
1.436e-008,-63.128143,-58.337471
1.437e-008,-62.756718,-42.744347
1.438e-008,-62.399349,-27.130735
1.439e-008,-62.055763,-11.498093
1.44e-008,-61.725689,4.1522493
1.441e-008,-61.408875,19.819082
1.442e-008,-61.105091,35.50127
1.443e-008,-60.814117,51.197796
1.444e-008,-60.53574,66.90773
1.445e-008,-60.269764,82.630165
1.446e-008,-60.01601,98.364326
1.447e-008,-59.7743,114.10944
1.448e-008,-59.544472,129.86484
1.449e-008,-59.326378,145.62984
1.45e-008,-59.119873,161.40385
1.451e-008,-58.924824,177.18634
1.452e-008,-58.741104,-167.02327
1.453e-008,-58.5686,-151.22543
1.454e-008,-58.407207,-135.42064
1.455e-008,-58.256817,-119.60932
1.456e-008,-58.117348,-103.79189
1.457e-008,-57.988705,-87.968765
1.458e-008,-57.870815,-72.140297
1.459e-008,-57.763607,-56.306847
1.46e-008,-57.667011,-40.468758
1.461e-008,-57.580975,-24.62636
1.462e-008,-57.505447,-8.7799702
1.463e-008,-57.440376,7.0701189
1.464e-008,-57.385723,22.923601
1.465e-008,-57.341457,38.780205
1.466e-008,-57.307552,54.639645
1.467e-008,-57.283981,70.501648
1.468e-008,-57.270729,86.365952
1.469e-008,-57.267788,102.23228
1.47e-008,-57.27515,118.1004
1.471e-008,-57.292816,133.97002
1.472e-008,-57.320793,149.84091
1.473e-008,-57.359093,165.71278
1.474e-008,-57.407738,-178.41464
1.475e-008,-57.466747,-162.54156
1.476e-008,-57.536156,-146.66832
1.477e-008,-57.615993,-130.79515
1.478e-008,-57.70631,-114.92235
1.479e-008,-57.807152,-99.05024
1.48e-008,-57.918571,-83.179115
1.481e-008,-58.040638,-67.309303
1.482e-008,-58.173416,-51.441116
1.483e-008,-58.31699,-35.574944
1.484e-008,-58.471436,-19.711138
1.485e-008,-58.636852,-3.8501146
1.486e-008,-58.813343,12.00771
1.487e-008,-59.001011,27.861874
1.488e-008,-59.199986,43.711876
1.489e-008,-59.410389,59.557201
1.49e-008,-59.632366,75.397285
1.491e-008,-59.86607,91.231483
1.492e-008,-60.11166,107.05913
1.493e-008,-60.369312,122.87948
1.494e-008,-60.639221,138.69171
1.495e-008,-60.921585,154.49493
1.496e-008,-61.216629,170.28818
1.497e-008,-61.52459,-173.92967
1.498e-008,-61.845718,-158.15982
1.499e-008,-62.18029,-142.40361
1.5e-008,-62.528603,-126.66255
1.501e-008,-62.890972,-110.93833
1.502e-008,-63.267742,-95.232849
1.503e-008,-63.659283,-79.548233
1.504e-008,-64.065987,-63.886913
1.505e-008,-64.488289,-48.251606
1.506e-008,-64.926659,-32.645432
1.507e-008,-65.381584,-17.071955
1.508e-008,-65.8536,-1.5352391
1.509e-008,-66.343292,13.960032
1.51e-008,-66.85128,29.408459
1.511e-008,-67.378227,44.803787
1.512e-008,-67.924835,60.138737
1.513e-008,-68.491859,75.4048
1.514e-008,-69.080086,90.592033
1.515e-008,-69.690315,105.68871
1.516e-008,-70.32338,120.68098
1.517e-008,-70.980072,135.55244
1.518e-008,-71.661148,150.28355
1.519e-008,-72.367203,164.85106
1.52e-008,-73.098625,179.22711
1.521e-008,-73.855408,-166.62144
1.522e-008,-74.636917,-152.7341
1.523e-008,-75.441589,-139.15749
1.524e-008,-76.266411,-125.94597
1.525e-008,-77.10627,-113.16133
1.526e-008,-77.953087,-100.87099
1.527e-008,-78.794754,-89.143143
1.528e-008,-79.614098,-78.037292
1.529e-008,-80.388275,-67.58876
1.53e-008,-81.08934,-57.786865
1.531e-008,-81.687027,-48.552021
1.532e-008,-82.153984,-39.722172
1.533e-008,-82.472519,-31.06241
1.534e-008,-82.639801,-22.302708
1.535e-008,-82.668762,-13.191992
1.536e-008,-82.583916,-3.5431607
1.537e-008,-82.414803,6.7482529
1.538e-008,-82.189987,17.711761
1.539e-008,-81.933586,29.323126
1.54e-008,-81.664017,41.527668
1.541e-008,-81.394394,54.257496
1.542e-008,-81.133469,67.443146
1.543e-008,-80.886711,81.019379
1.544e-008,-80.657234,94.927956
1.545e-008,-80.446564,109.1183
1.546e-008,-80.255142,123.54706
1.547e-008,-80.082718,138.17734
1.548e-008,-79.928604,152.97787
1.549e-008,-79.791862,167.92207
1.55e-008,-79.671425,-177.01273
1.551e-008,-79.566147,-161.84592
1.552e-008,-79.474907,-146.59421
1.553e-008,-79.396591,-131.27206
1.554e-008,-79.330139,-115.89198
1.555e-008,-79.274551,-100.46498
1.556e-008,-79.228905,-85.000664
1.557e-008,-79.192352,-69.507469
1.558e-008,-79.164108,-53.99284
1.559e-008,-79.143486,-38.463364
1.56e-008,-79.129852,-22.924797
1.561e-008,-79.122658,-7.3822327
1.562e-008,-79.121399,8.159936
1.563e-008,-79.125679,23.697805
1.564e-008,-79.135124,39.228104
1.565e-008,-79.149452,54.747936
1.566e-008,-79.168419,70.254936
1.567e-008,-79.191841,85.747139
1.568e-008,-79.219597,101.22295
1.569e-008,-79.25161,116.68107
1.57e-008,-79.287834,132.12062
1.571e-008,-79.328285,147.54091
1.572e-008,-79.373032,162.94157
1.573e-008,-79.42215,178.32236
1.574e-008,-79.475792,-166.31667
1.575e-008,-79.534111,-150.97536
1.576e-008,-79.597321,-135.65343
1.577e-008,-79.665657,-120.35049
1.578e-008,-79.739388,-105.06606
1.579e-008,-79.818802,-89.799652
1.58e-008,-79.904228,-74.55072
1.581e-008,-79.996017,-59.31876
1.582e-008,-80.094551,-44.103256
1.583e-008,-80.200211,-28.903831
1.584e-008,-80.313423,-13.7201
1.585e-008,-80.434647,1.4482061
1.586e-008,-80.564316,16.601242
1.587e-008,-80.702934,31.738956
1.588e-008,-80.851013,46.861256
1.589e-008,-81.009064,61.967747
1.59e-008,-81.177643,77.057991
1.591e-008,-81.357323,92.131172
1.592e-008,-81.548706,107.18632
1.593e-008,-81.752403,122.22215
1.594e-008,-81.969078,137.23714
1.595e-008,-82.199409,152.22932
1.596e-008,-82.444115,167.19647
1.597e-008,-82.703941,-177.86423
1.598e-008,-82.979698,-162.95593
1.599e-008,-83.272217,-148.08244
1.6e-008,-83.582413,-133.24835
1.601e-008,-83.911232,-118.45889
1.602e-008,-84.259682,-103.72014
1.603e-008,-84.628853,-89.039566
1.604e-008,-85.019913,-74.425774
1.605e-008,-85.434074,-59.889053
1.606e-008,-85.87265,-45.441616
1.607e-008,-86.337029,-31.098061
1.608e-008,-86.828621,-16.87607
1.609e-008,-87.348877,-2.796947
1.61e-008,-87.899239,11.113547
1.611e-008,-88.480965,24.823807
1.612e-008,-89.095093,38.295288
1.613e-008,-89.742111,51.480686
1.614e-008,-90.421577,64.322334
1.615e-008,-91.131523,76.75029
1.616e-008,-91.867531,88.680908
