!CSV A.01.01
!Keysight Technologies,N5227B,US58420762,A.13.80.08
!Date: Monday, November 20, 2023 16:15:07
!Source: Standard

BEGIN CH1_DATA
Time(s),S21(DB),S21(DEG)
1e-008,-119.42693,-23.774828
1.001e-008,-119.12046,-8.3135796
1.002e-008,-118.84695,7.2326784
1.003e-008,-118.60574,22.868713
1.004e-008,-118.39634,38.593689
1.005e-008,-118.21712,54.411739
1.006e-008,-118.06782,70.32309
1.007e-008,-117.94753,86.333786
1.008e-008,-117.85602,102.44678
1.009e-008,-117.79253,118.66864
1.01e-008,-117.7562,135.00165
1.011e-008,-117.74658,151.45871
1.012e-008,-117.76309,168.04463
1.013e-008,-117.80474,-175.23029
1.014e-008,-117.87042,-158.3571
1.015e-008,-117.95886,-141.32314
1.016e-008,-118.06905,-124.11338
1.017e-008,-118.19832,-106.71828
1.018e-008,-118.34519,-89.121399
1.019e-008,-118.50594,-71.310043
1.02e-008,-118.67773,-53.268497
1.021e-008,-118.85578,-34.98605
1.022e-008,-119.03551,-16.455231
1.023e-008,-119.2107,2.3270972
1.024e-008,-119.37498,21.360456
1.025e-008,-119.52176,40.629196
1.026e-008,-119.64389,60.112843
1.027e-008,-119.73476,79.77491
1.028e-008,-119.78901,99.569565
1.029e-008,-119.8028,119.44113
1.03e-008,-119.77383,139.32991
1.031e-008,-119.70345,159.16873
1.032e-008,-119.59301,178.90143
1.033e-008,-119.44807,-161.52228
1.034e-008,-119.27383,-142.14954
1.035e-008,-119.07767,-123.00568
1.036e-008,-118.86571,-104.11237
1.037e-008,-118.64521,-85.476715
1.038e-008,-118.42175,-67.100929
1.039e-008,-118.20098,-48.974854
1.04e-008,-117.98762,-31.09337
1.041e-008,-117.78534,-13.441794
1.042e-008,-117.59722,3.9936683
1.043e-008,-117.42578,21.228943
1.044e-008,-117.27338,38.275906
1.045e-008,-117.14119,55.148907
1.046e-008,-117.03057,71.859467
1.047e-008,-116.94224,88.421806
1.048e-008,-116.87738,104.84335
1.049e-008,-116.83633,121.13514
1.05e-008,-116.8195,137.30479
1.051e-008,-116.82712,153.36017
1.052e-008,-116.85984,169.30751
1.053e-008,-116.91762,-174.84641
1.054e-008,-117.00113,-159.0983
1.055e-008,-117.11028,-143.4442
1.056e-008,-117.24551,-127.87677
1.057e-008,-117.40755,-112.39498
1.058e-008,-117.59632,-96.995712
1.059e-008,-117.81282,-81.677338
1.06e-008,-118.05744,-66.433983
1.061e-008,-118.33101,-51.267181
1.062e-008,-118.63474,-36.170601
1.063e-008,-118.9697,-21.14724
1.064e-008,-119.33704,-6.1916647
1.065e-008,-119.73901,8.698741
1.066e-008,-120.17757,23.525637
1.067e-008,-120.65548,38.286392
1.068e-008,-121.17572,52.992157
1.069e-008,-121.74308,67.636848
1.07e-008,-122.3624,82.230492
1.071e-008,-123.04095,96.769814
1.072e-008,-123.78627,111.26468
1.073e-008,-124.61026,125.71324
1.074e-008,-125.52882,140.12196
1.075e-008,-126.56165,154.49413
1.076e-008,-127.73837,168.83434
1.077e-008,-129.10359,-176.85916
1.078e-008,-130.72466,-162.56915
1.079e-008,-132.71753,-148.29665
1.08e-008,-135.30133,-134.04973
1.081e-008,-138.97954,-119.82905
1.082e-008,-145.44389,-105.70234
1.083e-008,-165.52675,90.897766
1.084e-008,-143.93774,103.25678
1.085e-008,-138.31909,117.45225
1.086e-008,-134.96703,131.71793
1.087e-008,-132.57845,146.01547
1.088e-008,-130.73257,160.35606
1.089e-008,-129.23579,174.72929
1.09e-008,-127.98278,-170.87198
1.091e-008,-126.91319,-156.42642
1.092e-008,-125.9858,-141.95129
1.093e-008,-125.1739,-127.4311
1.094e-008,-124.45874,-112.86826
1.095e-008,-123.82576,-98.26474
1.096e-008,-123.26499,-83.61454
1.097e-008,-122.76862,-68.91729
1.098e-008,-122.33041,-54.173374
1.099e-008,-121.94636,-39.383827
1.1e-008,-121.6123,-24.542187
1.101e-008,-121.32573,-9.6537046
1.102e-008,-121.08504,5.288229
1.103e-008,-120.88871,20.276278
1.104e-008,-120.73562,35.319542
1.105e-008,-120.62534,50.414837
1.106e-008,-120.55793,65.566063
1.107e-008,-120.53372,80.770714
1.108e-008,-120.55316,96.035103
1.109e-008,-120.61774,111.35976
1.11e-008,-120.72867,126.753
1.111e-008,-120.8885,142.21588
1.112e-008,-121.09961,157.75592
1.113e-008,-121.36503,173.38101
1.114e-008,-121.68925,-170.89261
1.115e-008,-122.07755,-155.05614
1.116e-008,-122.53617,-139.0836
1.117e-008,-123.07345,-122.94854
1.118e-008,-123.69951,-106.60852
1.119e-008,-124.42887,-90.00367
1.12e-008,-125.27813,-73.050179
1.121e-008,-126.27033,-55.608204
1.122e-008,-127.43605,-37.457283
1.123e-008,-128.81558,-18.217154
1.124e-008,-130.45424,2.7887511
1.125e-008,-132.38416,26.879641
1.126e-008,-134.50595,56.4622
1.127e-008,-136.2243,94.614105
1.128e-008,-136.28252,138.62201
1.129e-008,-134.59348,177.56866
1.13e-008,-132.41219,-152.14015
1.131e-008,-130.39708,-127.59324
1.132e-008,-128.67258,-106.2417
1.133e-008,-127.21214,-86.708603
1.134e-008,-125.96972,-68.266907
1.135e-008,-124.90413,-50.522968
1.136e-008,-123.98503,-33.238987
1.137e-008,-123.18842,-16.277279
1.138e-008,-122.49663,0.45906386
1.139e-008,-121.89568,17.030159
1.14e-008,-121.37537,33.483356
1.141e-008,-120.92741,49.846642
1.142e-008,-120.5453,66.149178
1.143e-008,-120.22404,82.40477
1.144e-008,-119.95928,98.634033
1.145e-008,-119.74799,114.84792
1.146e-008,-119.58747,131.05736
1.147e-008,-119.47625,147.27342
1.148e-008,-119.41248,163.50841
1.149e-008,-119.39542,179.77031
1.15e-008,-119.42453,-163.92795
1.151e-008,-119.49976,-147.57356
1.152e-008,-119.62115,-131.15483
1.153e-008,-119.78911,-114.65343
1.154e-008,-120.00436,-98.05378
1.155e-008,-120.26873,-81.330109
1.156e-008,-120.58264,-64.455864
1.157e-008,-120.94836,-47.395954
1.158e-008,-121.3674,-30.110029
1.159e-008,-121.84167,-12.537511
1.16e-008,-122.37173,5.3842263
1.161e-008,-122.95779,23.746775
1.162e-008,-123.59819,42.661266
1.163e-008,-124.28551,62.276039
1.164e-008,-125.00536,82.749504
1.165e-008,-125.73301,104.27724
1.166e-008,-126.42307,127.02558
1.167e-008,-127.01102,151.07458
1.168e-008,-127.41553,176.28316
1.169e-008,-127.56395,-157.78551
1.17e-008,-127.4223,-131.80891
1.171e-008,-127.01566,-106.50051
1.172e-008,-126.41448,-82.328941
1.173e-008,-125.69906,-59.470798
1.174e-008,-124.93666,-37.865788
1.175e-008,-124.17362,-17.357107
1.176e-008,-123.43704,2.2529573
1.177e-008,-122.74166,21.133839
1.178e-008,-122.09367,39.433289
1.179e-008,-121.49603,57.269386
1.18e-008,-120.94746,74.737961
1.181e-008,-120.44682,91.909233
1.182e-008,-119.99107,108.84375
1.183e-008,-119.57776,125.59029
1.184e-008,-119.20451,142.18387
1.185e-008,-118.86871,158.65916
1.186e-008,-118.56775,175.03931
1.187e-008,-118.29994,-168.64717
1.188e-008,-118.06315,-152.38461
1.189e-008,-117.85592,-136.15271
1.19e-008,-117.67612,-119.93631
1.191e-008,-117.5229,-103.71873
1.192e-008,-117.39468,-87.486809
1.193e-008,-117.29017,-71.224442
1.194e-008,-117.20826,-54.921646
1.195e-008,-117.14764,-38.561333
1.196e-008,-117.1072,-22.130791
1.197e-008,-117.08578,-5.6147633
1.198e-008,-117.08192,10.997539
1.199e-008,-117.09451,27.725729
1.2e-008,-117.12192,44.578602
1.201e-008,-117.16174,61.573856
1.202e-008,-117.21265,78.725365
1.203e-008,-117.2715,96.0429
1.204e-008,-117.33597,113.54282
1.205e-008,-117.40219,131.23239
1.206e-008,-117.4669,149.12297
1.207e-008,-117.52583,167.21414
1.208e-008,-117.57426,-174.49208
1.209e-008,-117.60775,-156.00638
1.21e-008,-117.62164,-137.33841
1.211e-008,-117.61061,-118.51462
1.212e-008,-117.57173,-99.558098
1.213e-008,-117.50198,-80.507568
1.214e-008,-117.39925,-61.403816
1.215e-008,-117.26344,-42.284885
1.216e-008,-117.09526,-23.197895
1.217e-008,-116.89695,-4.1770673
1.218e-008,-116.67258,14.741227
1.219e-008,-116.42583,33.530495
1.22e-008,-116.16173,52.167347
1.221e-008,-115.88549,70.640671
1.222e-008,-115.60184,88.94207
1.223e-008,-115.3152,107.06959
1.224e-008,-115.03032,125.02676
1.225e-008,-114.75043,142.81595
1.226e-008,-114.4793,160.45331
1.227e-008,-114.21993,177.94263
1.228e-008,-113.97438,-164.7047
1.229e-008,-113.74498,-147.47665
1.23e-008,-113.53366,-130.36244
1.231e-008,-113.34119,-113.35146
1.232e-008,-113.17003,-96.432671
1.233e-008,-113.02046,-79.597672
1.234e-008,-112.89382,-62.837173
1.235e-008,-112.79111,-46.141464
1.236e-008,-112.71291,-29.502691
1.237e-008,-112.66002,-12.913563
1.238e-008,-112.63376,3.6331987
1.239e-008,-112.63445,20.145899
1.24e-008,-112.66327,36.630947
1.241e-008,-112.72124,53.094826
1.242e-008,-112.80922,69.544998
1.243e-008,-112.92834,85.987839
1.244e-008,-113.08002,102.4315
1.245e-008,-113.266,118.88425
1.246e-008,-113.48759,135.35419
1.247e-008,-113.74661,151.85365
1.248e-008,-114.04582,168.39267
1.249e-008,-114.38764,-175.01384
1.25e-008,-114.77464,-158.35016
1.251e-008,-115.21087,-141.59526
1.252e-008,-115.69988,-124.72115
1.253e-008,-116.24709,-107.69387
1.254e-008,-116.85754,-90.471687
1.255e-008,-117.53771,-72.993767
1.256e-008,-118.29523,-55.178516
1.257e-008,-119.13763,-36.91431
1.258e-008,-120.07256,-18.041517
1.259e-008,-121.1059,1.6643598
1.26e-008,-122.23438,22.534082
1.261e-008,-123.43688,45.02322
1.262e-008,-124.64919,69.701805
1.263e-008,-125.73241,97.089111
1.264e-008,-126.45387,127.10761
1.265e-008,-126.58833,158.43735
1.266e-008,-126.10683,-171.14812
1.267e-008,-125.20933,-143.2505
1.268e-008,-124.13811,-118.16804
1.269e-008,-123.05495,-95.458961
1.27e-008,-122.03726,-74.537155
1.271e-008,-121.1131,-54.919247
1.272e-008,-120.28731,-36.25219
1.273e-008,-119.55621,-18.292284
1.274e-008,-118.91222,-0.86996078
1.275e-008,-118.34754,16.132261
1.276e-008,-117.85459,32.801758
1.277e-008,-117.4269,49.19458
1.278e-008,-117.05879,65.362503
1.279e-008,-116.74495,81.330872
1.28e-008,-116.48122,97.127838
1.281e-008,-116.26409,112.77028
1.282e-008,-116.09011,128.27307
1.283e-008,-115.95665,143.64398
1.284e-008,-115.86082,158.89145
1.285e-008,-115.8009,174.02234
1.286e-008,-115.7744,-170.96136
1.287e-008,-115.77975,-156.05493
1.288e-008,-115.8152,-141.26004
1.289e-008,-115.87893,-126.57252
1.29e-008,-115.96957,-111.99352
1.291e-008,-116.08555,-97.523415
1.292e-008,-116.22516,-83.15934
1.293e-008,-116.38731,-68.903137
1.294e-008,-116.56996,-54.751484
1.295e-008,-116.77215,-40.706253
1.296e-008,-116.99218,-26.761549
1.297e-008,-117.22857,-12.916094
1.298e-008,-117.47983,0.83659875
1.299e-008,-117.74535,14.502698
1.3e-008,-118.02325,28.088835
1.301e-008,-118.31295,41.60622
1.302e-008,-118.61341,55.067883
1.303e-008,-118.92473,68.483818
1.304e-008,-119.24689,81.873398
1.305e-008,-119.5797,95.249107
1.306e-008,-119.92491,108.63234
1.307e-008,-120.28378,122.04147
1.308e-008,-120.65845,135.49274
1.309e-008,-121.05196,149.00977
1.31e-008,-121.46667,162.61494
1.311e-008,-121.9081,176.32597
1.312e-008,-122.38029,-169.83234
1.313e-008,-122.8892,-155.83272
1.314e-008,-123.4415,-141.64935
1.315e-008,-124.04499,-127.24592
1.316e-008,-124.709,-112.58395
1.317e-008,-125.44403,-97.597786
1.318e-008,-126.26212,-82.219254
1.319e-008,-127.1785,-66.334404
1.32e-008,-128.21088,-49.77314
1.321e-008,-129.37723,-32.286869
1.322e-008,-130.69295,-13.468142
1.323e-008,-132.16019,7.3353167
1.324e-008,-133.72659,31.111057
1.325e-008,-135.20277,59.094673
1.326e-008,-136.15991,91.639145
1.327e-008,-136.13359,126.15831
1.328e-008,-135.17305,158.12952
1.329e-008,-133.78046,-174.51308
1.33e-008,-132.3483,-151.12366
1.331e-008,-131.03712,-130.47356
1.332e-008,-129.88686,-111.63918
1.333e-008,-128.89592,-94.020393
1.334e-008,-128.05157,-77.249718
1.335e-008,-127.33604,-61.093563
1.336e-008,-126.735,-45.416058
1.337e-008,-126.23706,-30.122446
1.338e-008,-125.83221,-15.164446
1.339e-008,-125.51276,-0.49949136
1.34e-008,-125.2723,13.873082
1.341e-008,-125.10486,27.962477
1.342e-008,-125.00687,41.75742
1.343e-008,-124.97311,55.224277
1.344e-008,-124.99861,68.3395
1.345e-008,-125.07755,81.058968
1.346e-008,-125.20335,93.33239
1.347e-008,-125.36712,105.09846
1.348e-008,-125.55486,116.30048
1.349e-008,-125.75047,126.87749
1.35e-008,-125.93144,136.80597
1.351e-008,-126.07147,146.08606
1.352e-008,-126.14096,154.78058
1.353e-008,-126.11383,163.03548
1.354e-008,-125.9698,171.05293
1.355e-008,-125.70325,179.09064
1.356e-008,-125.32265,-172.61412
1.357e-008,-124.84878,-163.86423
1.358e-008,-124.30754,-154.54416
1.359e-008,-123.72759,-144.60513
1.36e-008,-123.13218,-134.05789
1.361e-008,-122.54102,-122.94556
1.362e-008,-121.96792,-111.32833
1.363e-008,-121.42302,-99.278648
1.364e-008,-120.91251,-86.852051
1.365e-008,-120.44079,-74.113594
1.366e-008,-120.00982,-61.110577
1.367e-008,-119.62152,-47.891235
1.368e-008,-119.27601,-34.494507
1.369e-008,-118.97366,-20.953773
1.37e-008,-118.71378,-7.3001628
1.371e-008,-118.49671,6.4408894
1.372e-008,-118.32116,20.24398
1.373e-008,-118.18744,34.088821
1.374e-008,-118.0946,47.953133
1.375e-008,-118.04276,61.818623
1.376e-008,-118.03099,75.664444
1.377e-008,-118.05923,89.47213
1.378e-008,-118.12709,103.22019
1.379e-008,-118.23439,116.88796
1.38e-008,-118.37984,130.4549
1.381e-008,-118.56347,143.89331
1.382e-008,-118.78375,157.17776
1.383e-008,-119.03961,170.28082
1.384e-008,-119.32885,-176.83076
1.385e-008,-119.64872,-164.1911
1.386e-008,-119.99461,-151.8344
1.387e-008,-120.3617,-139.79733
1.388e-008,-120.74198,-128.11508
1.389e-008,-121.12689,-116.81284
1.39e-008,-121.50402,-105.908
1.391e-008,-121.86097,-95.393738
1.392e-008,-122.1829,-85.243675
1.393e-008,-122.45615,-75.396378
1.394e-008,-122.66877,-65.75779
1.395e-008,-122.81428,-56.213657
1.396e-008,-122.89135,-46.627098
1.397e-008,-122.90558,-36.870979
1.398e-008,-122.86689,-26.837315
1.399e-008,-122.79182,-16.444798
1.4e-008,-122.69547,-5.6471691
1.401e-008,-122.59425,5.5695457
1.402e-008,-122.50235,17.20627
1.403e-008,-122.43338,29.240805
1.404e-008,-122.39865,41.642879
1.405e-008,-122.40813,54.383884
1.406e-008,-122.46997,67.427361
1.407e-008,-122.59341,80.743034
1.408e-008,-122.78648,94.304787
1.409e-008,-123.05827,108.0844
1.41e-008,-123.41947,122.06358
1.411e-008,-123.88313,136.22179
1.412e-008,-124.46568,150.55643
1.413e-008,-125.19051,165.0602
1.414e-008,-126.0881,179.73674
1.415e-008,-127.20747,-165.38129
1.416e-008,-128.6223,-150.24525
1.417e-008,-130.4613,-134.72246
1.418e-008,-132.97263,-118.46964
1.419e-008,-136.74142,-100.34462
1.42e-008,-143.77553,-73.209808
1.421e-008,-148.95781,57.141121
1.422e-008,-138.61511,102.74837
1.423e-008,-133.71037,122.78867
1.424e-008,-130.55382,139.74469
1.425e-008,-128.23886,155.761
1.426e-008,-126.42568,171.36465
1.427e-008,-124.95036,-173.24699
1.428e-008,-123.72098,-157.99301
1.429e-008,-122.68129,-142.8298
1.43e-008,-121.79471,-127.72983
1.431e-008,-121.03545,-112.6945
1.432e-008,-120.3852,-97.712242
1.433e-008,-119.83144,-82.78405
1.434e-008,-119.36329,-67.914146
1.435e-008,-118.97404,-53.10503
1.436e-008,-118.65745,-38.366703
1.437e-008,-118.4096,-23.706673
1.438e-008,-118.22675,-9.1361599
1.439e-008,-118.10661,5.3302393
1.44e-008,-118.04743,19.673843
1.441e-008,-118.04803,33.87492
1.442e-008,-118.10714,47.909283
1.443e-008,-118.22456,61.747868
1.444e-008,-118.39953,75.346977
1.445e-008,-118.63159,88.66449
1.446e-008,-118.91877,101.64627
1.447e-008,-119.259,114.21871
1.448e-008,-119.64724,126.29929
1.449e-008,-120.07561,137.79497
1.45e-008,-120.53033,148.59628
1.451e-008,-120.99106,158.6002
1.452e-008,-121.42725,167.71973
1.453e-008,-121.79883,175.93448
1.454e-008,-122.05857,-176.66504
1.455e-008,-122.16254,-169.85138
1.456e-008,-122.08431,-163.25999
1.457e-008,-121.82257,-156.46686
1.458e-008,-121.40545,-149.10573
1.459e-008,-120.87616,-140.94026
1.46e-008,-120.2814,-131.89708
1.461e-008,-119.66113,-121.9941
1.462e-008,-119.0451,-111.31556
1.463e-008,-118.45352,-99.968094
1.464e-008,-117.89948,-88.064857
1.465e-008,-117.39046,-75.69722
1.466e-008,-116.93028,-62.952263
1.467e-008,-116.52158,-49.901722
1.468e-008,-116.16412,-36.60651
1.469e-008,-115.85892,-23.115942
1.47e-008,-115.60458,-9.4706593
1.471e-008,-115.40115,4.2938905
1.472e-008,-115.24781,18.144629
1.473e-008,-115.14423,32.055408
1.474e-008,-115.08991,46.000031
1.475e-008,-115.085,59.954678
1.476e-008,-115.12914,73.89418
1.477e-008,-115.2231,87.796417
1.478e-008,-115.3671,101.63403
1.479e-008,-115.56139,115.3828
1.48e-008,-115.80725,129.00719
1.481e-008,-116.10515,142.4753
1.482e-008,-116.45541,155.74454
1.483e-008,-116.85904,168.76805
1.484e-008,-117.31532,-178.51472
1.485e-008,-117.82316,-166.17336
1.486e-008,-118.3783,-154.29161
1.487e-008,-118.97503,-142.96486
1.488e-008,-119.60139,-132.30858
1.489e-008,-120.23877,-122.42825
1.49e-008,-120.85851,-113.4203
1.491e-008,-121.42308,-105.32581
1.492e-008,-121.88533,-98.083229
1.493e-008,-122.20042,-91.492683
1.494e-008,-122.3365,-85.193924
1.495e-008,-122.28848,-78.77182
1.496e-008,-122.08183,-71.838318
1.497e-008,-121.75882,-64.135612
1.498e-008,-121.36783,-55.558315
1.499e-008,-120.95243,-46.117085
1.5e-008,-120.54494,-35.902153
1.501e-008,-120.16843,-25.022184
1.502e-008,-119.83784,-13.591061
1.503e-008,-119.56303,-1.7219175
1.504e-008,-119.34949,10.491577
1.505e-008,-119.20219,22.962648
1.506e-008,-119.12235,35.62077
1.507e-008,-119.11259,48.394402
1.508e-008,-119.17465,61.219402
1.509e-008,-119.31106,74.033134
1.51e-008,-119.52312,86.772942
1.511e-008,-119.81356,99.361725
1.512e-008,-120.1849,111.71786
1.513e-008,-120.63899,123.73158
1.514e-008,-121.17661,135.28006
1.515e-008,-121.79559,146.19899
1.516e-008,-122.48749,156.27258
1.517e-008,-123.2326,165.25227
1.518e-008,-123.9892,172.85826
1.519e-008,-124.68711,178.85341
1.52e-008,-125.22047,-176.77625
1.521e-008,-125.47272,-173.62137
1.522e-008,-125.37051,-170.79219
1.523e-008,-124.93207,-167.25108
1.524e-008,-124.2546,-162.26974
1.525e-008,-123.45538,-155.61612
1.526e-008,-122.62885,-147.40933
1.527e-008,-121.83404,-137.91281
1.528e-008,-121.10304,-127.40435
1.529e-008,-120.45132,-116.11841
1.53e-008,-119.88529,-104.24802
1.531e-008,-119.40611,-91.944328
1.532e-008,-119.01321,-79.320114
1.533e-008,-118.70529,-66.473351
1.534e-008,-118.48108,-53.480522
1.535e-008,-118.33977,-40.412933
1.536e-008,-118.281,-27.334673
1.537e-008,-118.30521,-14.308455
1.538e-008,-118.41377,-1.4047925
1.539e-008,-118.60755,11.297788
1.54e-008,-118.88891,23.70808
1.541e-008,-119.25861,35.70887
1.542e-008,-119.71684,47.1506
1.543e-008,-120.25872,57.843132
1.544e-008,-120.8707,67.536232
1.545e-008,-121.52305,75.942062
1.546e-008,-122.15797,82.757614
1.547e-008,-122.67934,87.809235
1.548e-008,-122.95969,91.275139
1.549e-008,-122.88518,93.891388
1.55e-008,-122.42646,96.793785
1.551e-008,-121.65765,100.9803
1.552e-008,-120.70712,106.92609
1.553e-008,-119.68927,114.61328
1.554e-008,-118.68163,123.78902
1.555e-008,-117.7262,134.15186
1.556e-008,-116.84308,145.42854
1.557e-008,-116.03989,157.40564
1.558e-008,-115.31771,169.91628
1.559e-008,-114.67464,-177.16498
1.56e-008,-114.10741,-163.93225
1.561e-008,-113.61294,-150.46001
1.562e-008,-113.18774,-136.80635
1.563e-008,-112.82909,-123.01765
1.564e-008,-112.53462,-109.13377
1.565e-008,-112.30242,-95.187157
1.566e-008,-112.13116,-81.209274
1.567e-008,-112.01974,-67.227592
1.568e-008,-111.96773,-53.268623
1.569e-008,-111.97488,-39.363083
1.57e-008,-112.04148,-25.538944
1.571e-008,-112.1679,-11.82898
1.572e-008,-112.35477,1.7268437
1.573e-008,-112.60284,15.086995
1.574e-008,-112.91267,28.195486
1.575e-008,-113.28436,40.989231
1.576e-008,-113.71654,53.38979
1.577e-008,-114.20636,65.299202
1.578e-008,-114.74688,76.605988
1.579e-008,-115.32555,87.177162
1.58e-008,-115.92074,96.873878
1.581e-008,-116.49898,105.57833
1.582e-008,-117.01325,113.23447
1.583e-008,-117.40546,119.9308
1.584e-008,-117.62067,125.94418
1.585e-008,-117.62535,131.73543
1.586e-008,-117.42382,137.83397
1.587e-008,-117.05595,144.67545
1.588e-008,-116.58012,152.50392
1.589e-008,-116.05463,161.37425
1.59e-008,-115.52618,171.21761
1.591e-008,-115.02826,-178.092
1.592e-008,-114.58253,-166.69464
1.593e-008,-114.20319,-154.72357
1.594e-008,-113.89885,-142.2921
1.595e-008,-113.67622,-129.49699
1.596e-008,-113.53969,-116.42051
1.597e-008,-113.49447,-103.13418
1.598e-008,-113.54565,-89.698586
1.599e-008,-113.70059,-76.173561
1.6e-008,-113.96813,-62.619583
1.601e-008,-114.36072,-49.103622
1.602e-008,-114.8955,-35.709946
1.603e-008,-115.59605,-22.548233
1.604e-008,-116.49522,-9.7912502
1.605e-008,-117.64153,2.2802351
1.606e-008,-119.10479,13.150096
1.607e-008,-120.98252,21.769871
1.608e-008,-123.36781,25.762146
1.609e-008,-126.03554,19.744896
1.61e-008,-127.18264,-0.79131562
1.611e-008,-125.09871,-18.577778
1.612e-008,-122.09305,-21.657381
1.613e-008,-119.49596,-16.243488
1.614e-008,-117.39485,-6.8981161
1.615e-008,-115.68679,4.4094777
