!CSV A.01.01
!Keysight Technologies,N5227B,US58420762,A.13.80.08
!Date: Monday, November 20, 2023 16:20:52
!Source: Standard

BEGIN CH1_DATA
Freq(Hz),S21(DB),S21(DEG)
3000000000,-55.553303,178.71082
3003000000,-55.556667,160.24452
3006000000,-55.619587,141.40044
3009000000,-55.687016,123.02507
3012000000,-55.711906,104.00571
3015000000,-55.739883,85.174706
3018000000,-55.866257,67.854111
3021000000,-55.750767,49.676945
3024000000,-55.665676,31.758289
3027000000,-55.671574,12.786028
3030000000,-55.526615,-6.1363902
3033000000,-55.601383,-25.324879
3036000000,-55.528488,-43.43103
3039000000,-55.576141,-63.072815
3042000000,-55.643509,-81.562981
3045000000,-55.736885,-100.62946
3048000000,-55.835361,-119.53329
3051000000,-56.07666,-138.33023
3054000000,-56.012302,-156.27017
3057000000,-56.001125,-173.83116
3060000000,-55.956505,167.71654
3063000000,-55.946999,148.65691
3066000000,-56.01717,130.17628
3069000000,-56.256805,110.70226
3072000000,-56.369827,93.133652
3075000000,-56.205692,76.781036
3078000000,-56.213383,60.373127
3081000000,-55.871555,41.679733
3084000000,-55.796642,22.136581
3087000000,-55.660664,2.0973511
3090000000,-55.667213,-15.689455
3093000000,-55.702759,-34.784615
3096000000,-55.707851,-53.206173
3099000000,-55.730732,-71.054558
3102000000,-55.673141,-89.088974
3105000000,-55.424305,-108.97897
3108000000,-55.380306,-125.81912
3111000000,-55.238411,-145.98694
3114000000,-55.159775,-165.49388
3117000000,-55.256088,174.24783
3120000000,-55.460087,156.24223
3123000000,-55.428432,137.6644
3126000000,-55.442673,119.70721
3129000000,-55.512234,101.36912
3132000000,-55.549164,83.613617
3135000000,-55.301102,64.816185
3138000000,-55.176147,46.071213
3141000000,-55.301388,27.19512
3144000000,-55.17868,8.5767374
3147000000,-55.165764,-10.868215
3150000000,-55.259277,-28.993145
3153000000,-55.281597,-46.831802
3156000000,-55.179607,-64.923073
3159000000,-55.049847,-83.86071
3162000000,-54.975266,-102.56204
3165000000,-54.841522,-121.17874
3168000000,-54.675385,-140.03041
3171000000,-54.531708,-159.98596
3174000000,-54.612835,-179.8651
3177000000,-54.585922,161.71413
3180000000,-54.595901,141.6586
3183000000,-54.688145,123.19415
3186000000,-54.630054,105.1294
3189000000,-54.565723,85.374382
3192000000,-54.558479,65.739708
3195000000,-54.55677,45.964386
3198000000,-54.600525,26.267365
3201000000,-54.751301,6.3261127
3204000000,-55.019646,-11.728024
3207000000,-55.080185,-30.345968
3210000000,-55.189243,-48.199242
3213000000,-55.129822,-65.864647
3216000000,-55.171173,-86.022629
3219000000,-55.29118,-103.87627
3222000000,-55.275402,-121.36594
3225000000,-55.381798,-140.73241
3228000000,-55.386303,-159.48596
3231000000,-55.224415,-178.28818
3234000000,-55.430668,163.22769
3237000000,-55.472313,144.96481
3240000000,-55.486397,126.48908
3243000000,-55.269844,107.17429
3246000000,-55.144321,89.250923
3249000000,-55.239998,69.027725
3252000000,-55.291172,50.254799
3255000000,-55.376431,30.43697
3258000000,-55.452015,12.125591
3261000000,-55.818417,-6.6404176
3264000000,-55.946697,-24.204283
3267000000,-56.123569,-41.567902
3270000000,-55.932953,-60.008377
3273000000,-56.025414,-78.079483
3276000000,-56.102879,-97.078621
3279000000,-56.211723,-115.46655
3282000000,-56.292728,-133.95264
3285000000,-56.335243,-152.65282
3288000000,-56.467754,-170.39459
3291000000,-56.684681,173.70374
3294000000,-56.404823,156.57039
3297000000,-56.402477,140.14117
3300000000,-56.029266,123.43514
3303000000,-55.83025,104.62267
3306000000,-55.650589,85.594337
3309000000,-55.472755,66.16478
3312000000,-55.453442,46.725136
3315000000,-55.488342,28.856207
3318000000,-55.52877,10.960034
3321000000,-55.308598,-6.6366606
3324000000,-55.060684,-26.098783
3327000000,-54.8843,-44.803879
3330000000,-54.716488,-65.29245
3333000000,-54.68824,-84.993362
3336000000,-54.764378,-104.68873
3339000000,-54.882057,-123.57519
3342000000,-54.833603,-141.83046
3345000000,-54.861103,-159.9677
3348000000,-54.768932,-179.97742
3351000000,-54.838398,162.44713
3354000000,-54.863583,143.65811
3357000000,-54.827057,125.39818
3360000000,-54.596367,106.43617
3363000000,-54.528046,86.553665
3366000000,-54.604832,67.375114
3369000000,-54.60487,47.501461
3372000000,-54.759521,28.298225
3375000000,-54.818676,11.546987
3378000000,-54.726646,-6.1074262
3381000000,-54.384094,-25.268141
3384000000,-54.232288,-44.77903
3387000000,-54.1731,-64.3377
3390000000,-54.093746,-85.637276
3393000000,-54.209053,-106.77912
3396000000,-54.570408,-126.69385
3399000000,-54.89402,-144.91451
3402000000,-54.928894,-162.1142
3405000000,-54.894875,179.22142
3408000000,-54.934586,160.95097
3411000000,-54.845215,140.46736
3414000000,-54.958775,121.81232
3417000000,-55.058186,101.17987
3420000000,-55.421623,82.709091
3423000000,-55.576626,64.787224
3426000000,-55.713451,46.827049
3429000000,-55.68494,28.167418
3432000000,-55.760006,10.785815
3435000000,-55.767643,-7.2676244
3438000000,-55.592346,-26.996826
3441000000,-55.659958,-45.972351
3444000000,-56.067501,-65.459778
3447000000,-56.188133,-83.285347
3450000000,-56.511486,-102.75661
3453000000,-56.688065,-118.53505
3456000000,-56.729809,-135.21912
3459000000,-56.651337,-152.27919
3462000000,-56.473701,-170.70438
3465000000,-56.431915,171.00279
3468000000,-56.489162,152.94774
3471000000,-56.389919,134.10942
3474000000,-56.255756,115.43085
3477000000,-56.59037,97.615128
3480000000,-56.553993,80.547836
3483000000,-56.650967,62.090744
3486000000,-56.306515,46.023941
3489000000,-56.248459,28.229763
3492000000,-55.881165,10.240097
3495000000,-55.539673,-9.6927423
3498000000,-55.693821,-28.806248
3501000000,-55.662483,-48.241615
3504000000,-55.708401,-67.600395
3507000000,-55.798138,-85.878273
3510000000,-55.726704,-102.85292
3513000000,-55.717525,-120.08291
3516000000,-55.355057,-138.97896
3519000000,-55.288612,-157.52612
3522000000,-55.111252,-176.95795
3525000000,-54.998463,162.85716
3528000000,-54.936455,142.31363
3531000000,-54.949932,122.94176
3534000000,-55.228359,102.74486
3537000000,-55.185764,86.321617
3540000000,-55.165516,67.126816
3543000000,-55.127041,49.110245
3546000000,-54.843304,29.344788
3549000000,-54.709949,9.761157
3552000000,-54.728977,-9.2268543
3555000000,-54.938534,-30.47559
3558000000,-55.152725,-50.56295
3561000000,-55.398884,-69.723778
3564000000,-55.513721,-87.381012
3567000000,-55.773907,-105.3106
3570000000,-55.779724,-122.15329
3573000000,-55.625843,-141.28691
3576000000,-55.700798,-160.68065
3579000000,-55.566551,-179.67712
3582000000,-55.755463,160.62646
3585000000,-55.847919,141.66719
3588000000,-56.282913,121.93159
3591000000,-56.423321,104.45719
3594000000,-56.637329,88.105865
3597000000,-56.44698,69.762947
3600000000,-56.468224,52.896694
3603000000,-56.477226,34.610493
3606000000,-56.336788,15.037702
3609000000,-56.233727,-3.6188459
3612000000,-56.535854,-21.831495
3615000000,-56.712563,-40.863022
3618000000,-56.761673,-57.186077
3621000000,-56.752285,-76.36628
3624000000,-56.781982,-92.635841
3627000000,-56.482117,-111.18272
3630000000,-56.311512,-130.11551
3633000000,-56.565655,-149.71571
3636000000,-56.587769,-169.05232
3639000000,-56.798172,172.49011
3642000000,-56.905254,155.01373
3645000000,-57.15868,138.9026
3648000000,-57.010311,122.74097
3651000000,-56.827377,106.90445
3654000000,-56.362862,87.156364
3657000000,-55.944138,69.982964
3660000000,-55.99696,49.607605
3663000000,-55.974087,30.67948
3666000000,-55.788498,11.128041
3669000000,-56.078136,-6.5844803
3672000000,-55.87875,-24.183628
3675000000,-55.55928,-41.765709
3678000000,-55.433979,-61.576096
3681000000,-55.304699,-79.039253
3684000000,-55.050926,-99.272934
3687000000,-54.82869,-120.06627
3690000000,-54.875187,-139.06029
3693000000,-54.97337,-159.88611
3696000000,-55.064003,-178.94041
3699000000,-55.183395,162.56122
3702000000,-55.2542,144.05466
3705000000,-55.194675,125.21615
3708000000,-55.122078,107.20405
3711000000,-55.052635,87.762314
3714000000,-54.887383,67.695061
3717000000,-55.107845,47.390392
3720000000,-55.081985,27.560387
3723000000,-55.273106,7.9880018
3726000000,-55.287361,-9.7222719
3729000000,-55.643353,-28.027691
3732000000,-55.437984,-46.181046
3735000000,-55.664337,-65.061287
3738000000,-55.671932,-83.403198
3741000000,-55.552788,-102.208
3744000000,-55.660969,-121.26229
3747000000,-55.666981,-140.47798
3750000000,-55.703724,-160.86867
3753000000,-55.854897,-177.68544
3756000000,-56.159008,162.77501
3759000000,-56.268909,145.9003
3762000000,-55.902786,128.25999
3765000000,-56.151192,109.3545
3768000000,-56.125576,89.269997
3771000000,-56.247463,70.963669
3774000000,-56.110115,52.195141
3777000000,-56.36837,32.981544
3780000000,-56.569489,15.392468
3783000000,-56.551865,-4.2387471
3786000000,-56.681736,-20.422974
3789000000,-56.721771,-38.827366
3792000000,-56.724243,-57.321659
3795000000,-56.75914,-74.916275
3798000000,-56.957829,-92.95929
3801000000,-56.981556,-110.48254
3804000000,-57.227753,-128.24583
3807000000,-57.144417,-146.2411
3810000000,-57.035103,-163.0173
3813000000,-57.022381,179.61401
3816000000,-56.662109,161.32855
3819000000,-56.45174,144.08293
3822000000,-56.243385,124.61333
3825000000,-56.093605,106.30118
3828000000,-55.919216,85.278854
3831000000,-56.050095,67.723038
3834000000,-56.145733,48.255798
3837000000,-55.927654,30.133661
3840000000,-56.152241,11.506452
3843000000,-56.087044,-7.0849218
3846000000,-55.95739,-25.52718
3849000000,-55.895214,-44.256016
3852000000,-55.825321,-63.368549
3855000000,-56.064537,-82.880669
3858000000,-56.074013,-99.811317
3861000000,-56.114792,-117.93231
3864000000,-55.790302,-134.85898
3867000000,-55.70554,-154.21973
3870000000,-55.446648,-172.95587
3873000000,-55.417934,167.92807
3876000000,-55.306549,149.11234
3879000000,-55.254646,129.53249
3882000000,-55.372017,110.05686
3885000000,-55.253849,90.888168
3888000000,-55.409847,73.676865
3891000000,-55.428982,54.424992
3894000000,-55.111603,35.343723
3897000000,-55.042507,16.882534
3900000000,-55.022911,-2.6953239
3903000000,-54.936916,-23.216368
3906000000,-55.050179,-43.049652
3909000000,-55.18943,-62.23978
3912000000,-55.355774,-81.688637
3915000000,-55.526646,-100.27292
3918000000,-55.615807,-118.15188
3921000000,-55.665146,-136.16017
3924000000,-55.666538,-155.12347
3927000000,-55.532196,-172.46712
3930000000,-55.608089,167.86626
3933000000,-55.65144,148.66125
3936000000,-55.752804,128.92278
3939000000,-55.862434,111.76917
3942000000,-56.089081,94.076637
3945000000,-56.146278,76.679031
3948000000,-55.979649,58.565941
3951000000,-55.614525,40.941303
3954000000,-55.496861,22.203491
3957000000,-55.534206,2.1790385
3960000000,-55.393406,-17.064983
3963000000,-55.637444,-36.825005
3966000000,-55.830391,-55.271622
3969000000,-55.937077,-72.187027
3972000000,-56.114143,-90.232445
3975000000,-55.835094,-107.14262
3978000000,-55.534874,-126.32331
3981000000,-55.451439,-144.00883
3984000000,-55.271969,-164.67357
3987000000,-55.220482,176.98236
3990000000,-55.360954,156.36899
3993000000,-55.204979,138.24387
3996000000,-55.577728,118.31955
3999000000,-55.549461,100.12019
4002000000,-55.473598,84.721382
4005000000,-55.341618,64.650574
4008000000,-55.324406,45.899719
4011000000,-55.095806,26.544094
4014000000,-55.212524,6.6239133
4017000000,-55.381783,-11.445962
4020000000,-55.523361,-31.02721
4023000000,-55.536198,-48.851624
4026000000,-55.640068,-66.154099
4029000000,-55.48962,-83.437759
4032000000,-55.231091,-102.2248
4035000000,-55.163063,-121.65762
4038000000,-54.942707,-140.81473
4041000000,-54.978149,-161.52528
4044000000,-55.0872,178.08441
4047000000,-55.276566,160.12654
4050000000,-55.415688,141.41614
4053000000,-55.526886,122.99387
4056000000,-55.524578,105.86764
4059000000,-55.311382,88.63707
4062000000,-55.166847,69.734154
4065000000,-55.097847,49.533161
4068000000,-55.153465,31.053288
4071000000,-55.187466,10.473568
4074000000,-55.008923,-8.4111128
4077000000,-55.25201,-27.063288
4080000000,-55.314884,-45.602894
4083000000,-55.380699,-63.509777
4086000000,-55.286331,-82.296944
4089000000,-55.278622,-100.8321
4092000000,-55.185047,-118.77238
4095000000,-55.242695,-139.44543
4098000000,-55.304989,-159.02081
4101000000,-55.427242,-177.16248
4104000000,-55.422192,165.08356
4107000000,-55.396835,145.87549
4110000000,-55.431534,128.01343
4113000000,-55.449131,110.04778
4116000000,-55.436378,90.519318
4119000000,-55.415813,71.194687
4122000000,-55.297035,52.478504
4125000000,-55.343231,33.437004
4128000000,-55.351311,14.042331
4131000000,-55.587391,-3.6112516
4134000000,-55.650627,-22.568623
4137000000,-55.538803,-40.653416
4140000000,-55.440147,-58.20821
4143000000,-55.534245,-76.991951
4146000000,-55.249229,-95.638786
4149000000,-55.460915,-115.74133
4152000000,-55.366951,-133.43387
4155000000,-55.416451,-153.30069
4158000000,-55.652767,-172.09712
4161000000,-55.537361,170.09471
4164000000,-55.63583,151.99026
4167000000,-55.772266,134.02745
4170000000,-55.656895,115.72729
4173000000,-55.394951,97.606819
4176000000,-55.359509,79.104439
4179000000,-55.32653,58.848202
4182000000,-55.138229,40.252396
4185000000,-55.264763,20.990164
4188000000,-55.208511,0.37871748
4191000000,-55.156586,-17.693233
4194000000,-55.390766,-36.501606
4197000000,-55.215256,-54.752079
4200000000,-55.43457,-73.688667
4203000000,-55.374611,-92.980957
4206000000,-55.260174,-111.05058
4209000000,-55.037132,-130.76265
4212000000,-55.213879,-149.72542
4215000000,-55.241962,-170.15152
4218000000,-55.327484,170.61427
4221000000,-55.543633,153.06837
4224000000,-55.476055,133.82327
4227000000,-55.516315,115.03354
4230000000,-55.800762,97.002075
4233000000,-55.608006,79.353172
4236000000,-55.561565,60.255054
4239000000,-55.282742,41.043026
4242000000,-55.294128,20.677586
4245000000,-55.331882,0.53177667
4248000000,-55.565044,-17.956297
4251000000,-55.546638,-36.11763
4254000000,-55.745113,-55.474144
4257000000,-55.962288,-74.152588
4260000000,-55.97374,-91.274544
4263000000,-55.951439,-110.35474
4266000000,-56.0914,-128.92944
4269000000,-55.896469,-148.11818
4272000000,-55.970188,-166.49603
4275000000,-56.024197,174.5573
4278000000,-56.014801,155.55656
4281000000,-56.310066,135.05183
4284000000,-56.391739,117.58447
4287000000,-56.352879,100.8747
4290000000,-56.467327,80.847107
4293000000,-56.325016,61.832664
4296000000,-56.277431,43.69384
4299000000,-56.491497,25.124453
4302000000,-56.551899,6.2996268
4305000000,-56.780075,-12.715266
4308000000,-56.699577,-28.792696
4311000000,-56.823277,-47.121906
4314000000,-56.860733,-65.857368
4317000000,-56.797897,-84.385223
4320000000,-56.752121,-103.41747
4323000000,-56.778316,-122.86866
4326000000,-56.782249,-138.75508
4329000000,-56.920071,-158.10303
4332000000,-57.020382,-176.81219
4335000000,-57.06638,164.43083
4338000000,-56.910683,147.81404
4341000000,-57.03405,127.87814
4344000000,-56.797443,110.37943
4347000000,-56.831631,91.734322
4350000000,-56.686481,72.547577
4353000000,-56.731693,53.864361
4356000000,-56.686527,33.744728
4359000000,-56.571358,14.825329
4362000000,-56.843441,-2.4405746
4365000000,-56.877426,-20.892115
4368000000,-56.785786,-40.733986
4371000000,-56.852264,-57.395584
4374000000,-56.652332,-77.415199
4377000000,-56.763447,-96.670334
4380000000,-56.729443,-115.19259
4383000000,-56.620655,-133.88065
4386000000,-56.681656,-152.6909
4389000000,-56.899029,-169.73134
4392000000,-56.686653,170.034
4395000000,-56.727661,153.34283
4398000000,-56.596653,136.22575
4401000000,-56.557507,115.39092
4404000000,-56.43721,95.369118
4407000000,-56.552803,76.180145
4410000000,-56.509644,57.49316
4413000000,-56.377758,37.966106
4416000000,-56.630672,19.743948
4419000000,-56.578808,0.38402107
4422000000,-56.780762,-19.139257
4425000000,-56.789043,-37.429031
4428000000,-56.78661,-56.139175
4431000000,-57.124905,-75.213844
4434000000,-57.112778,-94.269981
4437000000,-56.990643,-112.55335
4440000000,-56.821846,-131.91548
4443000000,-56.937103,-148.22978
4446000000,-57.153126,-169.29959
4449000000,-57.370758,172.28909
4452000000,-57.576321,153.40681
4455000000,-57.40966,134.00624
4458000000,-57.591522,116.98968
4461000000,-57.603142,99.688789
4464000000,-57.43623,82.800529
4467000000,-57.620159,63.34547
4470000000,-57.62738,42.664822
4473000000,-57.441761,25.62487
4476000000,-57.585625,6.4964452
4479000000,-57.421795,-12.373796
4482000000,-57.549175,-33.276344
4485000000,-57.566479,-50.927895
4488000000,-57.927727,-68.395638
4491000000,-58.194752,-87.05706
4494000000,-58.279518,-106.1412
4497000000,-58.130783,-123.87994
4500000000,-58.082981,-141.78706
4503000000,-58.090096,-158.60263
4506000000,-57.78133,-177.86026
4509000000,-58.148205,160.40794
4512000000,-58.25732,141.88654
4515000000,-58.27491,124.88679
4518000000,-58.768276,105.91593
4521000000,-58.537632,88.544167
4524000000,-58.770615,71.439529
4527000000,-58.707104,52.723076
4530000000,-58.516602,36.726192
4533000000,-58.619072,17.414219
4536000000,-58.48241,0.66584742
4539000000,-58.509892,-17.666695
4542000000,-58.683151,-35.68943
4545000000,-58.618,-54.12772
4548000000,-58.517117,-71.699883
4551000000,-58.350426,-89.156052
4554000000,-58.115917,-106.16515
4557000000,-58.057167,-126.11894
4560000000,-58.10442,-144.57217
4563000000,-57.989922,-162.43843
4566000000,-57.829411,178.30179
4569000000,-57.495945,158.90187
4572000000,-57.512081,140.87035
4575000000,-57.484905,121.46321
4578000000,-57.512142,102.72383
4581000000,-57.573929,84.233192
4584000000,-57.355419,64.800201
4587000000,-57.314873,45.351238
4590000000,-57.732143,27.526949
4593000000,-57.524471,7.5646644
4596000000,-57.691059,-9.3097782
4599000000,-57.5499,-27.767994
4602000000,-57.414299,-46.616745
4605000000,-57.446548,-65.627724
4608000000,-57.068638,-83.84082
4611000000,-57.025482,-103.218
4614000000,-57.012512,-123.99629
4617000000,-57.234161,-142.42542
4620000000,-57.18803,-160.61453
4623000000,-57.155525,-179.78882
4626000000,-57.139229,161.57227
4629000000,-57.301563,142.94342
4632000000,-57.033974,126.0533
4635000000,-56.959606,105.76978
4638000000,-56.816982,85.941345
4641000000,-57.067596,65.274498
4644000000,-56.958504,46.490719
4647000000,-56.859692,27.30792
4650000000,-57.210655,9.9561129
4653000000,-57.240391,-11.643316
4656000000,-57.837727,-29.68405
4659000000,-57.613171,-45.585423
4662000000,-57.503155,-65.692932
4665000000,-57.500957,-83.78479
4668000000,-57.744278,-101.84771
4671000000,-57.770496,-120.64307
4674000000,-57.809124,-139.77144
4677000000,-57.843151,-157.38399
4680000000,-57.661404,-177.37715
4683000000,-58.05381,163.7596
4686000000,-58.217308,146.96416
4689000000,-58.440464,129.57002
4692000000,-58.187866,111.418
4695000000,-58.077869,91.757065
4698000000,-57.976074,73.508583
4701000000,-58.117523,55.29287
4704000000,-57.985397,38.146229
4707000000,-58.131241,19.206112
4710000000,-57.884846,0.36065188
4713000000,-57.647129,-17.832682
4716000000,-57.782623,-36.676453
4719000000,-57.678883,-53.751942
4722000000,-57.678955,-72.934669
4725000000,-57.664288,-91.886879
4728000000,-57.768688,-111.81287
4731000000,-57.752529,-129.03882
4734000000,-57.922821,-149.11649
4737000000,-57.689915,-168.27304
4740000000,-57.972111,173.56195
4743000000,-57.809666,156.92836
4746000000,-57.945728,137.37744
4749000000,-57.864723,118.62228
4752000000,-57.941254,100.82932
4755000000,-57.851589,82.715034
4758000000,-57.509468,65.712646
4761000000,-57.613476,46.587868
4764000000,-57.271511,28.095371
4767000000,-57.055149,8.1443501
4770000000,-57.251949,-9.9616299
4773000000,-57.174885,-30.757383
4776000000,-57.407909,-48.294857
4779000000,-57.145393,-68.809799
4782000000,-57.270454,-84.540512
4785000000,-57.081009,-103.12118
4788000000,-57.133732,-124.14074
4791000000,-56.852737,-141.58154
4794000000,-57.244335,-162.85416
4797000000,-57.146587,-179.83376
4800000000,-57.091324,160.14212
4803000000,-57.045113,142.41496
4806000000,-57.074116,123.45093
4809000000,-57.168587,102.9715
4812000000,-57.450909,86.144836
4815000000,-57.369171,66.913734
4818000000,-57.38905,50.323967
4821000000,-57.016663,29.034739
4824000000,-57.204308,10.723505
4827000000,-57.336994,-8.541872
4830000000,-57.573639,-27.560452
4833000000,-57.349915,-43.173962
4836000000,-57.306984,-62.683842
