!CSV A.01.01
!Keysight Technologies,N5227B,US58420762,A.13.80.08
!Date: Monday, November 20, 2023 16:35:09
!Source: Standard

BEGIN CH1_DATA
Time(s),S21(DB),S21(DEG)
1e-008,-120.06922,42.562386
1.001e-008,-120.51146,61.266727
1.002e-008,-120.94483,80.406487
1.003e-008,-121.35622,99.993073
1.004e-008,-121.73073,120.01928
1.005e-008,-122.05161,140.44574
1.006e-008,-122.30322,161.18867
1.007e-008,-122.47282,-177.86188
1.008e-008,-122.55423,-156.8481
1.009e-008,-122.54652,-135.91635
1.01e-008,-122.45767,-115.21243
1.011e-008,-122.29992,-94.844299
1.012e-008,-122.08905,-74.891869
1.013e-008,-121.84157,-55.39378
1.014e-008,-121.57311,-36.363228
1.015e-008,-121.29624,-17.783283
1.016e-008,-121.02211,0.37046713
1.017e-008,-120.75845,18.134136
1.018e-008,-120.51167,35.538235
1.019e-008,-120.28593,52.621132
1.02e-008,-120.08417,69.415909
1.021e-008,-119.90813,85.948502
1.022e-008,-119.75991,102.24683
1.023e-008,-119.6392,118.33044
1.024e-008,-119.54672,134.22302
1.025e-008,-119.48241,149.93784
1.026e-008,-119.44682,165.49132
1.027e-008,-119.43929,-179.10817
1.028e-008,-119.45925,-163.84776
1.029e-008,-119.50726,-148.71864
1.03e-008,-119.58271,-133.71283
1.031e-008,-119.68576,-118.82536
1.032e-008,-119.81585,-104.05228
1.033e-008,-119.97353,-89.386559
1.034e-008,-120.15891,-74.825005
1.035e-008,-120.3724,-60.365288
1.036e-008,-120.61427,-46.007381
1.037e-008,-120.88603,-31.74522
1.038e-008,-121.18774,-17.581667
1.039e-008,-121.52165,-3.5158892
1.04e-008,-121.88906,10.44879
1.041e-008,-122.29269,24.310572
1.042e-008,-122.73472,38.063992
1.043e-008,-123.21945,51.700798
1.044e-008,-123.75055,65.201302
1.045e-008,-124.33378,78.555389
1.046e-008,-124.97553,91.73439
1.047e-008,-125.68415,104.69623
1.048e-008,-126.47002,117.3865
1.049e-008,-127.34596,129.72577
1.05e-008,-128.3271,141.58595
1.051e-008,-129.43246,152.76855
1.052e-008,-130.68266,162.96582
1.053e-008,-132.09435,171.68643
1.054e-008,-133.65939,178.08742
1.055e-008,-135.29231,-179.08032
1.056e-008,-136.69601,178.79822
1.057e-008,-137.29758,172.27438
1.058e-008,-136.72568,165.75543
1.059e-008,-135.34958,163.68301
1.06e-008,-133.74139,166.61835
1.061e-008,-132.20334,173.21162
1.062e-008,-130.8255,-177.82764
1.063e-008,-129.61646,-167.32076
1.064e-008,-128.56003,-155.77844
1.065e-008,-127.63789,-143.51997
1.066e-008,-126.83286,-130.7365
1.067e-008,-126.12997,-117.56966
1.068e-008,-125.51736,-104.1013
1.069e-008,-124.98742,-90.394478
1.07e-008,-124.53149,-76.497673
1.071e-008,-124.14536,-62.441277
1.072e-008,-123.82372,-48.250153
1.073e-008,-123.56509,-33.945412
1.074e-008,-123.36614,-19.541338
1.075e-008,-123.22662,-5.0538077
1.076e-008,-123.14544,9.5110178
1.077e-008,-123.12361,24.141788
1.078e-008,-123.16136,38.833019
1.079e-008,-123.2618,53.576717
1.08e-008,-123.42716,68.368645
1.081e-008,-123.66181,83.202026
1.082e-008,-123.97128,98.07267
1.083e-008,-124.36315,112.97658
1.084e-008,-124.84689,127.90723
1.085e-008,-125.43597,142.86484
1.086e-008,-126.14713,157.83815
1.087e-008,-127.00755,172.82484
1.088e-008,-128.05229,-172.18718
1.089e-008,-129.33769,-157.21236
1.09e-008,-130.95506,-142.28215
1.091e-008,-133.07054,-127.42707
1.092e-008,-136.02483,-112.81593
1.093e-008,-140.7639,-98.997818
1.094e-008,-152.59715,-93.065796
1.095e-008,-146.46091,120.58224
1.096e-008,-138.51405,132.1331
1.097e-008,-134.39966,146.39806
1.098e-008,-131.6093,161.1761
1.099e-008,-129.50948,176.13766
1.1e-008,-127.83519,-168.82191
1.101e-008,-126.45457,-153.73428
1.102e-008,-125.29061,-138.62346
1.103e-008,-124.29593,-123.50102
1.104e-008,-123.43601,-108.37639
1.105e-008,-122.69004,-93.250938
1.106e-008,-122.04022,-78.13105
1.107e-008,-121.47443,-63.025223
1.108e-008,-120.9832,-47.93457
1.109e-008,-120.55937,-32.86533
1.11e-008,-120.19618,-17.819437
1.111e-008,-119.88952,-2.8050125
1.112e-008,-119.63519,12.181878
1.113e-008,-119.43044,27.128271
1.114e-008,-119.27161,42.031864
1.115e-008,-119.15707,56.886425
1.116e-008,-119.08459,71.686554
1.117e-008,-119.05304,86.424789
1.118e-008,-119.06019,101.09422
1.119e-008,-119.10487,115.68599
1.12e-008,-119.18562,130.19264
1.121e-008,-119.3007,144.60789
1.122e-008,-119.44897,158.91237
1.123e-008,-119.62885,173.10753
1.124e-008,-119.83821,-172.82671
1.125e-008,-120.07462,-158.89612
1.126e-008,-120.33618,-145.10915
1.127e-008,-120.61952,-131.47684
1.128e-008,-120.92076,-118.00455
1.129e-008,-121.23636,-104.69677
1.13e-008,-121.56158,-91.54615
1.131e-008,-121.89087,-78.545593
1.132e-008,-122.21873,-65.678391
1.133e-008,-122.54058,-52.913082
1.134e-008,-122.85201,-40.217197
1.135e-008,-123.14754,-27.531076
1.136e-008,-123.42474,-14.799338
1.137e-008,-123.68171,-1.9550496
1.138e-008,-123.91907,11.080224
1.139e-008,-124.13957,24.387156
1.14e-008,-124.34583,38.038013
1.141e-008,-124.54153,52.115356
1.142e-008,-124.7312,66.684639
1.143e-008,-124.91869,81.82811
1.144e-008,-125.10414,97.612938
1.145e-008,-125.28589,114.1048
1.146e-008,-125.45837,131.37154
1.147e-008,-125.611,149.47162
1.148e-008,-125.72481,168.42369
1.149e-008,-125.77734,-171.76622
1.15e-008,-125.7421,-151.18022
1.151e-008,-125.59162,-129.97978
1.152e-008,-125.30895,-108.38271
1.153e-008,-124.88815,-86.671539
1.154e-008,-124.34007,-65.114883
1.155e-008,-123.68673,-43.924591
1.156e-008,-122.95823,-23.242054
1.157e-008,-122.18359,-3.114342
1.158e-008,-121.3886,16.452469
1.159e-008,-120.5933,35.500706
1.16e-008,-119.8121,54.088158
1.161e-008,-119.05629,72.275543
1.162e-008,-118.33107,90.123383
1.163e-008,-117.64084,107.68106
1.164e-008,-116.98813,124.99708
1.165e-008,-116.3736,142.11017
1.166e-008,-115.79764,159.05296
1.167e-008,-115.25957,175.85362
1.168e-008,-114.75939,-167.46605
1.169e-008,-114.29602,-150.88654
1.17e-008,-113.86877,-134.39078
1.171e-008,-113.47672,-117.96741
1.172e-008,-113.1192,-101.60349
1.173e-008,-112.79536,-85.291321
1.174e-008,-112.50443,-69.021217
1.175e-008,-112.2459,-52.786194
1.176e-008,-112.01922,-36.580494
1.177e-008,-111.82384,-20.398996
1.178e-008,-111.65929,-4.2362013
1.179e-008,-111.52553,11.911071
1.18e-008,-111.42207,28.04887
1.181e-008,-111.34898,44.179359
1.182e-008,-111.30608,60.30687
1.183e-008,-111.29346,76.434212
1.184e-008,-111.31113,92.566841
1.185e-008,-111.35955,108.70676
1.186e-008,-111.43873,124.85955
1.187e-008,-111.54934,141.02859
1.188e-008,-111.69171,157.21904
1.189e-008,-111.86658,173.43697
1.19e-008,-112.07468,-170.31285
1.191e-008,-112.31686,-154.02188
1.192e-008,-112.59414,-137.68234
1.193e-008,-112.90771,-121.28334
1.194e-008,-113.25876,-104.81483
1.195e-008,-113.64902,-88.260414
1.196e-008,-114.07975,-71.604874
1.197e-008,-114.55273,-54.82346
1.198e-008,-115.07014,-37.892723
1.199e-008,-115.63342,-20.77598
1.2e-008,-116.24432,-3.4356201
1.201e-008,-116.90414,14.184939
1.202e-008,-117.61358,32.147572
1.203e-008,-118.37123,50.538292
1.204e-008,-119.17326,69.457123
1.205e-008,-120.01103,89.030502
1.206e-008,-120.86901,109.39758
1.207e-008,-121.71941,130.69945
1.208e-008,-122.52108,153.04266
1.209e-008,-123.2169,176.43211
1.21e-008,-123.74368,-159.30571
1.211e-008,-124.04768,-134.57475
1.212e-008,-124.10948,-109.92753
1.213e-008,-123.95225,-85.921585
1.214e-008,-123.63033,-62.926792
1.215e-008,-123.20765,-41.110737
1.216e-008,-122.73888,-20.448584
1.217e-008,-122.2636,-0.83394891
1.218e-008,-121.80717,17.874424
1.219e-008,-121.38396,35.814594
1.22e-008,-121.00129,53.104813
1.221e-008,-120.66188,69.845444
1.222e-008,-120.36496,86.115562
1.223e-008,-120.10973,101.97816
1.224e-008,-119.89277,117.48489
1.225e-008,-119.71111,132.67809
1.226e-008,-119.56111,147.58882
1.227e-008,-119.43961,162.24951
1.228e-008,-119.34276,176.68527
1.229e-008,-119.26758,-169.07758
1.23e-008,-119.21084,-155.01796
1.231e-008,-119.16957,-141.10992
1.232e-008,-119.14129,-127.33097
1.233e-008,-119.12445,-113.65586
1.234e-008,-119.11668,-100.06038
1.235e-008,-119.11796,-86.516289
1.236e-008,-119.12749,-73.001328
1.237e-008,-119.14595,-59.488121
1.238e-008,-119.17397,-45.952908
1.239e-008,-119.2134,-32.370975
1.24e-008,-119.26609,-18.722883
1.241e-008,-119.33503,-4.9864397
1.242e-008,-119.42329,8.8539972
1.243e-008,-119.53448,22.820042
1.244e-008,-119.67224,36.922962
1.245e-008,-119.84117,51.184341
1.246e-008,-120.04555,65.615921
1.247e-008,-120.29137,80.242439
1.248e-008,-120.58347,95.077736
1.249e-008,-120.9286,110.15578
1.25e-008,-121.33366,125.51144
1.251e-008,-121.80688,141.19273
1.252e-008,-122.35708,157.26756
1.253e-008,-122.99391,173.8315
1.254e-008,-123.72955,-168.9753
1.255e-008,-124.5732,-150.94476
1.256e-008,-125.53151,-131.77435
1.257e-008,-126.59669,-111.00087
1.258e-008,-127.72762,-87.993523
1.259e-008,-128.80333,-61.992599
1.26e-008,-129.58186,-32.644363
1.261e-008,-129.74524,-0.96909618
1.262e-008,-129.16206,30.404682
1.263e-008,-128.03355,59.097897
1.264e-008,-126.67542,84.500359
1.265e-008,-125.30164,107.14215
1.266e-008,-124.00818,127.77206
1.267e-008,-122.82836,146.98239
1.268e-008,-121.76429,165.19943
1.269e-008,-120.80943,-177.30251
1.27e-008,-119.95351,-160.3304
1.271e-008,-119.18697,-143.7585
1.272e-008,-118.50033,-127.49588
1.273e-008,-117.88614,-111.48078
1.274e-008,-117.33708,-95.668808
1.275e-008,-116.84851,-80.027336
1.276e-008,-116.41451,-64.532074
1.277e-008,-116.03192,-49.167843
1.278e-008,-115.69659,-33.921665
1.279e-008,-115.40588,-18.785345
1.28e-008,-115.15682,-3.7527809
1.281e-008,-114.94733,11.179838
1.282e-008,-114.77516,26.012136
1.283e-008,-114.63845,40.747734
1.284e-008,-114.53536,55.382477
1.285e-008,-114.46413,69.917351
1.286e-008,-114.42335,84.347748
1.287e-008,-114.41137,98.672195
1.288e-008,-114.42641,112.88572
1.289e-008,-114.46693,126.98595
1.29e-008,-114.53131,140.96814
1.291e-008,-114.61799,154.83081
1.292e-008,-114.72456,168.56796
1.293e-008,-114.84949,-177.81927
1.294e-008,-114.99057,-164.33536
1.295e-008,-115.14552,-150.97617
1.296e-008,-115.31221,-137.74101
1.297e-008,-115.48855,-124.62354
1.298e-008,-115.67227,-111.61917
1.299e-008,-115.86157,-98.715065
1.3e-008,-116.0545,-85.899872
1.301e-008,-116.24982,-73.156395
1.302e-008,-116.44675,-60.468456
1.303e-008,-116.64501,-47.812546
1.304e-008,-116.84471,-35.171638
1.305e-008,-117.04728,-22.520308
1.306e-008,-117.25465,-9.8395786
1.307e-008,-117.46956,2.8929682
1.308e-008,-117.69495,15.693051
1.309e-008,-117.93542,28.579662
1.31e-008,-118.19569,41.563274
1.311e-008,-118.481,54.655624
1.312e-008,-118.79763,67.864296
1.313e-008,-119.15279,81.195953
1.314e-008,-119.55424,94.651375
1.315e-008,-120.01103,108.23174
1.316e-008,-120.53419,121.94005
1.317e-008,-121.13618,135.77213
1.318e-008,-121.83477,149.72771
1.319e-008,-122.65038,163.80782
1.32e-008,-123.61213,178.0134
1.321e-008,-124.76229,-167.64975
1.322e-008,-126.1645,-153.16489
1.323e-008,-127.92359,-138.4911
1.324e-008,-130.23158,-123.55217
1.325e-008,-133.508,-108.06502
1.326e-008,-139.017,-90.76796
1.327e-008,-156.44061,-33.793251
1.328e-008,-140.61014,105.99403
1.329e-008,-134.15398,124.38675
1.33e-008,-130.48877,140.34073
1.331e-008,-127.93908,155.75693
1.332e-008,-126.0008,170.99275
1.333e-008,-124.45448,-173.84465
1.334e-008,-123.18437,-158.70949
1.335e-008,-122.12274,-143.58383
1.336e-008,-121.22668,-128.45435
1.337e-008,-120.46671,-113.3178
1.338e-008,-119.82271,-98.172432
1.339e-008,-119.28024,-83.021652
1.34e-008,-118.82867,-67.85907
1.341e-008,-118.45998,-52.692448
1.342e-008,-118.16853,-37.520226
1.343e-008,-117.9502,-22.346567
1.344e-008,-117.80242,-7.1735659
1.345e-008,-117.72356,7.9938145
1.346e-008,-117.71301,23.153833
1.347e-008,-117.77105,38.299652
1.348e-008,-117.89967,53.427513
1.349e-008,-118.10117,68.530884
1.35e-008,-118.37958,83.598732
1.351e-008,-118.74036,98.622383
1.352e-008,-119.191,113.59048
1.353e-008,-119.74139,128.48035
1.354e-008,-120.40523,143.26814
1.355e-008,-121.20152,157.91353
1.356e-008,-122.15472,172.36127
1.357e-008,-123.30453,-173.48486
1.358e-008,-124.70671,-159.78838
1.359e-008,-126.45216,-146.86743
1.36e-008,-128.69643,-135.414
1.361e-008,-131.71931,-127.26195
1.362e-008,-135.95915,-128.72894
1.363e-008,-139.8459,-160.69673
1.364e-008,-136.46938,163.69717
1.365e-008,-132.13603,160.38406
1.366e-008,-129.05092,167.83789
1.367e-008,-126.78201,178.84009
1.368e-008,-125.03408,-168.67125
1.369e-008,-123.64336,-155.43948
1.37e-008,-122.51381,-141.82373
1.371e-008,-121.58673,-128.00006
1.372e-008,-120.82417,-114.0826
1.373e-008,-120.19759,-100.14473
1.374e-008,-119.68909,-86.240959
1.375e-008,-119.28374,-72.418312
1.376e-008,-118.97114,-58.722622
1.377e-008,-118.74206,-45.193455
1.378e-008,-118.58926,-31.875988
1.379e-008,-118.50527,-18.819574
1.38e-008,-118.48358,-6.0792789
1.381e-008,-118.51561,6.2900996
1.382e-008,-118.59241,18.219419
1.383e-008,-118.69994,29.645931
1.384e-008,-118.82253,40.509819
1.385e-008,-118.93932,50.774078
1.386e-008,-119.02428,60.428452
1.387e-008,-119.0486,69.523338
1.388e-008,-118.98569,78.176117
1.389e-008,-118.81425,86.576996
1.39e-008,-118.52486,94.962173
1.391e-008,-118.12285,103.57106
1.392e-008,-117.62493,112.60393
1.393e-008,-117.05652,122.20078
1.394e-008,-116.44406,132.41928
1.395e-008,-115.81165,143.26752
1.396e-008,-115.17989,154.70956
1.397e-008,-114.56342,166.68991
1.398e-008,-113.97286,179.14943
1.399e-008,-113.41561,-167.97401
1.4e-008,-112.89635,-154.73653
1.401e-008,-112.41795,-141.18681
1.402e-008,-111.98211,-127.36832
1.403e-008,-111.58975,-113.31656
1.404e-008,-111.24115,-99.062958
1.405e-008,-110.93656,-84.631447
1.406e-008,-110.6759,-70.044701
1.407e-008,-110.45907,-55.318581
1.408e-008,-110.28624,-40.468067
1.409e-008,-110.15749,-25.503963
1.41e-008,-110.07317,-10.436288
1.411e-008,-110.03375,4.7297969
1.412e-008,-110.04002,19.988953
1.413e-008,-110.09293,35.337772
1.414e-008,-110.19404,50.777489
1.415e-008,-110.3449,66.307648
1.416e-008,-110.54776,81.934326
1.417e-008,-110.80534,97.663742
1.418e-008,-111.12106,113.507
1.419e-008,-111.49885,129.48018
1.42e-008,-111.94404,145.60533
1.421e-008,-112.46251,161.91415
1.422e-008,-113.06213,178.44981
1.423e-008,-113.75211,-164.72516
1.424e-008,-114.54377,-147.52051
1.425e-008,-115.45081,-129.80289
1.426e-008,-116.48865,-111.3679
1.427e-008,-117.67222,-91.903198
1.428e-008,-119.00914,-70.906219
1.429e-008,-120.47726,-47.600571
1.43e-008,-121.97126,-20.891403
1.431e-008,-123.20306,10.167787
1.432e-008,-123.69885,44.748875
1.433e-008,-123.19844,79.101448
1.434e-008,-122.00541,109.6778
1.435e-008,-120.58691,135.89954
1.436e-008,-119.20957,158.77878
1.437e-008,-117.96835,179.38222
1.438e-008,-116.88047,-161.54068
1.439e-008,-115.93713,-143.51457
1.44e-008,-115.12289,-126.23803
1.441e-008,-114.42257,-109.51975
1.442e-008,-113.82244,-93.233849
1.443e-008,-113.31117,-77.29496
1.444e-008,-112.87909,-61.648872
1.445e-008,-112.51835,-46.255131
1.446e-008,-112.22239,-31.090055
1.447e-008,-111.98532,-16.134094
1.448e-008,-111.8023,-1.378785
1.449e-008,-111.66899,13.181874
1.45e-008,-111.58104,27.549685
1.451e-008,-111.53506,41.724884
1.452e-008,-111.52686,55.705379
1.453e-008,-111.55307,69.487953
1.454e-008,-111.6096,83.067757
1.455e-008,-111.6927,96.444962
1.456e-008,-111.79813,109.61755
1.457e-008,-111.92166,122.58704
1.458e-008,-112.05871,135.35954
1.459e-008,-112.20535,147.94673
1.46e-008,-112.35683,160.362
1.461e-008,-112.50963,172.62939
1.462e-008,-112.66073,-175.22517
1.463e-008,-112.80797,-163.16617
1.464e-008,-112.95041,-151.15874
1.465e-008,-113.08873,-139.16216
1.466e-008,-113.22476,-127.13898
1.467e-008,-113.36251,-115.05019
1.468e-008,-113.50652,-102.86372
1.469e-008,-113.66337,-90.552559
1.47e-008,-113.84007,-78.094582
1.471e-008,-114.0455,-65.473419
1.472e-008,-114.28859,-52.680729
1.473e-008,-114.58006,-39.710335
1.474e-008,-114.93124,-26.562342
1.475e-008,-115.35634,-13.236314
1.476e-008,-115.87121,0.26140141
1.477e-008,-116.49647,13.932096
1.478e-008,-117.25913,27.768076
1.479e-008,-118.19645,41.77874
1.48e-008,-119.36321,55.97303
1.481e-008,-120.84729,70.385544
1.482e-008,-122.80161,85.098137
1.483e-008,-125.53981,100.34478
1.484e-008,-129.87221,117.036
1.485e-008,-139.55261,143.90532
1.486e-008,-137.51974,-54.418678
1.487e-008,-128.70308,-30.613823
1.488e-008,-124.30102,-13.951668
1.489e-008,-121.34775,1.5919356
1.49e-008,-119.13109,16.768026
1.491e-008,-117.36717,31.78952
1.492e-008,-115.91544,46.733082
1.493e-008,-114.69511,61.631565
1.494e-008,-113.65623,76.50074
1.495e-008,-112.76532,91.344467
1.496e-008,-111.99969,106.16359
1.497e-008,-111.34286,120.95525
1.498e-008,-110.78301,135.71542
1.499e-008,-110.311,150.43652
1.5e-008,-109.92058,165.11095
1.501e-008,-109.60682,179.72806
1.502e-008,-109.36639,-165.72372
1.503e-008,-109.19644,-151.25996
1.504e-008,-109.09599,-136.89774
1.505e-008,-109.06403,-122.65841
1.506e-008,-109.10052,-108.56842
1.507e-008,-109.20576,-94.660141
1.508e-008,-109.38062,-80.973961
1.509e-008,-109.62608,-67.560501
1.51e-008,-109.94268,-54.483624
1.511e-008,-110.33046,-41.826172
1.512e-008,-110.78761,-29.690037
1.513e-008,-111.3088,-18.205116
1.514e-008,-111.88264,-7.5262847
1.515e-008,-112.48747,2.169749
1.516e-008,-113.08701,10.713295
1.517e-008,-113.62513,18.000921
1.518e-008,-114.02935,24.094181
1.519e-008,-114.22557,29.321472
1.52e-008,-114.16904,34.272251
1.521e-008,-113.86694,39.634289
1.522e-008,-113.37562,45.950729
1.523e-008,-112.77328,53.483078
1.524e-008,-112.13209,62.246124
1.525e-008,-111.50647,72.112061
1.526e-008,-110.9323,82.907516
1.527e-008,-110.43213,94.456825
1.528e-008,-110.02013,106.60698
1.529e-008,-109.70567,119.23362
1.53e-008,-109.49691,132.23456
1.531e-008,-109.40178,145.52895
1.532e-008,-109.43024,159.04834
1.533e-008,-109.59556,172.73566
1.534e-008,-109.91657,-173.46066
1.535e-008,-110.42078,-159.59108
1.536e-008,-111.14978,-145.71532
1.537e-008,-112.16959,-131.9124
1.538e-008,-113.59286,-118.31718
1.539e-008,-115.63317,-105.22011
1.54e-008,-118.77427,-93.474945
1.541e-008,-124.52618,-87.425079
1.542e-008,-134.58777,-166.64771
1.543e-008,-122.1622,151.41574
1.544e-008,-116.35986,159.46817
1.545e-008,-112.68965,171.55157
1.546e-008,-109.98204,-175.29346
1.547e-008,-107.82993,-161.73656
1.548e-008,-106.04407,-148.01875
1.549e-008,-104.52135,-134.25668
1.55e-008,-103.19884,-120.51705
1.551e-008,-102.03517,-106.84682
1.552e-008,-101.00142,-93.282715
1.553e-008,-100.0761,-79.857567
1.554e-008,-99.242455,-66.602852
1.555e-008,-98.486565,-53.54837
1.556e-008,-97.796181,-40.724815
1.557e-008,-97.159851,-28.16116
1.558e-008,-96.566093,-15.884987
1.559e-008,-96.003181,-3.9193406
1.56e-008,-95.458511,7.7202225
1.561e-008,-94.918739,19.029676
1.562e-008,-94.369919,30.02128
1.563e-008,-93.798233,40.727516
1.564e-008,-93.19091,51.20388
1.565e-008,-92.537605,61.527336
1.566e-008,-91.831566,71.791367
1.567e-008,-91.070442,82.096893
1.568e-008,-90.256454,92.541481
1.569e-008,-89.39566,103.2093
1.57e-008,-88.496841,114.16418
1.571e-008,-87.570152,125.44756
1.572e-008,-86.625847,137.07959
1.573e-008,-85.673416,149.06279
1.574e-008,-84.721039,161.38675
1.575e-008,-83.77549,174.03255
1.576e-008,-82.842033,-173.02339
1.577e-008,-81.92469,-159.80678
1.578e-008,-81.026337,-146.34348
1.579e-008,-80.14901,-132.65823
1.58e-008,-79.293999,-118.77411
1.581e-008,-78.46209,-104.71223
1.582e-008,-77.653641,-90.49157
1.583e-008,-76.868744,-76.129051
1.584e-008,-76.107231,-61.639774
1.585e-008,-75.36882,-47.036976
1.586e-008,-74.653099,-32.332451
1.587e-008,-73.959595,-17.536535
1.588e-008,-73.287796,-2.6583853
1.589e-008,-72.637154,12.293939
1.59e-008,-72.007126,27.313299
1.591e-008,-71.397163,42.393364
1.592e-008,-70.806725,57.528511
1.593e-008,-70.235291,72.713768
1.594e-008,-69.68235,87.944679
1.595e-008,-69.147408,103.21725
1.596e-008,-68.630005,118.52795
1.597e-008,-68.129684,133.87355
1.598e-008,-67.646027,149.25119
1.599e-008,-67.178627,164.65828
1.6e-008,-66.727097,-179.90756
1.601e-008,-66.291077,-164.44846
1.602e-008,-65.870209,-148.96634
1.603e-008,-65.464188,-133.46298
1.604e-008,-65.072685,-117.93998
1.605e-008,-64.695419,-102.39884
1.606e-008,-64.332123,-86.840897
1.607e-008,-63.982517,-71.26741
1.608e-008,-63.64637,-55.679531
1.609e-008,-63.323448,-40.078335
1.61e-008,-63.013531,-24.464798
1.611e-008,-62.716419,-8.8398514
1.612e-008,-62.431915,6.7956543
1.613e-008,-62.15984,22.440908
1.614e-008,-61.900021,38.095173
1.615e-008,-61.652302,53.757732
