!CSV A.01.01
!Keysight Technologies,N5227B,US58420762,A.13.80.08
!Date: Monday, November 20, 2023 16:33:16
!Source: Standard

BEGIN CH1_DATA
Freq(Hz),S21(DB),S21(DEG)
3000000000,-54.721573,176.84059
3003000000,-54.6525,161.58763
3006000000,-54.552101,144.78581
3009000000,-54.497532,128.73305
3012000000,-54.416496,111.74592
3015000000,-54.391109,94.976402
3018000000,-54.313297,78.75528
3021000000,-54.387592,60.7841
3024000000,-54.311451,45.197308
3027000000,-54.442989,28.483776
3030000000,-54.49065,11.214335
3033000000,-54.482552,-4.7281094
3036000000,-54.458691,-21.425774
3039000000,-54.4534,-38.189335
3042000000,-54.418842,-55.412807
3045000000,-54.677582,-73.034836
3048000000,-54.890533,-89.261475
3051000000,-55.278603,-104.81023
3054000000,-55.472729,-119.54055
3057000000,-55.287029,-135.3734
3060000000,-55.485691,-150.15744
3063000000,-55.345444,-166.24643
3066000000,-55.197701,177.41151
3069000000,-55.427299,161.34685
3072000000,-55.294453,145.32864
3075000000,-55.303097,128.85568
3078000000,-55.38203,112.07806
3081000000,-55.612373,96.710938
3084000000,-55.76326,81.143814
3087000000,-55.762718,65.858414
3090000000,-55.613697,49.775379
3093000000,-55.810162,34.265751
3096000000,-55.874722,17.588053
3099000000,-56.04586,1.4282292
3102000000,-56.013103,-13.390367
3105000000,-56.262341,-27.801846
3108000000,-56.080803,-42.582977
3111000000,-55.943611,-58.028576
3114000000,-55.909378,-73.553558
3117000000,-55.761032,-90.560257
3120000000,-55.980057,-106.1693
3123000000,-55.916088,-121.72511
3126000000,-55.797932,-136.5419
3129000000,-55.84724,-151.97835
3132000000,-55.777111,-167.65347
3135000000,-55.499844,176.79445
3138000000,-55.524071,161.26184
3141000000,-55.447754,144.68427
3144000000,-55.260456,129.81381
3147000000,-55.103607,113.68058
3150000000,-54.962292,95.661148
3153000000,-54.797314,80.507744
3156000000,-54.809067,64.555977
3159000000,-54.691948,47.592728
3162000000,-54.551537,30.248251
3165000000,-54.610233,13.798513
3168000000,-54.547749,-2.7533851
3171000000,-54.618622,-18.807158
3174000000,-54.580582,-35.733768
3177000000,-54.537174,-52.373615
3180000000,-54.474731,-68.613647
3183000000,-54.457825,-85.792297
3186000000,-54.395287,-102.43059
3189000000,-54.536907,-120.16221
3192000000,-54.702816,-136.23845
3195000000,-54.831429,-152.5298
3198000000,-55.001095,-168.28047
3201000000,-54.870075,175.73227
3204000000,-54.909576,159.12291
3207000000,-54.934956,142.25713
3210000000,-55.111332,126.12605
3213000000,-55.200798,109.61123
3216000000,-55.333439,94.250206
3219000000,-55.481354,79.659592
3222000000,-55.670059,64.167358
3225000000,-55.427677,49.234741
3228000000,-55.507645,33.551739
3231000000,-55.392372,17.467581
3234000000,-55.165142,0.70700651
3237000000,-55.250526,-15.707595
3240000000,-55.2953,-31.67474
3243000000,-55.309151,-49.241341
3246000000,-55.546749,-64.133873
3249000000,-55.536362,-80.451294
3252000000,-55.578861,-95.365593
3255000000,-55.624889,-111.98255
3258000000,-55.590691,-128.83542
3261000000,-55.865807,-144.06125
3264000000,-55.95586,-160.26308
3267000000,-55.864586,-175.05618
3270000000,-56.033886,170.56427
3273000000,-55.890167,155.7778
3276000000,-56.038757,139.66223
3279000000,-55.877914,125.42813
3282000000,-55.785419,109.46689
3285000000,-55.755569,94.365311
3288000000,-55.82579,79.236671
3291000000,-55.537266,63.912254
3294000000,-55.369869,48.276634
3297000000,-55.231857,33.461136
3300000000,-55.039028,16.889206
3303000000,-54.893791,0.75426573
3306000000,-54.683666,-14.957344
3309000000,-54.455418,-31.558401
3312000000,-54.387604,-47.599304
3315000000,-54.095165,-63.616253
3318000000,-54.06076,-81.125282
3321000000,-53.771622,-98.843536
3324000000,-53.761326,-116.02553
3327000000,-53.794785,-134.52385
3330000000,-53.742382,-151.68942
3333000000,-53.768845,-168.21744
3336000000,-53.987133,174.2554
3339000000,-53.984348,157.28148
3342000000,-54.163124,140.25035
3345000000,-54.250538,122.6934
3348000000,-54.482239,107.421
3351000000,-54.819946,90.668938
3354000000,-54.946198,75.880646
3357000000,-54.85014,60.769756
3360000000,-54.955891,45.637882
3363000000,-54.971123,29.779724
3366000000,-55.022713,13.837921
3369000000,-54.965389,-0.93015814
3372000000,-54.988438,-17.497393
3375000000,-54.979794,-32.86734
3378000000,-54.786564,-49.1847
3381000000,-54.734886,-64.570755
3384000000,-54.621964,-80.53717
3387000000,-54.450794,-95.656013
3390000000,-54.405163,-113.32716
3393000000,-54.512203,-130.53307
3396000000,-54.464127,-148.13428
3399000000,-54.630123,-163.94173
3402000000,-54.895309,-178.77002
3405000000,-54.649948,166.25816
3408000000,-54.739521,150.05179
3411000000,-54.712021,133.25691
3414000000,-54.607216,118.11512
3417000000,-54.633942,99.963936
3420000000,-54.663612,84.654526
3423000000,-54.811615,69.462875
3426000000,-54.635345,52.653278
3429000000,-54.519802,36.124641
3432000000,-54.575535,19.075172
3435000000,-54.694969,3.8729398
3438000000,-54.60128,-12.218022
3441000000,-54.703651,-28.619225
3444000000,-54.847275,-45.630154
3447000000,-55.052006,-60.311474
3450000000,-54.854362,-74.859245
3453000000,-54.87241,-91.473724
3456000000,-54.636169,-107.25462
3459000000,-54.543159,-123.68559
3462000000,-54.677227,-140.01456
3465000000,-54.771828,-156.26697
3468000000,-54.82177,-171.28038
3471000000,-54.488476,172.58412
3474000000,-54.352417,156.14079
3477000000,-54.405029,138.53737
3480000000,-54.520088,122.58859
3483000000,-54.551632,105.91425
3486000000,-54.543121,88.275818
3489000000,-54.670021,74.792557
3492000000,-54.603561,57.73938
3495000000,-54.50975,41.765419
3498000000,-54.712658,24.65575
3501000000,-54.665798,9.5341873
3504000000,-54.709499,-6.5158768
3507000000,-54.688782,-22.938631
3510000000,-54.516918,-40.870934
3513000000,-54.683083,-56.083637
3516000000,-54.667801,-71.242729
3519000000,-54.819305,-87.31427
3522000000,-54.699329,-102.24791
3525000000,-54.583076,-119.82839
3528000000,-54.377293,-135.78259
3531000000,-54.5769,-153.97346
3534000000,-54.677708,-170.06543
3537000000,-54.882771,174.51512
3540000000,-54.82122,158.72606
3543000000,-54.957447,142.4119
3546000000,-54.798569,126.62804
3549000000,-54.758614,110.76862
3552000000,-54.714794,94.085136
3555000000,-54.799103,77.364922
3558000000,-54.781029,60.943756
3561000000,-54.955959,45.09346
3564000000,-54.83807,28.681973
3567000000,-54.973484,13.455894
3570000000,-54.925961,-2.4617267
3573000000,-54.6661,-18.266325
3576000000,-54.640381,-35.817627
3579000000,-54.663902,-53.067028
3582000000,-54.770775,-70.052132
3585000000,-55.122566,-86.113487
3588000000,-55.238941,-102.75492
3591000000,-55.345051,-118.48869
3594000000,-55.416862,-134.43204
3597000000,-55.22179,-150.09161
3600000000,-55.354717,-166.67014
3603000000,-55.704323,176.3895
3606000000,-56.027206,159.40912
3609000000,-56.202789,145.14052
3612000000,-56.566208,131.59041
3615000000,-56.61977,116.57042
3618000000,-56.57534,105.28862
3621000000,-56.279564,89.119308
3624000000,-56.115311,72.737061
3627000000,-55.977886,57.218117
3630000000,-55.92384,41.515884
3633000000,-55.998638,24.35836
3636000000,-56.006672,10.817462
3639000000,-55.88332,-4.2089057
3642000000,-55.504684,-20.875034
3645000000,-55.242252,-37.444542
3648000000,-55.270489,-53.694218
3651000000,-55.303837,-71.210251
3654000000,-55.524338,-88.122963
3657000000,-55.653469,-104.65266
3660000000,-55.515945,-119.21667
3663000000,-55.537117,-135.64821
3666000000,-55.309093,-150.95715
3669000000,-55.407169,-167.17256
3672000000,-55.388195,175.4655
3675000000,-55.405491,159.00705
3678000000,-55.649994,142.6649
3681000000,-55.799664,128.05104
3684000000,-55.596905,113.96278
3687000000,-55.515171,97.771805
3690000000,-55.494709,82.349983
3693000000,-55.310108,65.923592
3696000000,-55.179256,48.347027
3699000000,-55.224869,32.136425
3702000000,-55.441422,16.34634
3705000000,-55.269962,0.040286593
3708000000,-55.335083,-13.597932
3711000000,-55.17923,-29.391483
3714000000,-55.188877,-45.644894
3717000000,-54.914928,-61.876644
3720000000,-54.796886,-79.52475
3723000000,-54.802734,-97.200882
3726000000,-54.84079,-113.01292
3729000000,-54.797211,-129.36768
3732000000,-55.043613,-145.8584
3735000000,-54.918861,-161.66919
3738000000,-54.930023,-178.90991
3741000000,-54.772305,164.84082
3744000000,-54.980911,146.93724
3747000000,-55.123257,130.84584
3750000000,-55.10273,113.53578
3753000000,-55.445511,98.743523
3756000000,-55.430683,82.901634
3759000000,-55.594437,68.059311
3762000000,-55.474056,51.568829
3765000000,-55.347214,35.536289
3768000000,-55.525658,17.94595
3771000000,-55.634472,2.9714708
3774000000,-55.692265,-11.345123
3777000000,-55.574413,-27.335821
3780000000,-55.818886,-42.285122
3783000000,-55.397964,-58.763725
3786000000,-55.450638,-75.081268
3789000000,-55.425877,-92.270485
3792000000,-55.448586,-108.53017
3795000000,-55.416111,-124.9758
3798000000,-55.698074,-140.9603
3801000000,-55.831978,-156.5201
3804000000,-56.009533,-171.72769
3807000000,-55.973255,170.65808
3810000000,-55.983704,157.84731
3813000000,-55.99696,139.93919
3816000000,-55.985443,126.01322
3819000000,-55.864075,109.94493
3822000000,-55.913475,93.579384
3825000000,-55.794952,77.801262
3828000000,-55.846489,61.591396
3831000000,-55.690228,45.592209
3834000000,-55.845032,29.773663
3837000000,-56.062252,12.960804
3840000000,-56.14584,-1.9869851
3843000000,-56.104904,-15.484022
3846000000,-55.911491,-31.449179
3849000000,-55.846996,-46.755432
3852000000,-55.732861,-62.340191
3855000000,-55.517872,-78.350647
3858000000,-55.496742,-94.71521
3861000000,-55.55777,-109.57857
3864000000,-55.352142,-125.28693
3867000000,-55.189362,-141.7981
3870000000,-54.927902,-158.65105
3873000000,-54.665363,-173.58661
3876000000,-54.616295,167.9071
3879000000,-54.636932,150.5921
3882000000,-54.530628,133.92697
3885000000,-54.571571,116.75396
3888000000,-54.687416,100.27412
3891000000,-54.666592,84.150291
3894000000,-54.827038,67.513283
3897000000,-54.728107,51.234241
3900000000,-54.759796,33.173607
3903000000,-54.930275,15.63056
3906000000,-55.180859,-0.53478247
3909000000,-55.276947,-16.507418
3912000000,-55.400646,-31.220081
3915000000,-55.511795,-46.219208
3918000000,-55.297337,-61.122482
3921000000,-55.232166,-78.387238
3924000000,-55.08086,-95.051178
3927000000,-55.292915,-112.17946
3930000000,-55.456955,-128.00778
3933000000,-55.707298,-144.6405
3936000000,-55.552868,-158.33575
3939000000,-55.838432,-173.55196
3942000000,-55.749435,171.45186
3945000000,-55.502224,154.24994
3948000000,-55.341984,137.96317
3951000000,-55.04187,120.01373
3954000000,-55.395222,103.29819
3957000000,-55.376583,86.509476
3960000000,-55.687183,71.827965
3963000000,-55.862133,56.070107
3966000000,-55.724495,40.440403
3969000000,-55.748283,24.508347
3972000000,-55.676945,8.663578
3975000000,-55.916985,-7.5058298
3978000000,-56.010811,-23.573942
3981000000,-55.84626,-39.715645
3984000000,-56.098,-54.167477
3987000000,-56.123398,-67.333839
3990000000,-55.985794,-82.368263
3993000000,-55.39468,-98.747879
3996000000,-55.413937,-116.91881
3999000000,-55.470078,-134.01556
4002000000,-55.786987,-150.16876
4005000000,-55.842152,-164.83205
4008000000,-55.867607,179.56918
4011000000,-55.538189,165.6882
4014000000,-55.519192,148.19492
4017000000,-55.194439,132.11526
4020000000,-55.287601,115.15579
4023000000,-55.242474,97.637001
4026000000,-55.084328,80.62191
4029000000,-55.300148,63.919289
4032000000,-55.379593,48.467091
4035000000,-55.504009,33.310085
4038000000,-55.358212,17.802923
4041000000,-55.31332,0.5444144
4044000000,-55.231636,-15.295322
4047000000,-55.401051,-32.607052
4050000000,-55.621166,-48.993324
4053000000,-55.530983,-63.276272
4056000000,-55.672157,-80.213379
4059000000,-55.630615,-95.579758
4062000000,-55.227779,-112.52602
4065000000,-55.290642,-129.88728
4068000000,-55.382622,-146.50073
4071000000,-55.482227,-162.87286
4074000000,-55.817055,179.96783
4077000000,-55.859138,166.84341
4080000000,-55.913975,149.74985
4083000000,-55.830784,135.50702
4086000000,-55.703075,119.32293
4089000000,-55.586803,101.17508
4092000000,-55.820866,85.494125
4095000000,-55.701385,68.890434
4098000000,-56.04863,54.031994
4101000000,-55.685452,37.796391
4104000000,-55.778835,21.70623
4107000000,-55.812279,6.0718613
4110000000,-55.734768,-10.025935
4113000000,-55.774597,-25.633503
4116000000,-55.845383,-42.326012
4119000000,-55.749138,-58.910007
4122000000,-55.796677,-74.249855
4125000000,-55.883625,-91.138023
4128000000,-55.979053,-106.95009
4131000000,-55.739899,-123.22164
4134000000,-56.108566,-139.99544
4137000000,-56.076481,-154.39972
4140000000,-55.867908,-170.51868
4143000000,-56.117722,172.44412
4146000000,-56.126122,156.71474
4149000000,-56.170574,141.67813
4152000000,-56.045891,126.54117
4155000000,-56.229061,110.92584
4158000000,-55.944489,94.174881
4161000000,-56.084743,76.95578
4164000000,-56.150776,59.265293
4167000000,-56.212067,43.673862
4170000000,-56.330204,27.749035
4173000000,-56.591003,12.915118
4176000000,-56.659382,-0.63571405
4179000000,-56.386417,-14.329616
4182000000,-56.36409,-30.007078
4185000000,-56.174072,-47.39389
4188000000,-56.049625,-62.511059
4191000000,-55.908306,-79.514481
4194000000,-55.950584,-97.520638
4197000000,-55.961124,-113.60159
4200000000,-56.029095,-128.96465
4203000000,-55.941822,-143.23727
4206000000,-55.909649,-159.26942
4209000000,-55.72295,-175.44804
4212000000,-55.880043,167.89932
4215000000,-55.810589,152.51799
4218000000,-55.682655,136.27022
4221000000,-55.608368,119.52313
4224000000,-55.522514,103.81139
4227000000,-55.585995,85.329041
4230000000,-55.442505,71.351128
4233000000,-55.330521,54.45924
4236000000,-55.38924,37.242054
4239000000,-55.405277,20.722126
4242000000,-55.419029,3.6072197
4245000000,-55.730553,-12.393416
4248000000,-55.551914,-28.407856
4251000000,-55.792576,-45.702946
4254000000,-55.783764,-61.51907
4257000000,-55.944134,-76.569588
4260000000,-55.906715,-91.332191
4263000000,-55.824768,-108.58581
4266000000,-55.749249,-125.18412
4269000000,-55.646439,-140.90289
4272000000,-55.659103,-156.96635
4275000000,-55.624359,-173.90927
4278000000,-55.782459,171.26852
4281000000,-55.665146,154.60078
4284000000,-55.660183,137.51404
4287000000,-55.713478,120.07474
4290000000,-55.929817,102.86258
4293000000,-56.135719,86.575462
4296000000,-56.21067,72.737144
4299000000,-56.24036,58.446728
4302000000,-56.198151,42.935257
4305000000,-56.269638,25.535686
4308000000,-56.29884,10.863559
4311000000,-56.196411,-5.3286343
4314000000,-56.376682,-21.857395
4317000000,-56.174419,-38.491684
4320000000,-56.246296,-53.48571
4323000000,-56.361874,-70.482994
4326000000,-56.250004,-87.066788
4329000000,-56.410854,-101.43613
4332000000,-56.441975,-119.57378
4335000000,-56.390972,-133.56294
4338000000,-56.581978,-148.76692
4341000000,-56.371227,-165.27466
4344000000,-56.598221,-179.73312
4347000000,-56.508553,163.33783
4350000000,-56.368477,148.21136
4353000000,-56.485397,132.64966
4356000000,-56.176655,118.69101
4359000000,-56.178329,100.12572
4362000000,-56.000889,85.034164
4365000000,-55.866486,68.768639
4368000000,-55.910126,51.977501
4371000000,-56.119915,36.074062
4374000000,-55.813545,21.347691
4377000000,-55.864079,3.2174037
4380000000,-55.759068,-13.07753
4383000000,-55.624058,-30.320934
4386000000,-55.931339,-45.94088
4389000000,-56.022671,-61.985279
4392000000,-55.855183,-78.199913
4395000000,-55.929504,-95.330658
4398000000,-55.805717,-111.09629
4401000000,-55.970581,-126.56853
4404000000,-55.949448,-141.51689
4407000000,-55.845627,-156.79369
4410000000,-55.822208,-174.29976
4413000000,-55.779659,169.8999
4416000000,-55.60358,153.77325
4419000000,-55.61533,137.06479
4422000000,-55.535355,119.43818
4425000000,-55.79509,102.39068
4428000000,-55.739925,87.007294
4431000000,-55.848717,71.673882
4434000000,-55.833122,55.067989
4437000000,-55.79578,39.186367
4440000000,-55.8535,22.183817
4443000000,-55.878571,5.7234826
4446000000,-55.983982,-8.5376101
4449000000,-56.148369,-25.010855
4452000000,-56.036388,-40.986809
4455000000,-56.023758,-56.416485
4458000000,-55.9258,-72.794617
4461000000,-55.636612,-89.055649
4464000000,-55.667641,-106.9755
4467000000,-55.784275,-123.50508
4470000000,-55.891884,-138.32626
4473000000,-55.839413,-154.72255
4476000000,-55.94664,-171.11592
4479000000,-55.759476,171.32805
4482000000,-55.827522,157.17955
4485000000,-55.673557,139.70676
4488000000,-55.769527,122.46294
4491000000,-55.579624,105.58019
4494000000,-55.919682,89.999519
4497000000,-56.176674,73.796432
4500000000,-55.908646,56.072803
4503000000,-56.242741,40.695606
4506000000,-56.241749,24.39649
4509000000,-56.296535,8.7867107
4512000000,-56.294861,-6.2749619
4515000000,-56.188927,-24.140064
4518000000,-56.345535,-39.972481
4521000000,-56.705097,-55.536121
4524000000,-56.747715,-72.57991
4527000000,-56.690395,-87.077232
4530000000,-56.587357,-102.79984
4533000000,-56.759579,-119.95287
4536000000,-56.830471,-135.91576
4539000000,-56.89637,-150.21217
4542000000,-56.943031,-167.19615
4545000000,-57.151276,177.10658
4548000000,-57.19772,161.57791
4551000000,-56.98592,146.42035
4554000000,-57.122765,131.60902
4557000000,-57.052322,116.799
4560000000,-56.902065,99.595634
4563000000,-56.972729,84.094254
4566000000,-56.962349,69.128326
4569000000,-56.898178,53.28371
4572000000,-56.817326,36.667
4575000000,-56.904697,21.472046
4578000000,-56.541431,5.6206069
4581000000,-56.516857,-11.892485
4584000000,-56.711205,-29.936689
4587000000,-56.451183,-44.904053
4590000000,-56.696556,-61.55592
4593000000,-56.514771,-76.56324
4596000000,-56.413918,-93.3964
4599000000,-56.729584,-111.32492
4602000000,-56.630917,-126.94882
4605000000,-56.622776,-143.01787
4608000000,-56.666515,-159.78517
4611000000,-56.613922,-175.60667
4614000000,-56.710381,168.29565
4617000000,-57.004185,151.40283
4620000000,-57.07793,138.57382
4623000000,-56.766811,119.96882
4626000000,-56.753036,104.82112
4629000000,-56.96059,88.823387
4632000000,-56.766891,71.685616
4635000000,-56.63361,55.324299
4638000000,-56.907082,38.947346
4641000000,-56.886463,22.786196
4644000000,-56.627892,7.1157122
4647000000,-56.799732,-10.285173
4650000000,-56.995975,-27.418182
4653000000,-56.996429,-44.213409
4656000000,-57.310005,-59.97963
4659000000,-57.421223,-74.988213
4662000000,-57.418594,-91.168396
4665000000,-57.570118,-108.22097
4668000000,-57.777321,-122.93909
4671000000,-57.540913,-138.2894
4674000000,-57.707615,-155.01906
4677000000,-57.779816,-170.56187
4680000000,-57.934891,171.8992
4683000000,-57.776691,157.33102
4686000000,-57.95026,141.31831
4689000000,-58.035069,126.57085
4692000000,-58.194473,108.69991
4695000000,-58.354301,96.314384
4698000000,-58.058502,80.238045
4701000000,-57.968277,64.358749
4704000000,-58.22723,50.195232
4707000000,-58.375278,31.583838
4710000000,-58.553547,17.631977
4713000000,-58.505054,3.5015962
4716000000,-58.43187,-13.016749
4719000000,-58.126663,-28.133358
4722000000,-57.969654,-43.055271
4725000000,-57.841454,-59.733753
4728000000,-58.093342,-76.926758
4731000000,-58.060139,-91.628792
4734000000,-58.145851,-106.96723
4737000000,-57.784824,-121.09399
4740000000,-57.769413,-138.78809
4743000000,-57.797413,-155.77783
4746000000,-57.799889,-170.45601
4749000000,-57.703651,172.68202
4752000000,-57.686691,158.38176
4755000000,-57.579662,140.62064
4758000000,-57.826103,126.21964
4761000000,-57.664585,110.35146
4764000000,-57.717163,94.09568
4767000000,-57.489094,78.220901
4770000000,-57.26939,61.941006
4773000000,-57.253384,44.429085
4776000000,-57.408569,30.068075
4779000000,-57.229172,13.377986
4782000000,-57.251335,-3.7557063
4785000000,-57.497578,-19.493145
4788000000,-57.772766,-33.379986
4791000000,-57.686863,-50.685204
4794000000,-57.509121,-67.69619
4797000000,-57.194851,-81.815132
4800000000,-56.980576,-98.766006
4803000000,-56.877777,-115.43414
4806000000,-56.955978,-131.14684
4809000000,-56.722748,-147.48573
4812000000,-56.913349,-166.57336
4815000000,-57.055489,178.7339
4818000000,-56.915314,161.83188
4821000000,-57.227997,144.38638
4824000000,-57.069546,126.90505
4827000000,-57.587772,112.85533
4830000000,-57.39204,97.700485
4833000000,-57.492928,81.059792
4836000000,-57.43425,65.275604
4839000000,-57.414032,49.860203
