!CSV A.01.01
!Keysight Technologies,N5227B,US58420762,A.13.80.08
!Date: Monday, November 20, 2023 14:54:41
!Source: Standard

BEGIN CH1_DATA
Freq(Hz),S21(DB),S21(DEG)
3000000000,-54.30056,137.77783
3003000000,-54.270264,121.35909
3006000000,-54.276165,104.03986
3009000000,-54.202862,88.330727
3012000000,-54.28442,72.441864
3015000000,-54.289562,55.377415
3018000000,-54.219017,39.511478
3021000000,-53.986782,23.032841
3024000000,-54.034286,5.498951
3027000000,-53.831249,-11.402757
3030000000,-53.850571,-28.178934
3033000000,-53.795132,-44.610481
3036000000,-53.534698,-61.057861
3039000000,-53.425602,-77.350388
3042000000,-53.226543,-96.106804
3045000000,-53.026577,-114.1135
3048000000,-53.147457,-132.15918
3051000000,-53.089455,-149.7159
3054000000,-53.075253,-168.02205
3057000000,-53.243187,174.36482
3060000000,-53.483093,156.67041
3063000000,-53.39212,139.46259
3066000000,-53.480888,122.89703
3069000000,-53.605515,104.76062
3072000000,-53.587532,87.818748
3075000000,-53.766079,71.098145
3078000000,-53.977879,54.05872
3081000000,-54.084938,37.023499
3084000000,-54.22916,21.724909
3087000000,-54.347752,5.3242283
3090000000,-54.344826,-11.326103
3093000000,-54.23085,-26.641285
3096000000,-54.19651,-43.190826
3099000000,-54.049778,-59.641792
3102000000,-53.977573,-76.774933
3105000000,-53.980236,-93.72226
3108000000,-54.052559,-109.77779
3111000000,-53.971424,-126.92589
3114000000,-53.999527,-144.53854
3117000000,-53.989582,-161.1328
3120000000,-53.958027,-178.04082
3123000000,-53.936943,165.45425
3126000000,-53.941067,148.20099
3129000000,-53.890034,131.76579
3132000000,-54.018528,114.08353
3135000000,-54.073952,97.280403
3138000000,-54.169125,81.412148
3141000000,-54.068947,65.172966
3144000000,-53.993336,49.118023
3147000000,-53.837154,32.400318
3150000000,-53.759323,15.015718
3153000000,-53.65057,-2.3435614
3156000000,-53.666935,-19.360758
3159000000,-53.750698,-36.783566
3162000000,-53.8283,-52.968269
3165000000,-53.678558,-69.060715
3168000000,-53.589901,-85.269783
3171000000,-53.440674,-102.9356
3174000000,-53.387836,-120.72925
3177000000,-53.19722,-138.43645
3180000000,-53.330795,-157.06076
3183000000,-53.418926,-174.62665
3186000000,-53.612171,168.25694
3189000000,-53.696297,151.72768
3192000000,-53.782436,134.7999
3195000000,-53.7826,118.22358
3198000000,-53.901363,101.5796
3201000000,-53.89357,84.737457
3204000000,-53.937683,68.347572
3207000000,-53.878433,51.218147
3210000000,-53.875607,34.90136
3213000000,-54.048378,18.483059
3216000000,-54.054989,2.2462692
3219000000,-54.038258,-13.61069
3222000000,-54.000755,-29.780031
3225000000,-53.780495,-46.168926
3228000000,-53.708988,-63.975986
3231000000,-53.651897,-80.029991
3234000000,-53.608307,-97.610245
3237000000,-53.639523,-115.65913
3240000000,-53.664116,-131.7543
3243000000,-53.6945,-147.93929
3246000000,-53.563507,-165.17404
3249000000,-53.409752,177.38733
3252000000,-53.348862,159.65788
3255000000,-53.358231,141.75073
3258000000,-53.485874,123.53337
3261000000,-53.651051,107.03107
3264000000,-53.738529,90.685371
3267000000,-53.876217,74.370888
3270000000,-53.847324,57.68351
3273000000,-53.915516,41.333172
3276000000,-53.848476,24.080265
3279000000,-53.71764,6.7113743
3282000000,-53.855858,-9.9001446
3285000000,-54.0289,-26.51025
3288000000,-54.234196,-43.209438
3291000000,-54.214352,-58.387108
3294000000,-54.203144,-74.199348
3297000000,-54.126728,-89.424187
3300000000,-53.977551,-105.29421
3303000000,-53.663326,-122.14541
3306000000,-53.640854,-140.12727
3309000000,-53.656399,-156.57791
3312000000,-53.51643,-173.70374
3315000000,-53.311768,168.90508
3318000000,-53.313236,151.87372
3321000000,-53.123631,134.29514
3324000000,-53.24247,116.7052
3327000000,-53.133511,98.993095
3330000000,-53.20752,81.000587
3333000000,-53.236305,64.67028
3336000000,-53.301441,46.797005
3339000000,-53.259563,29.745012
3342000000,-53.408226,12.454902
3345000000,-53.41087,-4.5149732
3348000000,-53.595257,-21.203852
3351000000,-53.624779,-38.36158
3354000000,-53.886627,-54.666412
3357000000,-53.735699,-71.373764
3360000000,-53.831123,-87.742493
3363000000,-53.869892,-104.31541
3366000000,-53.862965,-120.04883
3369000000,-53.736721,-136.3895
3372000000,-53.871315,-153.00221
3375000000,-53.781536,-169.35077
3378000000,-53.700748,173.94264
3381000000,-53.526859,157.29082
3384000000,-53.593731,139.33617
3387000000,-53.498451,121.97037
3390000000,-53.499756,105.58041
3393000000,-53.46846,88.86248
3396000000,-53.502129,71.058502
3399000000,-53.440899,55.064327
3402000000,-53.52726,37.645718
3405000000,-53.382797,20.804247
3408000000,-53.471039,4.3223166
3411000000,-53.55024,-12.385121
3414000000,-53.508286,-30.374821
3417000000,-53.562847,-47.120209
3420000000,-53.570789,-63.235321
3423000000,-53.527531,-79.740311
3426000000,-53.459934,-96.572762
3429000000,-53.369297,-113.22751
3432000000,-53.369659,-130.50659
3435000000,-53.375015,-147.20467
3438000000,-53.317818,-164.39075
3441000000,-53.325127,178.95422
3444000000,-53.410938,161.75525
3447000000,-53.308079,145.6198
3450000000,-53.174377,129.28012
3453000000,-53.093388,110.88888
3456000000,-53.06921,93.548203
3459000000,-53.158997,75.461594
3462000000,-53.173531,57.104744
3465000000,-53.332302,41.419945
3468000000,-53.376419,25.169767
3471000000,-53.250828,9.2347746
3474000000,-53.344589,-8.3849211
3477000000,-53.309597,-26.898336
3480000000,-53.458496,-43.460735
3483000000,-53.537529,-59.808182
3486000000,-53.639297,-76.791931
3489000000,-53.715889,-92.576736
3492000000,-53.678413,-109.32082
3495000000,-53.674595,-126.19463
3498000000,-53.698395,-143.49727
3501000000,-53.942528,-159.83194
3504000000,-53.923615,-174.86421
3507000000,-53.796814,167.92088
3510000000,-53.740013,151.76248
3513000000,-53.725082,135.22328
3516000000,-53.68504,118.77153
3519000000,-53.591248,101.39793
3522000000,-53.555508,86.665161
3525000000,-53.297073,69.932663
3528000000,-53.167393,52.280563
3531000000,-53.028137,34.45163
3534000000,-52.963013,16.398872
3537000000,-53.006618,-0.80550617
3540000000,-53.069969,-17.984251
3543000000,-53.067944,-36.000259
3546000000,-53.175476,-52.867256
3549000000,-53.138901,-69.747108
3552000000,-53.073338,-86.019524
3555000000,-53.081944,-104.56384
3558000000,-53.165981,-121.31398
3561000000,-53.152489,-138.07716
3564000000,-53.326443,-155.4388
3567000000,-53.52787,-172.37193
3570000000,-53.641747,171.43199
3573000000,-53.53096,155.23634
3576000000,-53.550217,139.9651
3579000000,-53.428944,123.31448
3582000000,-53.196709,106.50368
3585000000,-53.179695,87.812759
3588000000,-53.275852,69.442291
3591000000,-53.441124,53.326309
3594000000,-53.467751,37.021267
3597000000,-53.508305,21.467476
3600000000,-53.513355,5.2416172
3603000000,-53.264286,-11.525187
3606000000,-53.176952,-28.843592
3609000000,-53.108047,-47.199982
3612000000,-53.237141,-64.430664
3615000000,-53.223999,-81.666412
3618000000,-53.195778,-99.337959
3621000000,-53.467205,-116.50429
3624000000,-53.557472,-133.46999
3627000000,-53.702229,-149.90506
3630000000,-53.619949,-166.4996
3633000000,-53.791981,178.52283
3636000000,-53.812115,161.9045
3639000000,-53.698677,144.94322
3642000000,-53.549141,128.31372
3645000000,-53.682819,111.15003
3648000000,-53.650043,94.867592
3651000000,-53.741348,78.925697
3654000000,-53.68539,62.266922
3657000000,-53.544247,46.536865
3660000000,-53.369503,30.787733
3663000000,-53.102127,12.377131
3666000000,-53.060089,-5.4301896
3669000000,-53.119549,-23.194632
3672000000,-53.073845,-40.450813
3675000000,-53.121094,-57.955631
3678000000,-53.26458,-74.888474
3681000000,-53.370533,-91.712547
3684000000,-53.168648,-107.99699
3687000000,-53.217091,-124.59718
3690000000,-53.106876,-142.1479
3693000000,-53.029751,-160.34659
3696000000,-53.132141,-178.58472
3699000000,-53.502697,164.03468
3702000000,-53.708698,147.62541
3705000000,-53.939598,132.56194
3708000000,-53.93996,118.02824
3711000000,-53.753754,102.11572
3714000000,-53.560169,85.701477
3717000000,-53.409451,68.522713
3720000000,-53.214283,50.191116
3723000000,-53.277515,32.81126
3726000000,-53.362778,15.509913
3729000000,-53.64241,-0.42472619
3732000000,-53.507092,-16.71958
3735000000,-53.574894,-32.933651
3738000000,-53.281895,-49.642799
3741000000,-53.201828,-66.756645
3744000000,-52.921791,-84.116127
3747000000,-52.982967,-101.71157
3750000000,-53.198246,-119.75335
3753000000,-53.185051,-136.60291
3756000000,-53.376251,-153.31493
3759000000,-53.32848,-170.00204
3762000000,-53.40329,173.17349
3765000000,-53.420033,157.29031
3768000000,-53.291489,139.86084
3771000000,-53.328384,123.26556
3774000000,-53.217571,106.79131
3777000000,-53.223927,89.281914
3780000000,-53.288563,72.274673
3783000000,-53.343552,54.413643
3786000000,-53.530918,38.091881
3789000000,-53.333977,21.242992
3792000000,-53.314693,5.0146194
3795000000,-53.250393,-12.290708
3798000000,-53.288464,-28.930008
3801000000,-53.224964,-45.602993
3804000000,-53.154217,-62.969467
3807000000,-53.154545,-79.916824
3810000000,-53.062553,-97.60527
3813000000,-53.17149,-115.09496
3816000000,-53.244564,-131.69649
3819000000,-53.291309,-148.28323
3822000000,-53.252121,-165.6196
3825000000,-53.354755,177.93562
3828000000,-53.419472,161.37538
3831000000,-53.388508,143.55634
3834000000,-53.371693,126.47736
3837000000,-53.42345,110.05207
3840000000,-53.534939,93.644882
3843000000,-53.738262,76.63295
3846000000,-53.720997,61.062397
3849000000,-53.845558,45.272964
3852000000,-53.659584,29.605459
3855000000,-53.240044,13.589879
3858000000,-53.328033,-3.9906051
3861000000,-53.253044,-22.342583
3864000000,-53.285572,-38.653389
3867000000,-53.337677,-56.077106
3870000000,-53.349564,-72.182182
3873000000,-53.37569,-88.954422
3876000000,-53.038849,-104.29685
3879000000,-52.949108,-121.47239
3882000000,-52.728104,-138.89761
3885000000,-52.581829,-155.32033
3888000000,-52.380833,-174.52078
3891000000,-52.495541,166.37128
3894000000,-52.62812,148.59489
3897000000,-52.945442,131.40347
3900000000,-52.958755,114.574
3903000000,-52.905613,98.157341
3906000000,-52.956245,81.454742
3909000000,-52.877827,65.07164
3912000000,-53.053513,47.379421
3915000000,-53.02832,29.748182
3918000000,-53.024086,11.847779
3921000000,-53.271164,-4.9938278
3924000000,-53.31295,-22.208178
3927000000,-53.546112,-37.456844
3930000000,-53.47168,-52.662556
3933000000,-53.319386,-68.456039
3936000000,-53.111347,-85.987633
3939000000,-52.858074,-103.08805
3942000000,-52.834702,-121.59541
3945000000,-53.135693,-140.42186
3948000000,-53.314842,-157.2523
3951000000,-53.545437,-172.9243
3954000000,-53.507248,170.53297
3957000000,-53.552044,155.76675
3960000000,-53.321465,138.37439
3963000000,-53.188538,120.67891
3966000000,-53.23148,102.68463
3969000000,-53.340866,85.354584
3972000000,-53.402771,67.965446
3975000000,-53.675472,53.015728
3978000000,-53.677887,36.585377
3981000000,-53.543137,20.428596
3984000000,-53.494648,5.705945
3987000000,-53.288418,-11.577426
3990000000,-52.950855,-29.472544
3993000000,-52.996296,-47.942665
3996000000,-53.018257,-64.915421
3999000000,-53.290134,-82.777733
4002000000,-53.320965,-99.768822
4005000000,-53.440952,-116.12774
4008000000,-53.406521,-131.78461
4011000000,-53.284645,-148.39249
4014000000,-53.219501,-165.26631
4017000000,-53.073971,176.97487
4020000000,-53.014618,158.76105
4023000000,-53.130798,141.09413
4026000000,-53.405266,124.41725
4029000000,-53.381351,108.14364
4032000000,-53.35041,91.464752
4035000000,-53.43116,74.689674
4038000000,-53.516159,57.706116
4041000000,-53.397297,41.034733
4044000000,-53.31012,24.818653
4047000000,-53.38773,7.1420746
4050000000,-53.316532,-10.351294
4053000000,-53.366165,-26.086266
4056000000,-53.386154,-43.706978
4059000000,-53.512665,-60.287704
4062000000,-53.380371,-76.959488
4065000000,-53.466125,-93.420319
4068000000,-53.476376,-111.16853
4071000000,-53.252506,-126.91666
4074000000,-53.179794,-145.3519
4077000000,-53.411297,-162.98903
4080000000,-53.35191,-179.53264
4083000000,-53.435833,164.15218
4086000000,-53.560345,146.12489
4089000000,-53.476521,129.62498
4092000000,-53.670048,112.58976
4095000000,-53.622669,96.642059
4098000000,-53.665115,80.364235
4101000000,-53.558338,62.689838
4104000000,-53.539009,47.428112
4107000000,-53.562595,29.904224
4110000000,-53.434555,12.60126
4113000000,-53.42767,-3.5439634
4116000000,-53.527229,-21.241087
4119000000,-53.571682,-37.304955
4122000000,-53.587627,-54.13015
4125000000,-53.538216,-70.240852
4128000000,-53.276421,-86.599251
4131000000,-53.187035,-104.9389
4134000000,-53.154789,-122.54131
4137000000,-53.276978,-140.4859
4140000000,-53.396847,-158.07857
4143000000,-53.38216,-173.92896
4146000000,-53.414833,168.77695
4149000000,-53.322777,150.93439
4152000000,-53.358124,135.16107
4155000000,-53.315815,118.30968
4158000000,-53.552662,100.74159
4161000000,-53.430637,84.315842
4164000000,-53.407104,66.3834
4167000000,-53.560982,49.3605
4170000000,-53.698864,31.519907
4173000000,-53.80587,15.259167
4176000000,-53.804287,-0.27579206
4179000000,-53.672371,-16.351141
4182000000,-53.624706,-34.294739
4185000000,-53.7169,-52.542435
4188000000,-53.885433,-68.214706
4191000000,-53.870876,-84.921646
4194000000,-53.760185,-101.93142
4197000000,-53.822334,-118.46827
4200000000,-53.877266,-135.03398
4203000000,-53.901028,-150.95168
4206000000,-53.876614,-166.40102
4209000000,-53.783314,176.04556
4212000000,-53.659107,160.69839
4215000000,-53.514427,142.50981
4218000000,-53.524353,124.68661
4221000000,-53.757416,107.39487
4224000000,-53.774696,91.015289
4227000000,-53.723892,74.620628
4230000000,-53.557716,58.009045
4233000000,-53.59314,40.94418
4236000000,-53.500645,23.022999
4239000000,-53.491692,5.1081796
4242000000,-53.410072,-10.738017
4245000000,-53.475826,-28.796635
4248000000,-53.490532,-45.911617
4251000000,-53.495316,-61.9062
4254000000,-53.465733,-79.189919
4257000000,-53.563457,-95.481621
4260000000,-53.454803,-111.47034
4263000000,-53.219303,-129.95474
4266000000,-53.350758,-148.1566
4269000000,-53.429504,-166.26477
4272000000,-53.557178,178.00929
4275000000,-53.575508,160.42534
4278000000,-53.663445,143.6489
4281000000,-53.649311,126.47742
4284000000,-53.812645,110.74384
4287000000,-53.735085,93.105347
4290000000,-53.730164,77.192055
4293000000,-53.698437,59.77742
4296000000,-53.738621,42.634514
4299000000,-53.666466,26.119728
4302000000,-53.831024,9.330513
4305000000,-53.861736,-8.4569368
4308000000,-54.049091,-24.006609
4311000000,-53.916641,-40.695812
4314000000,-53.873096,-57.819054
4317000000,-53.750496,-74.106239
4320000000,-53.880898,-90.586395
4323000000,-53.856712,-108.1381
4326000000,-53.691963,-124.01953
4329000000,-53.772785,-141.4201
4332000000,-53.598637,-159.99364
4335000000,-53.532108,-177.44594
4338000000,-53.780941,165.93912
4341000000,-53.678688,149.92044
4344000000,-53.699516,132.48839
4347000000,-53.745251,115.86929
4350000000,-53.848843,97.490463
4353000000,-53.904812,79.731529
4356000000,-53.879612,64.213882
4359000000,-54.162247,46.783474
4362000000,-54.333992,31.544214
4365000000,-54.244503,14.421154
4368000000,-54.376827,-1.9959036
4371000000,-54.322277,-17.10342
4374000000,-54.101788,-33.827419
4377000000,-54.213989,-50.589413
4380000000,-54.184372,-66.59214
4383000000,-54.032688,-83.325928
4386000000,-53.875462,-100.31792
4389000000,-53.773651,-117.74886
4392000000,-53.796696,-135.17844
4395000000,-53.758911,-152.46997
4398000000,-53.616329,-169.44228
4401000000,-53.575264,173.79819
4404000000,-53.545444,155.98488
4407000000,-53.347187,137.96667
4410000000,-53.454304,121.05983
4413000000,-53.536266,103.36008
4416000000,-53.556084,86.186302
4419000000,-53.629318,68.189842
4422000000,-53.643532,52.535355
4425000000,-53.825825,34.595444
4428000000,-53.713501,18.412041
4431000000,-54.003407,1.3555071
4434000000,-53.911118,-15.141769
4437000000,-53.836853,-32.324738
4440000000,-53.708218,-50.0662
4443000000,-53.877239,-67.946564
4446000000,-53.956627,-84.463928
4449000000,-54.026676,-99.727463
4452000000,-54.022099,-116.80741
4455000000,-54.013271,-133.57761
4458000000,-54.157589,-151.86848
4461000000,-54.242458,-166.72586
4464000000,-53.941662,175.58914
4467000000,-54.249958,158.47824
4470000000,-54.101971,140.71262
4473000000,-54.24316,124.9406
4476000000,-54.090805,108.201
4479000000,-54.104752,90.687531
4482000000,-54.306175,73.757011
4485000000,-54.275253,57.134418
4488000000,-54.364761,40.976147
4491000000,-54.358597,23.675333
4494000000,-54.310307,8.4931507
4497000000,-54.333527,-8.3830528
4500000000,-54.250854,-26.775112
4503000000,-54.363319,-43.24593
4506000000,-54.440651,-60.311192
4509000000,-54.542019,-76.362709
4512000000,-54.308304,-90.335762
4515000000,-54.133957,-107.44436
4518000000,-53.996456,-126.39098
4521000000,-53.874905,-143.23669
4524000000,-53.848972,-160.42819
4527000000,-54.093212,-176.96298
4530000000,-53.960922,166.09837
4533000000,-54.126778,148.25388
4536000000,-54.129101,132.42583
4539000000,-53.94701,115.32064
4542000000,-53.814575,96.947189
4545000000,-53.79689,79.849762
4548000000,-53.807793,61.119335
4551000000,-53.89616,44.823116
4554000000,-53.989349,27.4338
4557000000,-54.11335,10.966141
4560000000,-54.220848,-5.5623989
4563000000,-54.055286,-22.934999
4566000000,-54.119717,-39.074924
4569000000,-53.952724,-57.94466
4572000000,-54.020519,-74.703056
4575000000,-54.086372,-92.683228
4578000000,-54.314014,-109.97847
4581000000,-54.245117,-126.30511
4584000000,-54.526829,-142.31027
4587000000,-54.640972,-158.7681
4590000000,-54.656078,-173.4371
4593000000,-54.456787,170.10922
4596000000,-54.499798,151.46971
4599000000,-54.350407,134.8721
4602000000,-54.350105,117.65307
4605000000,-54.551933,99.687988
4608000000,-54.554073,83.554871
4611000000,-54.573586,67.316078
4614000000,-54.708736,52.306938
4617000000,-54.446392,36.814682
4620000000,-54.391117,19.171146
4623000000,-54.182995,1.9138639
4626000000,-54.182705,-16.316345
4629000000,-54.170277,-34.582245
4632000000,-54.493267,-50.183342
4635000000,-54.520157,-67.472466
4638000000,-54.46722,-84.428352
4641000000,-54.431606,-99.825829
4644000000,-54.290577,-116.71635
4647000000,-54.251804,-133.23041
4650000000,-54.344364,-150.35593
4653000000,-54.389458,-167.60182
4656000000,-54.318768,173.77661
4659000000,-54.197323,156.64201
4662000000,-54.35548,139.70895
4665000000,-54.387169,123.87467
4668000000,-54.544228,107.38808
4671000000,-54.370415,90.132172
4674000000,-54.466869,73.00296
4677000000,-54.21069,54.642242
4680000000,-54.335819,38.215832
4683000000,-54.294048,22.849632
4686000000,-54.282768,4.8361568
4689000000,-54.367561,-13.137281
4692000000,-54.37933,-28.311369
4695000000,-54.445641,-46.758625
4698000000,-54.477276,-63.665806
4701000000,-54.419659,-80.748886
4704000000,-54.395676,-97.68045
4707000000,-54.716305,-114.22975
4710000000,-54.689465,-130.75148
4713000000,-54.724758,-147.68541
4716000000,-54.666115,-164.72487
4719000000,-54.679962,179.03839
4722000000,-54.732239,162.28278
4725000000,-54.831669,146.89146
4728000000,-54.829418,130.52982
4731000000,-54.875149,112.89787
4734000000,-54.619404,96.47628
4737000000,-54.471157,80.366898
4740000000,-54.390274,62.624401
4743000000,-54.406326,45.010796
4746000000,-54.569759,27.019442
4749000000,-54.527397,10.9019
4752000000,-54.519855,-5.6002536
4755000000,-54.278992,-21.705669
4758000000,-54.31097,-39.294422
4761000000,-54.250755,-57.101532
4764000000,-54.036911,-73.962845
4767000000,-54.145508,-92.616562
4770000000,-54.379219,-108.40818
4773000000,-54.440434,-126.48499
4776000000,-54.655457,-143.19028
4779000000,-54.569252,-159.86174
4782000000,-54.774822,-176.66606
4785000000,-54.576138,167.32529
4788000000,-54.548428,150.99103
4791000000,-54.486431,131.946
4794000000,-54.697796,115.27485
4797000000,-54.71981,98.740509
4800000000,-54.698421,82.125015
4803000000,-54.890839,64.986069
4806000000,-54.828987,49.549965
4809000000,-54.696224,32.83353
4812000000,-54.762993,15.385937
4815000000,-54.556133,-0.8609609
4818000000,-54.567093,-19.779118
4821000000,-54.597561,-36.599319
4824000000,-54.365993,-53.686119
4827000000,-54.833923,-70.268814
4830000000,-54.605267,-86.62114
4833000000,-54.745804,-102.54178
4836000000,-54.785194,-119.60385
4839000000,-54.552238,-137.61835
