!CSV A.01.01
!Keysight Technologies,N5227B,US58420762,A.13.80.08
!Date: Monday, November 20, 2023 14:52:16
!Source: Standard

BEGIN CH1_DATA
Freq(Hz),S21(DB),S21(DEG)
3000000000,-56.258247,-119.65517
3003000000,-56.132694,-135.9913
3006000000,-55.926319,-152.59973
3009000000,-55.951466,-170.42503
3012000000,-56.009636,173.65956
3015000000,-55.976231,156.29366
3018000000,-56.011257,141.58661
3021000000,-56.021202,125.29799
3024000000,-55.809711,108.81706
3027000000,-55.705662,91.649483
3030000000,-55.593292,74.760475
3033000000,-55.779213,57.8321
3036000000,-55.760159,42.384937
3039000000,-55.836704,25.32444
3042000000,-55.42519,9.3082724
3045000000,-55.407173,-7.7967257
3048000000,-55.392044,-25.411264
3051000000,-55.32201,-43.103386
3054000000,-55.518471,-59.666935
3057000000,-55.475975,-76.531311
3060000000,-55.550262,-92.225861
3063000000,-55.763985,-108.68551
3066000000,-55.683678,-125.03912
3069000000,-55.744102,-142.27513
3072000000,-55.647396,-157.3551
3075000000,-55.74316,-175.13959
3078000000,-55.842869,168.47498
3081000000,-55.886292,152.01376
3084000000,-55.787506,136.96162
3087000000,-55.832226,119.18016
3090000000,-55.805737,103.20786
3093000000,-55.898407,85.722618
3096000000,-56.053219,69.515579
3099000000,-56.025856,53.668385
3102000000,-56.075966,37.719292
3105000000,-56.04126,20.988035
3108000000,-56.031078,4.5353279
3111000000,-56.266029,-13.079941
3114000000,-56.347515,-28.722383
3117000000,-56.300583,-43.781937
3120000000,-56.416466,-59.051788
3123000000,-56.314983,-75.032974
3126000000,-56.278358,-91.11927
3129000000,-56.357742,-107.48643
3132000000,-56.374428,-122.94782
3135000000,-56.159397,-139.265
3138000000,-56.221874,-154.96043
3141000000,-56.012775,-170.64879
3144000000,-55.817722,172.20737
3147000000,-55.849796,155.38229
3150000000,-56.010147,137.82866
3153000000,-55.826565,122.01473
3156000000,-55.727943,105.8683
3159000000,-55.697075,89.270714
3162000000,-55.651531,72.17012
3165000000,-55.658546,55.802334
3168000000,-55.636631,39.481483
3171000000,-55.613857,22.477016
3174000000,-55.702057,5.2892084
3177000000,-55.623222,-11.110166
3180000000,-55.72715,-27.415865
3183000000,-55.818977,-44.195351
3186000000,-55.762604,-61.168442
3189000000,-55.909866,-77.246719
3192000000,-55.998707,-93.111809
3195000000,-56.2197,-109.22642
3198000000,-56.165062,-124.46873
3201000000,-56.008511,-139.91553
3204000000,-55.865131,-156.1286
3207000000,-55.81197,-173.28789
3210000000,-55.770107,170.55486
3213000000,-55.80109,154.59215
3216000000,-55.694138,138.13474
3219000000,-55.662819,120.00275
3222000000,-55.683815,103.49781
3225000000,-55.726074,86.735107
3228000000,-55.855358,70.454048
3231000000,-55.744892,53.63929
3234000000,-55.855404,37.723862
3237000000,-55.656422,21.142605
3240000000,-55.829681,2.9537554
3243000000,-55.93309,-13.10574
3246000000,-56.056953,-29.276121
3249000000,-56.216583,-44.650326
3252000000,-56.241112,-60.623878
3255000000,-56.402027,-76.014008
3258000000,-56.406769,-91.239746
3261000000,-56.21106,-107.28069
3264000000,-55.987614,-122.46763
3267000000,-55.902393,-138.68498
3270000000,-55.826931,-155.74017
3273000000,-55.82613,-172.40157
3276000000,-55.882282,171.78671
3279000000,-55.843666,156.13506
3282000000,-55.859867,139.2462
3285000000,-55.562145,123.63583
3288000000,-55.588593,106.77499
3291000000,-55.38755,88.812965
3294000000,-55.426113,71.768776
3297000000,-55.554207,54.474258
3300000000,-55.664303,38.395023
3303000000,-55.596832,22.190691
3306000000,-55.610275,7.2338843
3309000000,-55.614021,-10.651394
3312000000,-55.738731,-27.262352
3315000000,-55.638496,-42.702526
3318000000,-55.596821,-60.35957
3321000000,-55.686069,-77.053001
3324000000,-55.722862,-94.56469
3327000000,-55.854671,-109.89706
3330000000,-55.907497,-125.38721
3333000000,-55.987888,-139.95349
3336000000,-55.815903,-155.84833
3339000000,-55.653187,-172.24435
3342000000,-55.493324,171.86864
3345000000,-55.231441,153.39381
3348000000,-55.259491,135.39838
3351000000,-55.360527,116.88789
3354000000,-55.846703,100.9165
3357000000,-55.878349,85.680817
3360000000,-56.072334,70.17778
3363000000,-55.92094,55.318756
3366000000,-55.749489,39.44479
3369000000,-55.468449,21.289497
3372000000,-55.816711,3.0769827
3375000000,-56.210667,-14.003951
3378000000,-56.595325,-27.365622
3381000000,-56.475067,-41.8857
3384000000,-56.276821,-56.117924
3387000000,-56.197857,-71.433945
3390000000,-55.968849,-87.480667
3393000000,-55.710793,-103.75298
3396000000,-55.473984,-121.4394
3399000000,-55.366081,-138.1292
3402000000,-55.336262,-153.99306
3405000000,-55.282639,-171.44125
3408000000,-55.336304,171.39568
3411000000,-55.328426,156.14983
3414000000,-55.011028,140.21877
3417000000,-55.025578,121.62056
3420000000,-54.916435,104.56655
3423000000,-54.821056,87.593964
3426000000,-54.979237,70.07
3429000000,-55.140514,51.914524
3432000000,-55.491318,35.588898
3435000000,-55.607376,20.358282
3438000000,-55.856102,5.2820306
3441000000,-55.696205,-9.5090609
3444000000,-55.425373,-25.714981
3447000000,-55.142487,-41.675682
3450000000,-55.039555,-59.967197
3453000000,-55.169018,-77.713943
3456000000,-55.455021,-94.924728
3459000000,-55.527397,-110.45905
3462000000,-55.617077,-125.84029
3465000000,-55.453587,-141.61322
3468000000,-55.579418,-157.48459
3471000000,-55.306721,-174.73767
3474000000,-55.242611,167.64931
3477000000,-55.37112,150.96495
3480000000,-55.468842,133.29236
3483000000,-55.788826,116.60374
3486000000,-55.743637,101.88886
3489000000,-55.957867,87.709503
3492000000,-55.8316,73.165947
3495000000,-55.83979,55.579956
3498000000,-55.555927,39.847668
3501000000,-55.572884,22.61882
3504000000,-55.581055,6.9376631
3507000000,-55.564434,-9.1678314
3510000000,-55.584,-26.020475
3513000000,-55.423191,-40.307293
3516000000,-55.341564,-56.968365
3519000000,-55.163879,-74.123184
3522000000,-55.03923,-91.137856
3525000000,-54.988655,-107.74285
3528000000,-54.969952,-125.58024
3531000000,-55.052208,-143.01027
3534000000,-55.09787,-159.58151
3537000000,-54.93074,-175.69685
3540000000,-55.1479,168.26334
3543000000,-55.206936,151.60968
3546000000,-55.069878,134.60384
3549000000,-55.271816,118.5132
3552000000,-55.204807,101.92686
3555000000,-55.182018,84.917717
3558000000,-55.364471,68.584167
3561000000,-55.205982,52.638378
3564000000,-55.087296,35.722301
3567000000,-55.041622,19.622505
3570000000,-55.166771,2.6231692
3573000000,-55.367004,-13.97222
3576000000,-55.294159,-30.531731
3579000000,-55.37178,-47.40596
3582000000,-55.507595,-63.211502
3585000000,-55.539955,-79.35022
3588000000,-55.64325,-95.225967
3591000000,-55.437,-111.58539
3594000000,-55.644447,-127.81474
3597000000,-55.496574,-145.03169
3600000000,-55.610119,-160.13385
3603000000,-55.728107,-176.40155
3606000000,-55.704704,167.69598
3609000000,-55.623741,152.66458
3612000000,-55.671711,136.43121
3615000000,-55.295872,119.0274
3618000000,-55.554096,103.03239
3621000000,-55.339626,87.08358
3624000000,-55.398994,70.384567
3627000000,-55.193562,54.6213
3630000000,-55.33662,36.952702
3633000000,-55.139587,21.292809
3636000000,-55.25016,4.4369431
3639000000,-55.219982,-12.335467
3642000000,-55.058632,-28.068556
3645000000,-54.950806,-46.076283
3648000000,-55.035572,-63.357838
3651000000,-55.152908,-80.413872
3654000000,-55.284142,-97.011513
3657000000,-55.418228,-112.27657
3660000000,-55.352283,-127.86867
3663000000,-55.341705,-144.75038
3666000000,-55.2076,-161.68219
3669000000,-55.227619,-177.73041
3672000000,-55.335648,164.6671
3675000000,-55.351589,147.92534
3678000000,-55.618065,130.72148
3681000000,-55.813046,116.01863
3684000000,-55.589848,100.82082
3687000000,-55.793488,86.265182
3690000000,-55.531872,69.106827
3693000000,-55.402828,51.270119
3696000000,-55.371174,35.281559
3699000000,-55.417091,18.221043
3702000000,-55.405987,1.8662817
3705000000,-55.646969,-14.605955
3708000000,-55.757511,-29.375395
3711000000,-55.602207,-45.440208
3714000000,-55.536957,-62.087402
3717000000,-55.334484,-77.418976
3720000000,-55.098816,-96.082352
3723000000,-55.106052,-113.5778
3726000000,-55.179344,-131.10518
3729000000,-55.432686,-147.19856
3732000000,-55.723419,-164.33183
3735000000,-56.012978,-178.36411
3738000000,-55.966335,167.05099
3741000000,-55.644497,150.82791
3744000000,-55.43428,134.89166
3747000000,-55.574322,116.35497
3750000000,-55.648434,98.720322
3753000000,-55.889805,82.665695
3756000000,-55.8815,68.746109
3759000000,-55.813728,53.831337
3762000000,-55.908783,37.963749
3765000000,-55.483223,21.49725
3768000000,-55.489342,5.7217336
3771000000,-55.22295,-10.838792
3774000000,-54.991341,-28.385071
3777000000,-55.121967,-46.601376
3780000000,-55.128952,-64.27401
3783000000,-55.37756,-80.8955
3786000000,-55.476528,-96.909012
3789000000,-55.393311,-112.5766
3792000000,-55.311043,-128.98524
3795000000,-55.487167,-144.32884
3798000000,-55.287521,-161.25981
3801000000,-55.356167,-178.94272
3804000000,-55.348152,164.10443
3807000000,-55.709896,147.53267
3810000000,-55.707447,132.50328
3813000000,-55.693081,116.42403
3816000000,-55.732594,101.75377
3819000000,-55.382793,84.454201
3822000000,-55.387718,67.290741
3825000000,-55.347637,50.186779
3828000000,-55.559872,33.152649
3831000000,-55.488232,17.272848
3834000000,-55.581177,0.38107327
3837000000,-55.608662,-15.281096
3840000000,-55.570179,-30.685295
3843000000,-55.706379,-47.922104
3846000000,-55.654469,-63.808624
3849000000,-55.715496,-79.951263
3852000000,-55.432213,-95.380096
3855000000,-55.380657,-113.36945
3858000000,-55.549232,-129.48708
3861000000,-55.464523,-146.97038
3864000000,-55.64069,-163.22882
3867000000,-55.590179,-178.85243
3870000000,-55.906239,166.1877
3873000000,-55.618637,149.47653
3876000000,-55.398258,133.74513
3879000000,-55.319363,117.01921
3882000000,-55.477413,99.091354
3885000000,-55.458767,83.080307
3888000000,-55.6604,66.341858
3891000000,-55.744377,50.652336
3894000000,-55.611225,33.603226
3897000000,-55.590218,18.624134
3900000000,-55.611382,3.5481772
3903000000,-55.408722,-13.523664
3906000000,-55.262531,-31.982016
3909000000,-55.266113,-48.739033
3912000000,-55.282745,-64.577316
3915000000,-55.419239,-81.774445
3918000000,-55.554569,-97.158524
3921000000,-55.250599,-113.15318
3924000000,-55.339996,-130.06401
3927000000,-55.220566,-146.86401
3930000000,-55.297623,-164.58415
3933000000,-55.416172,-179.42641
3936000000,-55.498005,163.64864
3939000000,-55.511211,147.75449
3942000000,-55.529602,129.10094
3945000000,-55.523785,113.30378
3948000000,-55.68718,97.070595
3951000000,-55.576874,81.50882
3954000000,-55.543385,66.229324
3957000000,-55.521164,49.157925
3960000000,-55.46423,32.317047
3963000000,-55.521,14.919075
3966000000,-55.448166,-0.49628699
3969000000,-55.675255,-17.757084
3972000000,-55.649956,-34.138489
3975000000,-55.685104,-49.723385
3978000000,-55.769421,-66.532242
3981000000,-55.703133,-82.313118
3984000000,-55.556629,-98.448822
3987000000,-55.631481,-115.11469
3990000000,-55.600899,-132.74345
3993000000,-55.581577,-148.56303
3996000000,-55.644943,-165.29651
3999000000,-55.902451,178.35405
4002000000,-55.854374,162.96591
4005000000,-55.972958,147.48007
4008000000,-55.853931,131.29807
4011000000,-55.595917,116.26419
4014000000,-55.534607,99.394745
4017000000,-55.511078,81.910965
4020000000,-55.570969,65.061226
4023000000,-55.661736,48.375607
4026000000,-55.469696,32.301392
4029000000,-55.530354,16.054083
4032000000,-55.366161,-0.095426865
4035000000,-55.335415,-17.220926
4038000000,-55.187981,-34.677124
4041000000,-55.315411,-52.060905
4044000000,-55.539738,-67.871361
4047000000,-55.576839,-86.24955
4050000000,-55.513222,-101.09043
4053000000,-55.506165,-118.56095
4056000000,-55.632923,-133.71605
4059000000,-55.689819,-150.12627
4062000000,-55.769276,-166.45508
4065000000,-55.632828,175.97148
4068000000,-55.852364,160.36101
4071000000,-55.607082,143.74971
4074000000,-55.84824,126.69217
4077000000,-55.800209,111.61765
4080000000,-56.13805,93.899696
4083000000,-55.853489,78.659889
4086000000,-55.649189,63.105465
4089000000,-55.765526,46.818428
4092000000,-55.780441,29.152443
4095000000,-55.705898,12.601648
4098000000,-55.821568,-2.7330246
4101000000,-55.71999,-19.143896
4104000000,-55.896294,-37.475861
4107000000,-55.896336,-52.181606
4110000000,-55.806633,-68.982277
4113000000,-56.110203,-86.217537
4116000000,-55.990669,-100.79044
4119000000,-56.022465,-117.20008
4122000000,-55.802658,-134.2025
4125000000,-55.809875,-151.63696
4128000000,-55.745247,-167.90184
4131000000,-56.002663,175.34415
4134000000,-56.007423,159.72437
4137000000,-55.966618,145.21834
4140000000,-56.093567,128.87709
4143000000,-55.850559,113.82661
4146000000,-55.731262,96.660431
4149000000,-55.741859,78.606094
4152000000,-55.768784,62.528217
4155000000,-55.746162,44.688709
4158000000,-55.810055,28.227047
4161000000,-56.130444,10.92613
4164000000,-56.000511,-5.3265743
4167000000,-55.904766,-21.040812
4170000000,-55.999596,-37.745548
4173000000,-56.06525,-53.743694
4176000000,-56.234966,-68.954529
4179000000,-56.14193,-85.623894
4182000000,-56.054573,-101.6242
4185000000,-55.807846,-118.18746
4188000000,-55.897717,-136.28802
4191000000,-56.044106,-151.58801
4194000000,-56.026039,-169.22523
4197000000,-56.129421,175.54352
4200000000,-55.84074,160.18837
4203000000,-55.904652,143.80145
4206000000,-55.826023,126.64807
4209000000,-55.881687,109.79389
4212000000,-55.805756,93.350945
4215000000,-55.780968,75.558708
4218000000,-55.815414,59.164097
4221000000,-55.898083,43.217255
4224000000,-56.004467,26.686663
4227000000,-56.120659,9.3373241
4230000000,-55.891674,-6.6973877
4233000000,-55.95747,-23.117907
4236000000,-56.076107,-41.460266
4239000000,-56.17205,-58.064373
4242000000,-56.228687,-74.017029
4245000000,-56.573799,-88.069221
4248000000,-56.355404,-103.08588
4251000000,-56.244011,-119.58736
4254000000,-56.098957,-137.04996
4257000000,-56.009922,-154.72508
4260000000,-56.151421,-170.32382
4263000000,-56.145969,173.37587
4266000000,-56.31073,158.10161
4269000000,-56.400661,141.21336
4272000000,-56.261513,125.35365
4275000000,-56.308743,107.82262
4278000000,-56.15477,92.500626
4281000000,-56.111797,75.38884
4284000000,-56.057709,58.342228
4287000000,-56.262699,41.682026
4290000000,-56.257729,26.108231
4293000000,-56.172951,8.998867
4296000000,-56.140797,-8.4005041
4299000000,-56.308628,-24.471071
4302000000,-56.223328,-40.232307
4305000000,-56.366577,-57.669857
4308000000,-56.385056,-75.84494
4311000000,-56.487404,-90.511719
4314000000,-56.599201,-106.80184
4317000000,-56.679939,-123.12193
4320000000,-56.806396,-138.66185
4323000000,-56.691345,-154.56924
4326000000,-56.639847,-170.04593
4329000000,-56.40662,174.54134
4332000000,-56.251812,157.61095
4335000000,-56.233524,140.97993
4338000000,-56.068508,124.06676
4341000000,-56.348072,108.14529
4344000000,-56.196861,91.180008
4347000000,-56.276291,72.74762
4350000000,-56.374214,55.129932
4353000000,-56.445797,38.568665
4356000000,-56.535114,23.460239
4359000000,-56.714684,7.8163924
4362000000,-56.323101,-8.4602365
4365000000,-56.503666,-24.620354
4368000000,-56.642971,-42.609245
4371000000,-56.560547,-60.048504
4374000000,-56.901394,-76.424652
4377000000,-56.835083,-89.87175
4380000000,-56.690281,-106.06651
4383000000,-56.61021,-122.8416
4386000000,-56.703682,-139.20335
4389000000,-56.71167,-155.64737
4392000000,-56.494949,-171.96996
4395000000,-56.487034,170.73064
4398000000,-56.606068,155.07684
4401000000,-56.346413,137.13116
4404000000,-56.344162,122.07098
4407000000,-56.43092,103.37619
4410000000,-56.675438,88.653358
4413000000,-56.584263,70.970535
4416000000,-56.300934,54.126762
4419000000,-56.421013,37.585972
4422000000,-56.571419,22.313765
4425000000,-56.570541,4.212605
4428000000,-56.6903,-12.02187
4431000000,-56.884529,-29.560997
4434000000,-56.913754,-46.728439
4437000000,-56.886913,-62.371014
4440000000,-57.391041,-77.64859
4443000000,-57.073956,-94.207306
4446000000,-57.103878,-108.90472
4449000000,-57.004822,-124.73808
4452000000,-56.917282,-141.58032
4455000000,-57.276096,-157.84804
4458000000,-57.205925,-175.67696
4461000000,-56.972988,168.45131
4464000000,-57.016777,152.61359
4467000000,-57.215538,135.53757
4470000000,-57.313332,120.28608
4473000000,-57.264793,104.15553
4476000000,-57.204544,88.375496
4479000000,-57.032505,70.789284
4482000000,-56.978939,54.209007
4485000000,-57.160679,37.604645
4488000000,-57.432915,22.032148
4491000000,-57.193771,4.6387038
4494000000,-57.320835,-10.745952
4497000000,-57.368778,-26.793793
4500000000,-57.301651,-43.280289
4503000000,-57.384285,-58.804516
4506000000,-57.48838,-75.220589
4509000000,-57.356319,-90.954811
4512000000,-57.260212,-107.6578
4515000000,-57.260376,-124.69359
4518000000,-57.180065,-141.11354
4521000000,-57.000858,-157.8992
4524000000,-56.940189,-175.3535
4527000000,-57.029301,167.83722
4530000000,-57.437912,152.33792
4533000000,-57.299129,134.99776
4536000000,-57.363895,119.28403
4539000000,-57.095448,104.08856
4542000000,-57.060806,86.612411
4545000000,-57.078667,68.641556
4548000000,-57.294098,52.084682
4551000000,-57.432556,35.979183
4554000000,-57.173634,17.983753
4557000000,-57.42197,3.3357122
4560000000,-57.323467,-13.498544
4563000000,-57.178574,-29.808483
4566000000,-57.284363,-47.351952
4569000000,-57.447079,-63.294209
4572000000,-57.398205,-79.860764
4575000000,-57.574234,-96.078766
4578000000,-57.601166,-112.76152
4581000000,-57.771481,-129.06493
4584000000,-57.662544,-144.17502
4587000000,-57.461128,-160.6916
4590000000,-57.379803,-176.80812
4593000000,-57.642445,165.62396
4596000000,-57.537609,148.9381
4599000000,-57.838978,132.24841
4602000000,-58.04678,116.83126
4605000000,-57.894032,99.930283
4608000000,-57.857693,86.042183
4611000000,-57.798752,69.207642
4614000000,-57.558662,53.213177
4617000000,-57.864311,36.600361
4620000000,-57.767281,20.985687
4623000000,-58.197041,4.3199716
4626000000,-57.696793,-11.087692
4629000000,-57.815891,-29.130945
4632000000,-57.586914,-46.039143
4635000000,-57.856304,-62.486439
4638000000,-57.888615,-79.109596
4641000000,-57.899883,-96.083984
4644000000,-57.90881,-110.63365
4647000000,-57.529552,-125.94876
4650000000,-58.031193,-142.76344
4653000000,-57.795273,-161.20444
4656000000,-57.735069,179.91225
4659000000,-58.048298,165.80338
4662000000,-58.099934,150.51382
4665000000,-58.055748,134.39026
4668000000,-58.208389,117.38814
4671000000,-57.812321,101.98299
4674000000,-57.840446,84.450623
4677000000,-57.909248,69.020195
4680000000,-57.761002,51.822105
4683000000,-58.000294,34.33548
4686000000,-58.231503,18.691755
4689000000,-58.167625,1.6365354
4692000000,-58.226814,-12.903421
4695000000,-58.191994,-29.189917
4698000000,-58.171227,-47.343803
4701000000,-58.362144,-61.617241
4704000000,-58.003719,-78.342377
4707000000,-58.171516,-96.619759
4710000000,-58.166077,-112.58503
4713000000,-58.329689,-128.63263
4716000000,-58.374844,-143.05428
4719000000,-58.267464,-159.98557
4722000000,-58.177868,-173.59775
4725000000,-58.046421,169.19215
4728000000,-57.968388,151.1308
4731000000,-57.978477,133.69109
4734000000,-58.063801,115.54768
4737000000,-58.002682,100.72673
4740000000,-58.295738,83.533836
4743000000,-58.62978,68.127052
4746000000,-58.354431,51.8909
4749000000,-58.540539,37.635136
4752000000,-58.503738,20.131626
4755000000,-58.169292,5.3375325
4758000000,-58.240524,-13.139876
4761000000,-58.299637,-30.781408
4764000000,-58.322258,-46.476082
4767000000,-58.287231,-60.738361
4770000000,-58.283962,-76.539688
4773000000,-58.016937,-93.262924
4776000000,-58.441723,-109.57506
4779000000,-58.291229,-125.8
4782000000,-58.064545,-143.07846
4785000000,-58.140209,-161.92938
4788000000,-57.939926,-176.6239
4791000000,-58.12397,164.82501
4794000000,-58.324123,149.64435
4797000000,-58.0098,129.99937
4800000000,-58.373867,116.27105
4803000000,-58.027248,100.16064
4806000000,-58.2841,81.859886
4809000000,-58.394459,64.363167
4812000000,-58.633106,51.079109
4815000000,-58.529205,34.482979
4818000000,-58.490665,17.871071
4821000000,-58.474918,1.5751435
4824000000,-58.533363,-15.103944
4827000000,-58.695934,-30.394793
4830000000,-58.632771,-46.681976
4833000000,-58.887779,-62.707378
4836000000,-58.553814,-77.931076
4839000000,-58.478893,-94.474106
