!CSV A.01.01
!Keysight Technologies,N5227B,US58420762,A.13.80.08
!Date: Monday, November 20, 2023 15:54:30
!Source: Standard

BEGIN CH1_DATA
Time(s),S21(DB),S21(DEG)
1e-008,-118.07446,66.293602
1.001e-008,-118.01195,82.829811
1.002e-008,-117.95802,99.428078
1.003e-008,-117.91067,116.08785
1.004e-008,-117.8689,132.79926
1.005e-008,-117.83053,149.56137
1.006e-008,-117.79449,166.36726
1.007e-008,-117.75877,-176.78917
1.008e-008,-117.72282,-159.91464
1.009e-008,-117.68498,-143.01605
1.01e-008,-117.64458,-126.0986
1.011e-008,-117.60067,-109.17371
1.012e-008,-117.55289,-92.247925
1.013e-008,-117.50068,-75.327087
1.014e-008,-117.44372,-58.419525
1.015e-008,-117.38217,-41.533482
1.016e-008,-117.3162,-24.672419
1.017e-008,-117.24615,-7.8453183
1.018e-008,-117.17237,8.9438772
1.019e-008,-117.09576,25.690889
1.02e-008,-117.01689,42.393673
1.021e-008,-116.93658,59.047901
1.022e-008,-116.85581,75.652939
1.023e-008,-116.77557,92.207748
1.024e-008,-116.69688,108.71176
1.025e-008,-116.62083,125.16722
1.026e-008,-116.5481,141.57486
1.027e-008,-116.48026,157.93581
1.028e-008,-116.41795,174.25388
1.029e-008,-116.36234,-169.46777
1.03e-008,-116.31455,-153.22859
1.031e-008,-116.27552,-137.0218
1.032e-008,-116.24596,-120.84531
1.033e-008,-116.22742,-104.69556
1.034e-008,-116.22041,-88.567169
1.035e-008,-116.22626,-72.455521
1.036e-008,-116.2455,-56.359077
1.037e-008,-116.27945,-40.272385
1.038e-008,-116.3288,-24.187393
1.039e-008,-116.39486,-8.1029043
1.04e-008,-116.47849,7.9874625
1.041e-008,-116.58055,24.087921
1.042e-008,-116.7024,40.204472
1.043e-008,-116.84502,56.344284
1.044e-008,-117.0095,72.512459
1.045e-008,-117.19702,88.716141
1.046e-008,-117.40896,104.96481
1.047e-008,-117.64664,121.26736
1.048e-008,-117.91138,137.63191
1.049e-008,-118.20483,154.07677
1.05e-008,-118.52821,170.60895
1.051e-008,-118.88316,-172.74773
1.052e-008,-119.27158,-155.97771
1.053e-008,-119.69524,-139.05165
1.054e-008,-120.15495,-121.94289
1.055e-008,-120.65262,-104.61127
1.056e-008,-121.18887,-87.01368
1.057e-008,-121.76342,-69.093697
1.058e-008,-122.37518,-50.779156
1.059e-008,-123.01958,-31.992125
1.06e-008,-123.69012,-12.63307
1.061e-008,-124.37286,7.3990135
1.062e-008,-125.04689,28.212524
1.063e-008,-125.6814,49.88311
1.064e-008,-126.23597,72.425766
1.065e-008,-126.66241,95.736504
1.066e-008,-126.91858,119.56256
1.067e-008,-126.97855,143.51907
1.068e-008,-126.84451,167.1813
1.069e-008,-126.54723,-169.81555
1.07e-008,-126.13127,-147.69638
1.071e-008,-125.64261,-126.53947
1.072e-008,-125.12043,-106.31546
1.073e-008,-124.59323,-86.942131
1.074e-008,-124.08023,-68.319557
1.075e-008,-123.59293,-50.339561
1.076e-008,-123.13679,-32.916389
1.077e-008,-122.7149,-15.971687
1.078e-008,-122.32814,0.55683964
1.079e-008,-121.97509,16.72028
1.08e-008,-121.65369,32.559303
1.081e-008,-121.3616,48.109833
1.082e-008,-121.09621,63.398232
1.083e-008,-120.85359,78.446877
1.084e-008,-120.63165,93.278038
1.085e-008,-120.42614,107.90958
1.086e-008,-120.23428,122.36145
1.087e-008,-120.05302,136.65031
1.088e-008,-119.87868,150.79501
1.089e-008,-119.70879,164.81537
1.09e-008,-119.54092,178.7337
1.091e-008,-119.37234,-167.43063
1.092e-008,-119.20179,-153.65227
1.093e-008,-119.02766,-139.91061
1.094e-008,-118.84908,-126.17764
1.095e-008,-118.66592,-112.43182
1.096e-008,-118.47837,-98.652969
1.097e-008,-118.28725,-84.818344
1.098e-008,-118.09352,-70.906952
1.099e-008,-117.89832,-56.908787
1.1e-008,-117.70388,-42.802223
1.101e-008,-117.51134,-28.580708
1.102e-008,-117.32267,-14.232393
1.103e-008,-117.14,0.24899636
1.104e-008,-116.96468,14.868838
1.105e-008,-116.79836,29.630461
1.106e-008,-116.64269,44.538177
1.107e-008,-116.4989,59.591644
1.108e-008,-116.36818,74.792908
1.109e-008,-116.25142,90.141914
1.11e-008,-116.14935,105.64075
1.111e-008,-116.06264,121.28802
1.112e-008,-115.99186,137.08336
1.113e-008,-115.93671,153.02829
1.114e-008,-115.89777,169.1263
1.115e-008,-115.87474,-174.62657
1.116e-008,-115.86709,-158.2238
1.117e-008,-115.87453,-141.66603
1.118e-008,-115.89615,-124.95169
1.119e-008,-115.93087,-108.07713
1.12e-008,-115.9778,-91.04155
1.121e-008,-116.03522,-73.843872
1.122e-008,-116.10123,-56.483772
1.123e-008,-116.17461,-38.959721
1.124e-008,-116.25233,-21.276155
1.125e-008,-116.33291,-3.4342499
1.126e-008,-116.41295,14.557912
1.127e-008,-116.49033,32.691978
1.128e-008,-116.56264,50.958241
1.129e-008,-116.62701,69.338463
1.13e-008,-116.68147,87.816696
1.131e-008,-116.72429,106.37216
1.132e-008,-116.7541,124.97952
1.133e-008,-116.7696,143.61624
1.134e-008,-116.77119,162.24976
1.135e-008,-116.75913,-179.13959
1.136e-008,-116.73441,-160.57903
1.137e-008,-116.69888,-142.09184
1.138e-008,-116.65443,-123.69775
1.139e-008,-116.60362,-105.41685
1.14e-008,-116.54951,-87.262428
1.141e-008,-116.49421,-69.24424
1.142e-008,-116.44076,-51.373898
1.143e-008,-116.39214,-33.656437
1.144e-008,-116.35062,-16.093403
1.145e-008,-116.31825,1.3118224
1.146e-008,-116.29763,18.555904
1.147e-008,-116.29029,35.63858
1.148e-008,-116.29793,52.563381
1.149e-008,-116.32226,69.326477
1.15e-008,-116.36411,85.931328
1.151e-008,-116.42462,102.3741
1.152e-008,-116.50479,118.65363
1.153e-008,-116.60421,134.76898
1.154e-008,-116.72409,150.7188
1.155e-008,-116.86425,166.49742
1.156e-008,-117.02441,-177.90201
1.157e-008,-117.20383,-162.48477
1.158e-008,-117.4018,-147.25349
1.159e-008,-117.61761,-132.22385
1.16e-008,-117.8483,-117.39448
1.161e-008,-118.09265,-102.78202
1.162e-008,-118.34858,-88.388374
1.163e-008,-118.61128,-74.222328
1.164e-008,-118.87715,-60.287636
1.165e-008,-119.14209,-46.581093
1.166e-008,-119.40057,-33.098434
1.167e-008,-119.64732,-19.825083
1.168e-008,-119.87691,-6.7398906
1.169e-008,-120.08381,6.1856074
1.17e-008,-120.26327,18.993469
1.171e-008,-120.41284,31.725922
1.172e-008,-120.52919,44.443604
1.173e-008,-120.61249,57.199764
1.174e-008,-120.66409,70.0411
1.175e-008,-120.68761,83.029037
1.176e-008,-120.68665,96.202911
1.177e-008,-120.6665,109.60112
1.178e-008,-120.63276,123.2454
1.179e-008,-120.59079,137.15718
1.18e-008,-120.54597,151.35349
1.181e-008,-120.50301,165.83556
1.182e-008,-120.46558,-179.39243
1.183e-008,-120.43754,-164.33174
1.184e-008,-120.42052,-148.9874
1.185e-008,-120.41689,-133.35426
1.186e-008,-120.42726,-117.44337
1.187e-008,-120.45245,-101.25139
1.188e-008,-120.49114,-84.787453
1.189e-008,-120.54327,-68.04509
1.19e-008,-120.60615,-51.03545
1.191e-008,-120.67785,-33.754684
1.192e-008,-120.75529,-16.213644
1.193e-008,-120.83499,1.5848618
1.194e-008,-120.91294,19.621958
1.195e-008,-120.98495,37.889561
1.196e-008,-121.04639,56.363373
1.197e-008,-121.09372,75.013023
1.198e-008,-121.12241,93.804718
1.199e-008,-121.13107,112.70006
1.2e-008,-121.11636,131.65634
1.201e-008,-121.07822,150.62537
1.202e-008,-121.0185,169.56303
1.203e-008,-120.93727,-171.57089
1.204e-008,-120.83935,-152.81746
1.205e-008,-120.72757,-134.20956
1.206e-008,-120.60684,-115.7702
1.207e-008,-120.48133,-97.523506
1.208e-008,-120.35611,-79.475456
1.209e-008,-120.23517,-61.639576
1.21e-008,-120.12274,-44.01646
1.211e-008,-120.02234,-26.611317
1.212e-008,-119.93755,-9.4202681
1.213e-008,-119.87083,7.5588193
1.214e-008,-119.82487,24.329016
1.215e-008,-119.80136,40.890465
1.216e-008,-119.80206,57.246384
1.217e-008,-119.8284,73.396843
1.218e-008,-119.88121,89.345612
1.219e-008,-119.96147,105.08042
1.22e-008,-120.06989,120.60482
1.221e-008,-120.20641,135.91174
1.222e-008,-120.37135,150.98921
1.223e-008,-120.56413,165.82961
1.224e-008,-120.78398,-179.58241
1.225e-008,-121.02989,-165.25925
1.226e-008,-121.29975,-151.21756
1.227e-008,-121.59151,-137.48244
1.228e-008,-121.90131,-124.0665
1.229e-008,-122.22507,-110.99391
1.23e-008,-122.55701,-98.277382
1.231e-008,-122.89024,-85.932945
1.232e-008,-123.21744,-73.96151
1.233e-008,-123.52911,-62.358685
1.234e-008,-123.81563,-51.101654
1.235e-008,-124.06824,-40.155197
1.236e-008,-124.27888,-29.460747
1.237e-008,-124.44216,-18.941565
1.238e-008,-124.55537,-8.5276127
1.239e-008,-124.6198,1.8688608
1.24e-008,-124.63917,12.322422
1.241e-008,-124.62081,22.890432
1.242e-008,-124.57337,33.624508
1.243e-008,-124.50687,44.537395
1.244e-008,-124.43038,55.643108
1.245e-008,-124.35245,66.928307
1.246e-008,-124.27959,78.376038
1.247e-008,-124.2183,89.952667
1.248e-008,-124.17314,101.62701
1.249e-008,-124.14588,113.35974
1.25e-008,-124.13809,125.11263
1.251e-008,-124.15048,136.8414
1.252e-008,-124.1812,148.51265
1.253e-008,-124.22701,160.09033
1.254e-008,-124.28485,171.53723
1.255e-008,-124.34829,-177.17419
1.256e-008,-124.41074,-166.05733
1.257e-008,-124.46461,-155.12251
1.258e-008,-124.50076,-144.35873
1.259e-008,-124.51147,-133.74963
1.26e-008,-124.48811,-123.24931
1.261e-008,-124.42511,-112.80067
1.262e-008,-124.31846,-102.33872
1.263e-008,-124.16754,-91.784607
1.264e-008,-123.97577,-81.066521
1.265e-008,-123.74732,-70.120026
1.266e-008,-123.49041,-58.892529
1.267e-008,-123.2134,-47.353493
1.268e-008,-122.92509,-35.478416
1.269e-008,-122.63427,-23.25589
1.27e-008,-122.34865,-10.696685
1.271e-008,-122.07508,2.1958125
1.272e-008,-121.81935,15.402357
1.273e-008,-121.58612,28.9062
1.274e-008,-121.37959,42.693054
1.275e-008,-121.20306,56.741417
1.276e-008,-121.05878,71.040779
1.277e-008,-120.94926,85.574013
1.278e-008,-120.87621,100.3359
1.279e-008,-120.84079,115.3131
1.28e-008,-120.84558,130.50537
1.281e-008,-120.89052,145.91032
1.282e-008,-120.97787,161.53107
1.283e-008,-121.10835,177.37415
1.284e-008,-121.2833,-166.55081
1.285e-008,-121.50328,-150.22142
1.286e-008,-121.76999,-133.61794
1.287e-008,-122.08334,-116.71204
1.288e-008,-122.44328,-99.457664
1.289e-008,-122.84901,-81.810745
1.29e-008,-123.29699,-63.703064
1.291e-008,-123.78321,-45.066437
1.292e-008,-124.29797,-25.813555
1.293e-008,-124.8271,-5.8535986
1.294e-008,-125.34819,14.890719
1.295e-008,-125.83206,36.469521
1.296e-008,-126.23997,58.868008
1.297e-008,-126.53187,81.951927
1.298e-008,-126.67148,105.48078
1.299e-008,-126.64343,129.09639
1.3e-008,-126.45234,152.4417
1.301e-008,-126.1251,175.19496
1.302e-008,-125.70235,-162.8213
1.303e-008,-125.22571,-141.68477
1.304e-008,-124.72757,-121.36671
1.305e-008,-124.23551,-101.8035
1.306e-008,-123.7673,-82.913483
1.307e-008,-123.33462,-64.60453
1.308e-008,-122.94447,-46.800686
1.309e-008,-122.60092,-29.438557
1.31e-008,-122.30621,-12.464863
1.311e-008,-122.0611,4.1664038
1.312e-008,-121.86533,20.479052
1.313e-008,-121.71833,36.503719
1.314e-008,-121.61919,52.244068
1.315e-008,-121.56682,67.718262
1.316e-008,-121.55941,82.920334
1.317e-008,-121.59613,97.847641
1.318e-008,-121.67386,112.48714
1.319e-008,-121.79058,126.83327
1.32e-008,-121.94284,140.85579
1.321e-008,-122.12672,154.5417
1.322e-008,-122.3366,167.86093
1.323e-008,-122.565,-179.20532
1.324e-008,-122.80366,-166.67703
1.325e-008,-123.04208,-154.56898
1.326e-008,-123.26762,-142.87648
1.327e-008,-123.46699,-131.57014
1.328e-008,-123.62653,-120.60463
1.329e-008,-123.73456,-109.89608
1.33e-008,-123.78217,-99.347702
1.331e-008,-123.76514,-88.823479
1.332e-008,-123.686,-78.212593
1.333e-008,-123.5525,-67.399025
1.334e-008,-123.37526,-56.293076
1.335e-008,-123.16891,-44.827408
1.336e-008,-122.9466,-32.976612
1.337e-008,-122.7226,-20.72423
1.338e-008,-122.50859,-8.085392
1.339e-008,-122.3146,4.9297528
1.34e-008,-122.14969,18.295341
1.341e-008,-122.0207,31.981846
1.342e-008,-121.93363,45.965858
1.343e-008,-121.89354,60.230465
1.344e-008,-121.90522,74.753014
1.345e-008,-121.97335,89.520172
1.346e-008,-122.10262,104.52289
1.347e-008,-122.29762,119.76456
1.348e-008,-122.56455,135.24379
1.349e-008,-122.91093,150.97868
1.35e-008,-123.34444,166.99657
1.351e-008,-123.87516,-176.65063
1.352e-008,-124.51701,-159.89915
1.353e-008,-125.28568,-142.63034
1.354e-008,-126.20181,-124.67033
1.355e-008,-127.28769,-105.7177
1.356e-008,-128.56747,-85.294952
1.357e-008,-130.04962,-62.559547
1.358e-008,-131.66933,-36.148617
1.359e-008,-133.1458,-4.3248439
1.36e-008,-133.83107,32.982925
1.361e-008,-133.19795,70.915466
1.362e-008,-131.63914,103.9152
1.363e-008,-129.84731,131.28857
1.364e-008,-128.16457,154.73416
1.365e-008,-126.67885,175.71803
1.366e-008,-125.39134,-164.83963
1.367e-008,-124.27927,-146.40079
1.368e-008,-123.31951,-128.63847
1.369e-008,-122.49062,-111.35278
1.37e-008,-121.77641,-94.41317
1.371e-008,-121.16422,-77.737709
1.372e-008,-120.64384,-61.268158
1.373e-008,-120.2068,-44.962154
1.374e-008,-119.84745,-28.793476
1.375e-008,-119.56183,-12.740938
1.376e-008,-119.34587,3.2071567
1.377e-008,-119.19809,19.060713
1.378e-008,-119.11657,34.823925
1.379e-008,-119.10187,50.500149
1.38e-008,-119.1539,66.085571
1.381e-008,-119.27448,81.574242
1.382e-008,-119.46627,96.961807
1.383e-008,-119.73318,112.23386
1.384e-008,-120.08064,127.36893
1.385e-008,-120.51516,142.34096
1.386e-008,-121.04647,157.11246
1.387e-008,-121.68673,171.62996
1.388e-008,-122.45254,-174.19313
1.389e-008,-123.36591,-160.48494
1.39e-008,-124.45582,-147.44795
1.391e-008,-125.76114,-135.43486
1.392e-008,-127.32919,-125.08033
1.393e-008,-129.19981,-117.57887
1.394e-008,-131.3084,-115.23607
1.395e-008,-133.1597,-121.3109
1.396e-008,-133.48221,-134.5484
1.397e-008,-131.90021,-143.95132
1.398e-008,-129.67477,-144.36005
1.399e-008,-127.59146,-138.54906
1.4e-008,-125.80664,-129.30922
1.401e-008,-124.29832,-118.1552
1.402e-008,-123.01819,-105.87354
1.403e-008,-121.92283,-92.903954
1.404e-008,-120.9789,-79.495842
1.405e-008,-120.1607,-65.800507
1.406e-008,-119.44929,-51.919872
1.407e-008,-118.8299,-37.923813
1.408e-008,-118.28983,-23.867151
1.409e-008,-117.82029,-9.7825394
1.41e-008,-117.41276,4.2976203
1.411e-008,-117.06025,18.352875
1.412e-008,-116.75764,32.357891
1.413e-008,-116.49958,46.299805
1.414e-008,-116.28034,60.163593
1.415e-008,-116.09619,73.936661
1.416e-008,-115.9418,87.607559
1.417e-008,-115.81374,101.17043
1.418e-008,-115.70722,114.62066
1.419e-008,-115.61792,127.95455
1.42e-008,-115.54147,141.17285
1.421e-008,-115.47327,154.28262
1.422e-008,-115.40936,167.29279
1.423e-008,-115.34585,-179.7811
1.424e-008,-115.27944,-166.9229
1.425e-008,-115.20649,-154.10739
1.426e-008,-115.12548,-141.30811
1.427e-008,-115.03441,-128.49803
1.428e-008,-114.93305,-115.64279
1.429e-008,-114.82166,-102.71743
1.43e-008,-114.70167,-89.690117
1.431e-008,-114.57463,-76.534363
1.432e-008,-114.44324,-63.230301
1.433e-008,-114.31035,-49.756702
1.434e-008,-114.17896,-36.100098
1.435e-008,-114.05232,-22.24839
1.436e-008,-113.9333,-8.1942348
1.437e-008,-113.82509,6.0678349
1.438e-008,-113.73024,20.540974
1.439e-008,-113.65097,35.228065
1.44e-008,-113.58946,50.12915
1.441e-008,-113.5474,65.244965
1.442e-008,-113.52637,80.576454
1.443e-008,-113.5272,96.125916
1.444e-008,-113.55065,111.89492
1.445e-008,-113.59718,127.88515
1.446e-008,-113.66678,144.10254
1.447e-008,-113.75887,160.55217
1.448e-008,-113.87273,177.24051
1.449e-008,-114.00682,-165.82666
1.45e-008,-114.15959,-148.64096
1.451e-008,-114.32816,-131.19684
1.452e-008,-114.50932,-113.48866
1.453e-008,-114.69932,-95.512794
1.454e-008,-114.89362,-77.270576
1.455e-008,-115.08681,-58.768799
1.456e-008,-115.27345,-40.022495
1.457e-008,-115.44796,-21.053059
1.458e-008,-115.60457,-1.8944546
1.459e-008,-115.73897,17.409166
1.46e-008,-115.84769,36.806767
1.461e-008,-115.92923,56.238289
1.462e-008,-115.98386,75.643188
1.463e-008,-116.01364,94.960083
1.464e-008,-116.02303,114.13032
1.465e-008,-116.01778,133.10716
1.466e-008,-116.00452,151.84737
1.467e-008,-115.9904,170.31725
1.468e-008,-115.98299,-171.50603
1.469e-008,-115.98956,-153.64275
1.47e-008,-116.01669,-136.105
1.471e-008,-116.07053,-118.91216
1.472e-008,-116.15693,-102.07499
1.473e-008,-116.28057,-85.613045
1.474e-008,-116.4459,-69.552322
1.475e-008,-116.65604,-53.925999
1.476e-008,-116.91371,-38.778423
1.477e-008,-117.21935,-24.172226
1.478e-008,-117.57128,-10.18222
1.479e-008,-117.96394,3.0938222
1.48e-008,-118.38612,15.54114
1.481e-008,-118.81754,27.039314
1.482e-008,-119.22696,37.48291
1.483e-008,-119.56926,46.822266
1.484e-008,-119.78909,55.145054
1.485e-008,-119.83191,62.706799
1.486e-008,-119.66326,69.956955
1.487e-008,-119.28208,77.406647
1.488e-008,-118.7236,85.502937
1.489e-008,-118.04185,94.509079
1.49e-008,-117.29326,104.50849
1.491e-008,-116.52315,115.452
1.492e-008,-115.76428,127.22902
1.493e-008,-115.03726,139.71179
1.494e-008,-114.35492,152.78049
1.495e-008,-113.7234,166.32712
1.496e-008,-113.14643,-179.73451
1.497e-008,-112.6249,-165.47514
1.498e-008,-112.15898,-150.95143
1.499e-008,-111.7478,-136.21056
1.5e-008,-111.39066,-121.28596
1.501e-008,-111.08669,-106.20802
1.502e-008,-110.83514,-90.999283
1.503e-008,-110.63521,-75.679306
1.504e-008,-110.48686,-60.261829
1.505e-008,-110.38976,-44.759697
1.506e-008,-110.34438,-29.181519
1.507e-008,-110.35123,-13.535185
1.508e-008,-110.41139,2.1740608
1.509e-008,-110.52612,17.94175
1.51e-008,-110.69749,33.767223
1.511e-008,-110.92788,49.648609
1.512e-008,-111.22064,65.587814
1.513e-008,-111.57925,81.588379
1.514e-008,-112.00924,97.656807
1.515e-008,-112.51649,113.80009
1.516e-008,-113.10928,130.0358
1.517e-008,-113.7973,146.38284
1.518e-008,-114.5939,162.87354
1.519e-008,-115.51614,179.55414
1.52e-008,-116.58739,-163.50011
1.521e-008,-117.8393,-146.17137
1.522e-008,-119.31731,-128.25273
1.523e-008,-121.08812,-109.3645
1.524e-008,-123.24873,-88.737251
1.525e-008,-125.92663,-64.632851
1.526e-008,-129.14348,-32.747383
1.527e-008,-131.82149,14.687487
1.528e-008,-131.09726,68.871017
1.529e-008,-128.37221,107.42075
1.53e-008,-125.93446,134.32886
1.531e-008,-124.07869,156.00089
1.532e-008,-122.69392,175.12419
1.533e-008,-121.67268,-167.17941
1.534e-008,-120.94294,-150.41685
1.535e-008,-120.4585,-134.34752
1.536e-008,-120.19203,-118.88312
1.537e-008,-120.12837,-104.01095
1.538e-008,-120.26234,-89.804527
1.539e-008,-120.59496,-76.423294
1.54e-008,-121.13103,-64.139748
1.541e-008,-121.87114,-53.41264
1.542e-008,-122.79156,-44.983543
1.543e-008,-123.79494,-39.916458
1.544e-008,-124.61062,-39.222912
1.545e-008,-124.7686,-42.362064
1.546e-008,-123.95631,-45.779236
1.547e-008,-122.43041,-45.700611
1.548e-008,-120.6645,-41.270771
1.549e-008,-118.94913,-33.447456
1.55e-008,-117.39014,-23.330774
1.551e-008,-116.00932,-11.709306
1.552e-008,-114.79982,0.9103924
1.553e-008,-113.74715,14.201875
1.554e-008,-112.8369,27.954441
1.555e-008,-112.05704,42.023491
1.556e-008,-111.3985,56.305359
1.557e-008,-110.85458,70.720253
1.558e-008,-110.42123,85.203979
1.559e-008,-110.09653,99.697617
1.56e-008,-109.88134,114.14481
1.561e-008,-109.77829,128.4826
1.562e-008,-109.79277,142.63585
1.563e-008,-109.93287,156.5071
1.564e-008,-110.20947,169.96191
1.565e-008,-110.63641,-177.19502
1.566e-008,-111.22879,-165.26227
1.567e-008,-111.99719,-154.71219
1.568e-008,-112.93076,-146.2901
1.569e-008,-113.94855,-141.10669
1.57e-008,-114.79763,-140.34851
1.571e-008,-114.98946,-143.76735
1.572e-008,-114.14387,-147.83299
1.573e-008,-112.49238,-148.31013
1.574e-008,-110.55212,-144.11098
1.575e-008,-108.64326,-136.23988
1.576e-008,-106.8812,-125.88899
1.577e-008,-105.28802,-113.89704
1.578e-008,-103.85464,-100.79682
1.579e-008,-102.5643,-86.917885
1.58e-008,-101.40036,-72.470688
1.581e-008,-100.34851,-57.591431
1.582e-008,-99.396889,-42.370361
1.583e-008,-98.536072,-26.867802
1.584e-008,-97.758469,-11.123841
1.585e-008,-97.058228,4.8352513
1.586e-008,-96.430725,20.994322
1.587e-008,-95.872505,37.346752
1.588e-008,-95.380974,53.893021
1.589e-008,-94.95433,70.641098
1.59e-008,-94.591423,87.605469
1.591e-008,-94.291534,104.80909
1.592e-008,-94.054306,122.28349
1.593e-008,-93.879448,140.07138
1.594e-008,-93.766426,158.2285
1.595e-008,-93.713799,176.82771
1.596e-008,-93.718285,-164.03877
1.597e-008,-93.7733,-144.25574
1.598e-008,-93.86647,-123.68503
1.599e-008,-93.976196,-102.17362
1.6e-008,-94.067528,-79.577675
1.601e-008,-94.089127,-55.814827
1.602e-008,-93.975456,-30.945518
1.603e-008,-93.659973,-5.2538428
1.604e-008,-93.098999,20.747791
1.605e-008,-92.292259,46.448879
1.606e-008,-91.282852,71.340858
1.607e-008,-90.136154,95.143814
1.608e-008,-88.916252,117.80111
1.609e-008,-87.672874,139.39784
1.61e-008,-86.439293,160.07959
1.611e-008,-85.23542,-179.99924
1.612e-008,-84.071976,-160.69904
1.613e-008,-82.953812,-141.9026
1.614e-008,-81.882347,-123.51502
1.615e-008,-80.857025,-105.46069
