!CSV A.01.01
!Keysight Technologies,N5227B,US58420762,A.13.80.08
!Date: Monday, November 20, 2023 15:33:13
!Source: Standard

BEGIN CH1_DATA
Freq(Hz),S21(DB),S21(DEG)
3000000000,-58.449425,65.105087
3003000000,-58.391445,48.122784
3006000000,-58.431797,32.403057
3009000000,-58.394444,15.938689
3012000000,-58.16251,-0.00058782595
3015000000,-58.276726,-15.450329
3018000000,-58.169819,-32.432346
3021000000,-58.193153,-49.853802
3024000000,-58.479561,-66.444405
3027000000,-58.466309,-82.858444
3030000000,-58.420578,-98.205704
3033000000,-58.560001,-113.29934
3036000000,-58.583874,-129.53783
3039000000,-58.547249,-146.16733
3042000000,-58.584606,-161.97237
3045000000,-58.495922,-177.93095
3048000000,-58.669624,165.92395
3051000000,-58.897743,150.3701
3054000000,-58.753166,135.29213
3057000000,-58.917362,119.41108
3060000000,-58.836441,104.10218
3063000000,-58.811703,88.003532
3066000000,-58.97176,73.417755
3069000000,-58.987167,56.062336
3072000000,-58.794693,40.956917
3075000000,-58.935181,24.967615
3078000000,-58.784222,9.7335548
3081000000,-58.96489,-7.6294093
3084000000,-58.888424,-23.839605
3087000000,-58.980072,-37.07988
3090000000,-59.133625,-53.219883
3093000000,-59.266224,-67.180351
3096000000,-59.17001,-83.007172
3099000000,-58.923962,-97.162582
3102000000,-58.796597,-114.87986
3105000000,-58.702057,-129.77696
3108000000,-58.89172,-145.57729
3111000000,-58.770241,-161.14917
3114000000,-58.700432,-176.78352
3117000000,-58.537319,167.30389
3120000000,-58.49744,151.70558
3123000000,-58.300007,135.81581
3126000000,-58.204597,118.96347
3129000000,-58.046146,102.10928
3132000000,-58.228596,86.895973
3135000000,-58.278683,70.503746
3138000000,-58.275505,54.474388
3141000000,-58.058105,39.12397
3144000000,-58.002731,22.846827
3147000000,-57.937016,5.2347336
3150000000,-57.952805,-11.331553
3153000000,-57.966179,-27.737822
3156000000,-58.022072,-44.172207
3159000000,-58.314896,-60.989655
3162000000,-58.438114,-76.772552
3165000000,-58.700413,-91.591553
3168000000,-58.684532,-106.00484
3171000000,-58.700523,-122.23306
3174000000,-58.442356,-136.36755
3177000000,-58.364948,-153.69057
3180000000,-58.56855,-170.19972
3183000000,-58.683037,173.63843
3186000000,-58.776352,160.35748
3189000000,-58.372002,145.51973
3192000000,-58.351563,128.91443
3195000000,-58.258327,113.34145
3198000000,-58.352921,96.932213
3201000000,-58.342346,80.332359
3204000000,-58.231785,64.338623
3207000000,-58.452606,49.703098
3210000000,-58.35741,33.474609
3213000000,-58.354523,17.695021
3216000000,-58.155987,1.2376353
3219000000,-58.292843,-15.037745
3222000000,-58.326672,-30.135265
3225000000,-58.10051,-46.20829
3228000000,-58.033943,-62.371861
3231000000,-58.037819,-79.04155
3234000000,-58.030933,-94.863182
3237000000,-58.147598,-109.97532
3240000000,-58.212765,-125.94377
3243000000,-58.373802,-143.68875
3246000000,-58.298534,-157.79996
3249000000,-58.178059,-173.38719
3252000000,-58.124363,170.3748
3255000000,-58.142185,153.67477
3258000000,-58.271893,138.59534
3261000000,-58.356228,122.04461
3264000000,-58.534348,105.70226
3267000000,-58.251938,93.329468
3270000000,-58.188297,77.321999
3273000000,-58.058998,61.308174
3276000000,-57.89183,44.628948
3279000000,-57.903755,26.019302
3282000000,-57.912323,10.802613
3285000000,-58.019283,-4.9991212
3288000000,-58.166786,-19.819347
3291000000,-58.098316,-36.161114
3294000000,-58.284283,-52.135845
3297000000,-58.293587,-67.205254
3300000000,-58.230183,-81.834785
3303000000,-58.134476,-99.648918
3306000000,-58.171986,-115.03877
3309000000,-58.270424,-130.69577
3312000000,-58.307678,-147.29175
3315000000,-58.229065,-162.45491
3318000000,-58.276402,-177.84698
3321000000,-58.067078,166.05159
3324000000,-57.995884,149.76428
3327000000,-58.238445,134.26573
3330000000,-58.263603,119.10583
3333000000,-58.107563,104.72067
3336000000,-58.240635,88.553497
3339000000,-58.078339,72.52533
3342000000,-58.080231,56.371998
3345000000,-57.901733,40.708572
3348000000,-57.699833,22.308508
3351000000,-57.723721,7.3203135
3354000000,-58.090263,-8.454155
3357000000,-57.858997,-24.566763
3360000000,-58.223572,-40.022152
3363000000,-58.029797,-55.576149
3366000000,-58.052402,-72.91922
3369000000,-58.194508,-88.275787
3372000000,-58.278038,-104.47861
3375000000,-58.433342,-120.2234
3378000000,-58.212994,-134.52681
3381000000,-58.167107,-149.81673
3384000000,-58.350811,-166.66528
3387000000,-58.309143,176.77104
3390000000,-58.269527,162.61726
3393000000,-58.156223,145.86287
3396000000,-58.307266,130.79329
3399000000,-58.327183,115.99034
3402000000,-58.141151,100.26149
3405000000,-58.198402,84.545807
3408000000,-58.052326,67.380905
3411000000,-58.249794,53.72089
3414000000,-58.040455,36.242584
3417000000,-58.201794,21.495724
3420000000,-58.037243,6.9711428
3423000000,-58.126373,-9.7356319
3426000000,-58.210804,-25.621912
3429000000,-57.886162,-41.83918
3432000000,-57.963123,-56.38176
3435000000,-57.914688,-72.321831
3438000000,-57.668682,-90.01062
3441000000,-57.719273,-105.28136
3444000000,-58.06448,-120.508
3447000000,-57.851089,-136.32672
3450000000,-57.820324,-152.36861
3453000000,-57.577145,-167.30316
3456000000,-57.500557,174.68066
3459000000,-57.502701,158.1521
3462000000,-57.697178,141.85213
3465000000,-57.970421,127.49946
3468000000,-58.036564,111.32419
3471000000,-57.94873,97.286331
3474000000,-57.746201,81.770439
3477000000,-57.522984,65.727753
3480000000,-57.42907,49.126602
3483000000,-57.47731,33.451946
3486000000,-57.608822,17.667276
3489000000,-57.407246,1.8472426
3492000000,-57.448528,-14.40102
3495000000,-57.260235,-31.653576
3498000000,-57.401241,-48.142071
3501000000,-57.452515,-64.189262
3504000000,-57.642235,-80.102699
3507000000,-57.558918,-95.743279
3510000000,-57.472878,-111.45476
3513000000,-57.41827,-127.96509
3516000000,-57.538475,-144.54807
3519000000,-57.757912,-160.26962
3522000000,-57.626465,-175.66202
3525000000,-57.808422,168.43013
3528000000,-58.064209,153.85597
3531000000,-58.029598,138.13567
3534000000,-57.792763,123.59023
3537000000,-57.849499,109.44109
3540000000,-57.74575,93.325592
3543000000,-57.598434,77.428467
3546000000,-57.405983,61.094082
3549000000,-57.399097,45.976173
3552000000,-57.318897,30.08423
3555000000,-57.28754,12.268202
3558000000,-57.198807,-2.9805005
3561000000,-57.156376,-19.359226
3564000000,-57.139542,-35.544292
3567000000,-57.06168,-51.489166
3570000000,-57.253113,-67.617744
3573000000,-57.146324,-83.751282
3576000000,-57.173409,-101.2389
3579000000,-57.335014,-116.15855
3582000000,-57.280399,-131.81519
3585000000,-57.540962,-147.67839
3588000000,-57.273685,-163.50266
3591000000,-57.221561,-179.8165
3594000000,-57.190056,164.08725
3597000000,-57.348583,147.54729
3600000000,-57.414227,130.40501
3603000000,-57.752655,115.72541
3606000000,-57.726231,102.49391
3609000000,-57.57431,86.071426
3612000000,-57.641144,72.512451
3615000000,-57.618687,56.839535
3618000000,-57.325966,40.102325
3621000000,-57.408516,21.854504
3624000000,-57.600048,5.8027463
3627000000,-57.488716,-8.7761545
3630000000,-57.696316,-24.34141
3633000000,-57.953396,-40.631477
3636000000,-58.011284,-53.37418
3639000000,-57.460178,-68.718407
3642000000,-57.217136,-85.889824
3645000000,-57.340279,-101.6451
3648000000,-57.481934,-117.10026
3651000000,-57.280529,-132.81697
3654000000,-57.180424,-146.77917
3657000000,-57.082932,-163.8989
3660000000,-57.084095,178.44376
3663000000,-56.955963,163.86778
3666000000,-57.132759,146.95836
3669000000,-56.821442,131.9433
3672000000,-56.713261,116.45753
3675000000,-56.501648,98.988396
3678000000,-56.383675,82.801643
3681000000,-56.347416,65.91787
3684000000,-56.512318,50.549473
3687000000,-56.307011,34.02322
3690000000,-56.492695,17.619171
3693000000,-56.87138,-0.28182977
3696000000,-56.735928,-14.915113
3699000000,-56.785259,-30.129593
3702000000,-56.87579,-46.380222
3705000000,-56.91235,-62.635662
3708000000,-56.808681,-77.583969
3711000000,-56.910572,-93.342644
3714000000,-56.866016,-108.08453
3717000000,-56.694683,-124.66307
3720000000,-56.744411,-141.09264
3723000000,-56.745525,-158.06599
3726000000,-56.765369,-174.129
3729000000,-56.993134,170.81851
3732000000,-56.961227,155.86909
3735000000,-56.981083,139.86497
3738000000,-57.040215,125.00976
3741000000,-56.615765,110.60303
3744000000,-56.49044,94.046181
3747000000,-56.346359,76.641937
3750000000,-56.53867,59.420685
3753000000,-56.604889,43.022888
3756000000,-56.763905,27.140511
3759000000,-56.493252,13.3197
3762000000,-56.534687,-3.1880789
3765000000,-56.540672,-20.086054
3768000000,-56.530514,-35.793591
3771000000,-56.536724,-51.84557
3774000000,-56.667038,-67.098343
3777000000,-56.552029,-81.906845
3780000000,-56.438332,-99.984962
3783000000,-56.313061,-115.39979
3786000000,-56.313229,-131.6373
3789000000,-56.174572,-147.82785
3792000000,-56.494862,-164.22752
3795000000,-56.304127,178.87173
3798000000,-56.493958,163.47421
3801000000,-56.480175,146.3822
3804000000,-56.65535,131.67383
3807000000,-56.611969,115.86188
3810000000,-56.616695,100.39352
3813000000,-56.599312,84.258797
3816000000,-56.637234,70.231438
3819000000,-56.520519,52.894154
3822000000,-56.603867,37.594803
3825000000,-56.585983,19.516527
3828000000,-56.602901,4.7326174
3831000000,-56.469242,-10.240016
3834000000,-56.515591,-25.761936
3837000000,-56.624489,-42.024075
3840000000,-56.546432,-56.827362
3843000000,-56.608597,-73.377266
3846000000,-56.526508,-90.117363
3849000000,-56.32534,-106.03313
3852000000,-56.320496,-122.19532
3855000000,-56.624718,-138.62729
3858000000,-56.503326,-153.74805
3861000000,-56.683064,-170.52255
3864000000,-56.451366,173.52809
3867000000,-56.565979,158.44283
3870000000,-56.476006,142.63286
3873000000,-56.416565,126.98427
3876000000,-56.305641,110.68877
3879000000,-56.078232,94.524323
3882000000,-56.432293,76.246613
3885000000,-56.510742,61.829433
3888000000,-56.678574,45.197414
3891000000,-56.688854,30.515377
3894000000,-56.504551,13.935211
3897000000,-56.631454,-0.70854259
3900000000,-56.466141,-16.443876
3903000000,-56.430775,-32.062801
3906000000,-56.777214,-50.530354
3909000000,-56.745472,-64.697357
3912000000,-56.696091,-80.781754
3915000000,-56.474529,-95.625603
3918000000,-56.430759,-111.3017
3921000000,-56.493572,-127.2429
3924000000,-56.330856,-144.50299
3927000000,-56.455372,-162.0287
3930000000,-56.576134,-176.85948
3933000000,-56.644432,167.92604
3936000000,-56.877735,152.7766
3939000000,-56.825432,138.0892
3942000000,-56.585262,122.3374
3945000000,-56.552979,107.48685
3948000000,-56.415649,89.024803
3951000000,-56.203983,73.680183
3954000000,-56.516739,57.311073
3957000000,-56.503281,42.484741
3960000000,-56.355198,25.982027
3963000000,-56.403782,11.070038
3966000000,-56.193447,-6.2023511
3969000000,-56.25861,-22.207457
3972000000,-56.080452,-39.148045
3975000000,-56.170841,-55.474049
3978000000,-56.301193,-70.577072
3981000000,-56.442089,-87.64109
3984000000,-56.465858,-101.58805
3987000000,-56.419224,-117.91401
3990000000,-56.415775,-133.85678
3993000000,-56.194416,-150.65572
3996000000,-56.18771,-166.46623
3999000000,-56.207569,177.47186
4002000000,-56.300823,162.1991
4005000000,-56.179096,146.17577
4008000000,-56.028774,128.51697
4011000000,-56.26342,112.78444
4014000000,-56.216213,97.874031
4017000000,-56.135609,80.61232
4020000000,-56.072384,65.781433
4023000000,-56.000629,48.405411
4026000000,-55.844826,31.680517
4029000000,-56.050678,16.080484
4032000000,-56.077602,-0.78307933
4035000000,-56.042912,-16.798788
4038000000,-56.360039,-34.482918
4041000000,-56.438446,-49.169689
4044000000,-56.417324,-63.574268
4047000000,-56.266399,-79.529182
4050000000,-56.514343,-96.511925
4053000000,-56.17292,-112.25103
4056000000,-56.426155,-127.93368
4059000000,-56.38213,-143.85287
4062000000,-56.448109,-160.46201
4065000000,-56.493942,-176.98451
4068000000,-56.710449,167.33723
4071000000,-56.762493,153.0341
4074000000,-56.567867,137.38458
4077000000,-56.595928,121.3367
4080000000,-56.626675,104.50452
4083000000,-56.620785,87.600983
4086000000,-56.517506,71.942322
4089000000,-56.877266,56.30761
4092000000,-56.746288,40.029903
4095000000,-56.801498,24.947956
4098000000,-56.693047,9.146594
4101000000,-56.87606,-7.3826737
4104000000,-56.678825,-23.964376
4107000000,-57.308624,-39.521332
4110000000,-57.154297,-53.269211
4113000000,-57.138618,-68.292641
4116000000,-56.823097,-82.835854
4119000000,-56.653225,-101.12962
4122000000,-56.718452,-117.10518
4125000000,-56.740662,-133.41919
4128000000,-56.819275,-149.43375
4131000000,-56.899147,-166.40157
4134000000,-56.927567,179.31467
4137000000,-56.896725,162.46872
4140000000,-56.810757,147.77116
4143000000,-56.803757,129.94907
4146000000,-56.812325,115.79168
4149000000,-56.785282,98.51226
4152000000,-57.055355,81.81871
4155000000,-56.787159,65.603111
4158000000,-57.039841,49.565807
4161000000,-57.290112,35.010925
4164000000,-57.292404,19.489319
4167000000,-57.370701,5.4595323
4170000000,-57.228497,-11.071215
4173000000,-57.15062,-25.678616
4176000000,-57.143211,-43.37933
4179000000,-57.252453,-58.944458
4182000000,-57.002796,-74.586494
4185000000,-57.15036,-90.571762
4188000000,-57.234913,-106.18371
4191000000,-57.010128,-121.16313
4194000000,-57.021172,-137.95502
4197000000,-56.694798,-154.2086
4200000000,-57.175888,-169.52052
4203000000,-57.052013,173.65674
4206000000,-57.13966,158.69284
4209000000,-57.011112,142.53166
4212000000,-57.109856,124.99661
4215000000,-57.062801,108.61774
4218000000,-57.339039,94.042725
4221000000,-57.25779,76.824257
4224000000,-57.23967,61.90247
4227000000,-57.597645,44.901188
4230000000,-57.28447,30.982815
4233000000,-57.346832,14.974898
4236000000,-57.327087,-1.1787214
4239000000,-57.279766,-18.054647
4242000000,-57.48526,-32.255817
4245000000,-57.438755,-47.596119
4248000000,-57.266518,-62.088516
4251000000,-57.29591,-79.34436
4254000000,-57.112549,-97.28006
4257000000,-57.298492,-113.40239
4260000000,-57.316185,-128.81706
4263000000,-57.308022,-144.83775
4266000000,-57.526432,-160.66806
4269000000,-57.31665,-176.18388
4272000000,-57.519585,168.32231
4275000000,-57.399387,152.94434
4278000000,-57.338203,137.76398
4281000000,-57.60136,120.07275
4284000000,-57.759201,105.53492
4287000000,-57.679619,90.059196
4290000000,-57.684258,77.026276
4293000000,-57.522263,57.944874
4296000000,-57.593147,41.625751
4299000000,-57.729221,26.376278
4302000000,-57.734173,10.839086
4305000000,-57.540112,-4.2508626
4308000000,-57.440002,-19.09407
4311000000,-57.58577,-35.222355
4314000000,-57.497883,-50.475922
4317000000,-57.335247,-66.405258
4320000000,-57.181622,-82.613312
4323000000,-57.23325,-99.075272
4326000000,-57.267826,-116.67162
4329000000,-57.440079,-132.68605
4332000000,-57.83176,-147.64964
4335000000,-57.429729,-163.30923
4338000000,-57.607338,-177.68033
4341000000,-57.490643,165.96152
4344000000,-57.251392,149.8456
4347000000,-57.378616,131.76799
4350000000,-57.199703,116.67026
4353000000,-57.309444,99.951469
4356000000,-57.615204,84.920715
4359000000,-57.290054,69.117943
4362000000,-57.455105,52.715134
4365000000,-57.548321,37.921421
4368000000,-57.355343,21.956717
4371000000,-57.488434,4.0221949
4374000000,-57.392223,-10.881484
4377000000,-57.785969,-25.973135
4380000000,-57.473881,-43.370483
4383000000,-57.529148,-57.370285
4386000000,-57.596085,-74.019524
4389000000,-57.544609,-89.118126
4392000000,-57.556919,-105.9327
4395000000,-57.547981,-121.74709
4398000000,-57.598694,-136.23277
4401000000,-57.433392,-153.19084
4404000000,-57.272541,-168.40498
4407000000,-57.521832,174.71442
4410000000,-57.264603,158.47267
4413000000,-57.418823,143.34863
4416000000,-57.416565,126.69882
4419000000,-57.459282,111.81081
4422000000,-57.424686,96.60009
4425000000,-57.310326,80.851799
4428000000,-57.533165,64.709305
4431000000,-57.35408,47.63879
4434000000,-57.245495,32.843098
4437000000,-57.160542,14.54895
4440000000,-57.297966,-1.2335272
4443000000,-57.511734,-15.7679
4446000000,-57.242764,-33.304298
4449000000,-57.405979,-48.304077
4452000000,-57.606304,-64.216873
4455000000,-57.313381,-79.908791
4458000000,-57.471073,-95.587059
4461000000,-57.013851,-111.58888
4464000000,-57.152893,-129.12555
4467000000,-57.27356,-142.61838
4470000000,-57.171902,-159.12473
4473000000,-57.288177,-176.18726
4476000000,-56.976273,168.02837
4479000000,-57.240639,151.06041
4482000000,-57.344212,134.96945
4485000000,-57.395287,119.72139
4488000000,-57.050659,103.99997
4491000000,-56.928715,88.49115
4494000000,-57.03146,72.742722
4497000000,-57.101139,54.330322
4500000000,-57.276882,38.580029
4503000000,-57.242485,22.025848
4506000000,-57.342464,5.675365
4509000000,-57.69281,-9.5278807
4512000000,-57.427109,-24.73975
4515000000,-57.387707,-40.256344
4518000000,-57.486416,-57.455826
4521000000,-57.569996,-71.1408
4524000000,-57.522064,-88.851242
4527000000,-57.537239,-104.91423
4530000000,-57.569511,-117.99213
4533000000,-57.394192,-135.90427
4536000000,-57.589714,-152.48659
4539000000,-57.751892,-167.93939
4542000000,-57.601238,176.37566
4545000000,-57.800407,160.76773
4548000000,-57.494671,145.76306
4551000000,-57.277214,128.71494
4554000000,-57.557579,110.21655
4557000000,-57.813808,96.076981
4560000000,-57.63908,80.098099
4563000000,-58.144157,64.327133
4566000000,-57.782795,47.912663
4569000000,-57.805378,33.526024
4572000000,-57.861137,17.073156
4575000000,-57.760048,1.8982205
4578000000,-57.781849,-15.558887
4581000000,-57.892456,-31.263205
4584000000,-58.115223,-46.975491
4587000000,-58.463718,-62.596832
4590000000,-57.93121,-76.964218
4593000000,-58.16468,-91.181931
4596000000,-57.92181,-108.09329
4599000000,-57.55711,-123.37569
4602000000,-57.855042,-140.06918
4605000000,-57.633087,-156.25598
4608000000,-57.858669,-171.72525
4611000000,-57.827686,171.38365
4614000000,-57.71225,155.89243
4617000000,-57.960766,138.57185
4620000000,-57.758835,123.72684
4623000000,-57.696018,107.16806
4626000000,-57.464748,91.849541
4629000000,-57.447739,74.436218
4632000000,-57.634476,57.246304
4635000000,-57.813843,39.536549
4638000000,-57.845924,24.541132
4641000000,-58.086067,9.7554302
4644000000,-58.024826,-4.7589688
4647000000,-57.890541,-21.720354
4650000000,-57.963585,-36.932198
4653000000,-58.202042,-53.50354
4656000000,-57.989807,-70.015068
4659000000,-58.346706,-86.871056
4662000000,-58.245392,-102.22335
4665000000,-58.276531,-119.28505
4668000000,-58.297791,-133.82613
4671000000,-58.609673,-148.99908
4674000000,-58.684929,-162.10295
4677000000,-58.646076,-177.83214
4680000000,-58.617359,163.4498
4683000000,-58.430264,150.48027
4686000000,-58.576591,133.90779
4689000000,-58.479065,119.07283
4692000000,-58.236984,103.09237
4695000000,-58.1749,86.568268
4698000000,-58.431519,71.662331
4701000000,-58.794018,54.201973
4704000000,-58.399124,39.322563
4707000000,-58.204159,23.612799
4710000000,-58.162827,6.621489
4713000000,-58.345222,-10.954763
4716000000,-58.410847,-24.730074
4719000000,-58.176964,-41.293949
4722000000,-58.166134,-56.843651
4725000000,-58.171848,-73.725136
4728000000,-58.368092,-88.986282
4731000000,-58.229664,-105.92891
4734000000,-58.450768,-121.80795
4737000000,-58.26733,-136.6889
4740000000,-58.304325,-150.65237
4743000000,-58.151592,-165.82497
4746000000,-58.015484,176.82373
4749000000,-58.052708,160.13737
4752000000,-57.930004,142.99744
4755000000,-58.181541,126.26814
4758000000,-58.198528,111.00194
4761000000,-58.099926,94.001289
4764000000,-58.311699,79.027748
4767000000,-58.3367,63.795818
4770000000,-58.408966,46.256645
4773000000,-58.693321,29.318714
4776000000,-58.496185,15.167425
4779000000,-58.38937,0.015405112
4782000000,-58.479801,-16.914055
4785000000,-58.717598,-34.450394
4788000000,-58.555241,-49.837265
4791000000,-58.898972,-65.779259
4794000000,-58.610359,-81.364265
4797000000,-58.729679,-98.013542
4800000000,-58.929878,-115.59824
4803000000,-59.005047,-128.57918
4806000000,-58.955688,-143.89008
4809000000,-59.066448,-159.39697
4812000000,-59.37373,-173.91234
4815000000,-59.220268,172.49828
4818000000,-59.266899,155.67046
4821000000,-59.268925,138.74303
4824000000,-59.056545,123.48673
4827000000,-58.975227,105.08892
4830000000,-58.90712,92.794586
4833000000,-59.200172,78.154083
4836000000,-58.992325,60.256306
4839000000,-58.981987,46.040657
