!CSV A.01.01
!Keysight Technologies,N5227B,US58420762,A.13.80.08
!Date: Monday, November 20, 2023 15:21:23
!Source: Standard

BEGIN CH1_DATA
Freq(Hz),S21(DB),S21(DEG)
3000000000,-56.196999,-107.84055
3003000000,-56.24752,-122.20614
3006000000,-56.340084,-136.49335
3009000000,-56.172401,-150.51221
3012000000,-56.14465,-164.20387
3015000000,-56.130985,-178.24657
3018000000,-55.953789,167.81821
3021000000,-55.928268,152.65657
3024000000,-56.012852,138.45027
3027000000,-56.139423,122.93661
3030000000,-56.322113,110.04862
3033000000,-56.438595,97.616371
3036000000,-56.364491,84.227058
3039000000,-56.373493,70.255753
3042000000,-56.304852,55.442272
3045000000,-56.484016,40.885628
3048000000,-56.743633,26.682293
3051000000,-56.933403,14.744328
3054000000,-56.9645,1.761284
3057000000,-56.887825,-11.629086
3060000000,-56.854637,-24.634398
3063000000,-56.978767,-38.170578
3066000000,-57.081871,-51.088848
3069000000,-57.204052,-64.91201
3072000000,-57.178017,-78.170219
3075000000,-57.222595,-91.230286
3078000000,-57.313511,-103.39504
3081000000,-57.377056,-115.1249
3084000000,-57.33651,-125.99441
3087000000,-56.987045,-139.25266
3090000000,-56.834789,-153.71021
3093000000,-56.655178,-167.5321
3096000000,-56.66914,178.2578
3099000000,-56.620792,164.07547
3102000000,-56.703934,151.35497
3105000000,-56.639221,139.38606
3108000000,-56.387821,125.6089
3111000000,-56.177612,111.99872
3114000000,-56.216499,96.804642
3117000000,-56.282429,81.022484
3120000000,-56.413898,68.61322
3123000000,-56.547512,56.174896
3126000000,-56.503662,43.748028
3129000000,-56.139977,30.044193
3132000000,-55.914108,16.89843
3135000000,-55.77737,1.2031269
3138000000,-55.950531,-13.576615
3141000000,-56.066841,-26.575819
3144000000,-56.18676,-40.466331
3147000000,-56.16103,-54.216797
3150000000,-56.221031,-66.744064
3153000000,-56.388226,-81.896355
3156000000,-56.03273,-93.29866
3159000000,-56.047367,-107.80688
3162000000,-55.999149,-122.04881
3165000000,-56.081371,-135.79515
3168000000,-56.227795,-149.88429
3171000000,-56.201702,-162.21724
3174000000,-56.196423,-174.1618
3177000000,-56.030819,171.26158
3180000000,-55.924946,158.54523
3183000000,-55.864521,143.19716
3186000000,-55.858559,129.21454
3189000000,-55.734615,115.1789
3192000000,-56.08572,101.96121
3195000000,-56.041214,88.896233
3198000000,-56.102459,75.901009
3201000000,-55.826839,63.091415
3204000000,-55.715866,48.976734
3207000000,-55.70826,35.215385
3210000000,-55.747231,19.774698
3213000000,-55.763382,5.3322058
3216000000,-56.114635,-8.7310143
3219000000,-56.146049,-20.47798
3222000000,-56.104233,-33.236286
3225000000,-56.035637,-46.100632
3228000000,-55.908253,-61.504284
3231000000,-55.787292,-74.738228
3234000000,-55.810398,-88.7033
3237000000,-55.955055,-104.03561
3240000000,-56.081432,-116.29671
3243000000,-56.095894,-129.88103
3246000000,-56.149651,-142.17528
3249000000,-56.150528,-156.32593
3252000000,-56.185432,-170.12332
3255000000,-56.124371,176.39743
3258000000,-56.2015,163.03751
3261000000,-56.300919,148.93361
3264000000,-56.376125,135.61279
3267000000,-56.35527,122.75143
3270000000,-56.405251,110.96331
3273000000,-56.493069,96.844872
3276000000,-56.294086,83.908585
3279000000,-56.410583,70.949272
3282000000,-56.345562,57.492573
3285000000,-56.400978,44.478767
3288000000,-56.31731,31.222195
3291000000,-56.201756,17.81741
3294000000,-56.244076,4.9590096
3297000000,-56.214867,-7.9685845
3300000000,-56.035732,-20.957678
3303000000,-56.105064,-34.062069
3306000000,-55.927231,-48.277164
3309000000,-55.755516,-61.82412
3312000000,-55.623234,-75.483994
3315000000,-55.528111,-89.1521
3318000000,-55.587505,-103.69169
3321000000,-55.521938,-116.51041
3324000000,-55.541683,-131.06367
3327000000,-55.472935,-145.59247
3330000000,-55.502434,-158.66542
3333000000,-55.518059,-172.601
3336000000,-55.635056,173.55827
3339000000,-55.42775,159.87318
3342000000,-55.435616,145.78365
3345000000,-55.443253,131.40311
3348000000,-55.605717,116.29752
3351000000,-55.686108,102.52065
3354000000,-55.712719,89.401711
3357000000,-55.824287,75.369293
3360000000,-55.907509,61.562107
3363000000,-56.117561,49.198936
3366000000,-55.92865,35.94672
3369000000,-56.07,21.877039
3372000000,-56.017826,7.8128624
3375000000,-56.470352,-5.1370664
3378000000,-56.681923,-18.267221
3381000000,-56.660843,-29.203598
3384000000,-56.584049,-40.889835
3387000000,-56.379349,-53.392746
3390000000,-56.287601,-67.390442
3393000000,-56.194637,-80.622063
3396000000,-56.272438,-96.597466
3399000000,-56.453617,-108.06573
3402000000,-56.345764,-119.15832
3405000000,-56.143887,-130.79916
3408000000,-55.968163,-144.92783
3411000000,-55.422447,-159.27533
3414000000,-55.381592,-174.21985
3417000000,-55.577427,171.35454
3420000000,-55.891239,157.47081
3423000000,-55.789913,145.39819
3426000000,-55.59391,133.56915
3429000000,-55.328796,118.66804
3432000000,-55.190914,103.45968
3435000000,-55.258934,89.776802
3438000000,-55.08083,75.038162
3441000000,-55.265629,61.119534
3444000000,-55.27895,45.86153
3447000000,-55.461273,32.503857
3450000000,-55.504864,19.487028
3453000000,-55.572613,6.7429914
3456000000,-55.331272,-7.0230775
3459000000,-55.271084,-20.233473
3462000000,-55.257881,-36.510899
3465000000,-55.4496,-49.874752
3468000000,-55.571869,-64.19236
3471000000,-55.775188,-74.732788
3474000000,-55.575188,-87.545143
3477000000,-55.348991,-100.33421
3480000000,-55.371723,-115.61436
3483000000,-55.360744,-129.32608
3486000000,-55.408588,-143.74361
3489000000,-55.519653,-157.0556
3492000000,-55.544582,-170.01938
3495000000,-55.366833,175.63715
3498000000,-55.599052,162.0986
3501000000,-55.83881,149.47333
3504000000,-55.670391,136.14305
3507000000,-55.657932,122.72312
3510000000,-55.605225,110.02025
3513000000,-55.583584,96.707031
3516000000,-55.606441,81.956528
3519000000,-55.490875,68.53109
3522000000,-55.657097,56.504185
3525000000,-55.442951,43.083633
3528000000,-55.191006,29.523285
3531000000,-55.364765,15.729712
3534000000,-55.487083,0.30267128
3537000000,-55.456684,-12.430319
3540000000,-55.375538,-25.865864
3543000000,-55.560509,-40.536427
3546000000,-55.572933,-53.414322
3549000000,-55.308556,-66.328972
3552000000,-55.361259,-81.03746
3555000000,-55.418739,-95.720993
3558000000,-55.641247,-108.52152
3561000000,-55.598747,-122.52094
3564000000,-55.50164,-135.56448
3567000000,-55.492771,-149.28357
3570000000,-55.612106,-162.37389
3573000000,-55.671158,-175.73441
3576000000,-55.755669,170.87878
3579000000,-55.896389,157.81223
3582000000,-55.950882,144.77831
3585000000,-55.901878,131.29785
3588000000,-55.795757,119.36872
3591000000,-55.738506,105.37261
3594000000,-55.541176,91.594048
3597000000,-55.676895,78.862198
3600000000,-55.539131,65.353477
3603000000,-55.659889,51.91782
3606000000,-55.471001,39.540524
3609000000,-55.297295,26.563768
3612000000,-55.293903,11.757072
3615000000,-55.177074,-3.0298197
3618000000,-55.326614,-17.368299
3621000000,-55.661484,-30.77367
3624000000,-55.583576,-43.014175
3627000000,-55.309334,-54.343739
3630000000,-55.179276,-69.524796
3633000000,-54.895241,-83.881607
3636000000,-55.146061,-99.053383
3639000000,-55.218594,-113.23345
3642000000,-55.495659,-126.55358
3645000000,-55.577148,-138.34132
3648000000,-55.441448,-151.15927
3651000000,-55.183002,-163.44493
3654000000,-54.750572,-178.33029
3657000000,-54.680531,165.85924
3660000000,-54.761627,149.25914
3663000000,-55.301285,134.92612
3666000000,-55.688683,123.67305
3669000000,-55.696705,112.76949
3672000000,-55.444775,101.09562
3675000000,-55.154415,87.034843
3678000000,-54.834541,72.215561
3681000000,-54.895828,56.62426
3684000000,-55.085907,42.628456
3687000000,-55.371536,29.672798
3690000000,-55.375977,17.96023
3693000000,-55.393158,4.3449087
3696000000,-55.093239,-9.1581774
3699000000,-54.881672,-22.600155
3702000000,-54.914154,-38.02726
3705000000,-55.05954,-52.59959
3708000000,-55.28281,-67.340378
3711000000,-55.492283,-80.665161
3714000000,-55.649548,-92.584274
3717000000,-55.635231,-104.4834
3720000000,-55.481182,-117.54637
3723000000,-55.240559,-131.76315
3726000000,-55.470623,-146.28085
3729000000,-55.458359,-160.06348
3732000000,-55.630459,-173.29825
3735000000,-55.662304,173.17447
3738000000,-55.674511,161.54289
3741000000,-55.455704,148.42111
3744000000,-55.516418,135.22041
3747000000,-55.271893,121.4226
3750000000,-55.135487,106.75108
3753000000,-55.156391,93.128082
3756000000,-55.309315,78.620857
3759000000,-55.355515,65.317062
3762000000,-55.493774,52.397896
3765000000,-55.170406,40.636391
3768000000,-55.094589,26.179184
3771000000,-55.028595,10.99392
3774000000,-54.872501,-2.9734342
3777000000,-55.033382,-17.569275
3780000000,-55.32658,-30.899834
3783000000,-55.345066,-45.602493
3786000000,-55.462574,-57.791058
3789000000,-55.381329,-70.794182
3792000000,-55.367916,-84.081261
3795000000,-55.321629,-97.607315
3798000000,-55.309769,-112.09382
3801000000,-55.537815,-127.21963
3804000000,-55.852276,-140.33165
3807000000,-55.885471,-151.53526
3810000000,-55.909931,-163.18239
3813000000,-55.694054,-174.38652
3816000000,-55.355503,171.93571
3819000000,-55.012814,156.32346
3822000000,-55.177814,140.17667
3825000000,-55.380264,124.84615
3828000000,-55.815342,111.3672
3831000000,-56.006935,99.75145
3834000000,-55.844887,88.036293
3837000000,-55.750927,75.072609
3840000000,-55.586716,62.200096
3843000000,-55.403412,48.041382
3846000000,-55.617393,32.708637
3849000000,-55.522091,19.883793
3852000000,-55.628082,5.5212646
3855000000,-55.776783,-4.5997682
3858000000,-55.509354,-18.161297
3861000000,-55.233677,-30.592363
3864000000,-54.988277,-45.812061
3867000000,-54.966545,-61.411739
3870000000,-55.285969,-76.7929
3873000000,-55.404377,-90.333839
3876000000,-55.472824,-102.51139
3879000000,-55.506348,-114.99821
3882000000,-55.268078,-127.71159
3885000000,-55.172031,-141.261
3888000000,-55.032211,-156.40154
3891000000,-55.171497,-171.09213
3894000000,-55.423771,174.42267
3897000000,-55.614109,161.15021
3900000000,-55.557861,148.47398
3903000000,-55.678871,135.11877
3906000000,-55.470249,122.52509
3909000000,-55.429016,108.87783
3912000000,-55.329155,94.114395
3915000000,-55.322357,79.960777
3918000000,-55.465618,66.778969
3921000000,-55.512413,53.359524
3924000000,-55.622566,40.271481
3927000000,-55.89053,26.14551
3930000000,-55.657688,13.631789
3933000000,-55.672073,-0.13607016
3936000000,-55.736168,-14.525963
3939000000,-55.854061,-27.738184
3942000000,-56.006012,-41.031265
3945000000,-55.83379,-53.022507
3948000000,-55.914391,-65.320709
3951000000,-55.739212,-78.042488
3954000000,-55.621296,-92.523705
3957000000,-55.507713,-105.82168
3960000000,-55.531677,-120.94173
3963000000,-55.716835,-134.55891
3966000000,-55.571289,-146.24762
3969000000,-55.730743,-159.78496
3972000000,-55.778023,-173.09641
3975000000,-55.654068,173.1172
3978000000,-55.672108,161.06714
3981000000,-55.693211,147.8974
3984000000,-55.551159,135.20557
3987000000,-55.338253,120.71081
3990000000,-55.133232,105.88063
3993000000,-55.084297,91.691002
3996000000,-55.079414,77.073059
3999000000,-55.211102,64.387337
4002000000,-55.387653,50.546188
4005000000,-55.158161,38.79253
4008000000,-55.01561,24.550858
4011000000,-54.803265,10.110876
4014000000,-54.793137,-5.4637809
4017000000,-55.01469,-21.672335
4020000000,-55.12252,-32.984772
4023000000,-55.24725,-47.17281
4026000000,-55.10025,-59.745884
4029000000,-55.216282,-74.05294
4032000000,-55.110565,-89.42437
4035000000,-55.164368,-102.42126
4038000000,-55.288845,-116.62375
4041000000,-55.381187,-129.92152
4044000000,-55.482975,-143.58664
4047000000,-55.544891,-156.96672
4050000000,-55.724007,-170.49843
4053000000,-55.640102,176.68021
4056000000,-55.752335,163.66928
4059000000,-55.820313,150.83679
4062000000,-55.705853,137.47929
4065000000,-55.504608,124.00904
4068000000,-55.721016,109.41124
4071000000,-55.665405,95.858879
4074000000,-55.702881,83.727592
4077000000,-55.598606,69.617844
4080000000,-55.626472,55.70454
4083000000,-55.645367,41.673367
4086000000,-55.780972,28.989368
4089000000,-56.095215,15.79973
4092000000,-55.90461,2.2728901
4095000000,-55.699017,-10.763897
4098000000,-55.866138,-25.48852
4101000000,-55.861599,-37.818649
4104000000,-55.782959,-51.828426
4107000000,-55.660587,-66.153946
4110000000,-55.806351,-79.921303
4113000000,-55.948925,-90.128532
4116000000,-55.810844,-104.74766
4119000000,-55.80051,-117.58495
4122000000,-55.674805,-132.12418
4125000000,-55.519703,-145.16322
4128000000,-55.460579,-158.45265
4131000000,-55.493031,-172.04695
4134000000,-55.490742,172.0569
4137000000,-55.775631,158.81459
4140000000,-55.64579,145.51553
4143000000,-55.839233,132.83598
4146000000,-55.792263,119.60224
4149000000,-55.613659,105.71935
4152000000,-55.574059,91.054451
4155000000,-55.741055,77.822716
4158000000,-55.717106,62.995689
4161000000,-55.877922,49.170788
4164000000,-55.884499,38.028816
4167000000,-55.78635,25.911579
4170000000,-55.57671,11.143021
4173000000,-55.501144,-2.9128749
4176000000,-55.540581,-17.332376
4179000000,-55.526646,-30.633812
4182000000,-55.780087,-45.654663
4185000000,-55.695534,-57.375706
4188000000,-55.710526,-71.49894
4191000000,-55.786774,-84.145554
4194000000,-55.71825,-97.745964
4197000000,-55.717548,-112.58178
4200000000,-55.661709,-126.12501
4203000000,-55.905102,-140.9122
4206000000,-56.171474,-152.05043
4209000000,-56.188923,-165.08397
4212000000,-55.824932,-178.11632
4215000000,-55.777447,166.91508
4218000000,-55.721043,153.7453
4221000000,-55.940029,139.85962
4224000000,-56.007324,125.79941
4227000000,-55.871895,114.93854
4230000000,-55.972729,100.52779
4233000000,-56.219063,87.923103
4236000000,-55.841,75.536186
4239000000,-55.589462,60.040375
4242000000,-55.494972,47.877487
4245000000,-55.431683,34.058769
4248000000,-55.539417,20.324558
4251000000,-55.258232,5.3514404
4254000000,-55.3298,-7.7354541
4257000000,-55.184208,-21.557247
4260000000,-55.309879,-36.154476
4263000000,-55.247059,-49.926903
4266000000,-55.248001,-63.135792
4269000000,-55.104961,-78.36631
4272000000,-55.083488,-92.390053
4275000000,-55.185276,-106.55279
4278000000,-55.242039,-121.03531
4281000000,-55.221451,-133.94087
4284000000,-55.333569,-148.10483
4287000000,-55.215328,-162.03191
4290000000,-55.424118,-175.8483
4293000000,-55.160664,171.02083
4296000000,-55.358788,157.71176
4299000000,-55.471664,143.65112
4302000000,-55.430298,128.50224
4305000000,-55.644028,114.30273
4308000000,-55.638084,100.33829
4311000000,-55.562229,86.985092
4314000000,-55.83849,71.683403
4317000000,-55.833721,59.094601
4320000000,-55.806755,45.293587
4323000000,-56.034184,33.507103
4326000000,-56.212662,18.218805
4329000000,-56.183167,6.0429001
4332000000,-55.977093,-7.935226
4335000000,-56.249771,-20.843807
4338000000,-56.322266,-35.453777
4341000000,-56.253014,-48.682011
4344000000,-56.541561,-60.556122
4347000000,-56.520706,-73.946823
4350000000,-56.694054,-87.976326
4353000000,-56.484776,-99.606834
4356000000,-56.685905,-114.01656
4359000000,-56.526287,-126.95499
4362000000,-56.554722,-141.15352
4365000000,-56.632164,-155.62881
4368000000,-56.723022,-168.78354
4371000000,-56.790207,177.7307
4374000000,-56.831295,166.69328
4377000000,-56.639244,154.53137
4380000000,-56.57634,141.15958
4383000000,-56.584473,126.02792
4386000000,-56.435387,113.55504
4389000000,-56.465363,98.231628
4392000000,-56.531784,85.975128
4395000000,-56.714809,73.559158
4398000000,-56.579323,60.335178
4401000000,-56.251427,47.521267
4404000000,-56.234467,33.500847
4407000000,-56.153931,19.010759
4410000000,-56.376972,6.7694278
4413000000,-56.373566,-7.9802556
4416000000,-56.566902,-21.303421
4419000000,-56.354313,-35.345863
4422000000,-56.285049,-46.527508
4425000000,-56.309319,-59.920815
4428000000,-55.999084,-73.673309
4431000000,-56.049915,-89.621338
4434000000,-56.143993,-104.54118
4437000000,-56.169701,-116.09553
4440000000,-56.163067,-130.63269
4443000000,-55.85535,-143.48999
4446000000,-55.798969,-158.7513
4449000000,-55.986626,-172.38579
4452000000,-56.080521,173.79019
4455000000,-56.015404,158.80432
4458000000,-56.038734,145.28369
4461000000,-56.141766,132.42297
4464000000,-56.209934,117.84827
4467000000,-56.282822,104.02367
4470000000,-56.265621,91.833694
4473000000,-56.173046,77.804886
4476000000,-56.143623,64.087067
4479000000,-56.270859,50.251499
4482000000,-56.412556,35.953316
4485000000,-56.397648,22.248713
4488000000,-56.549625,8.4312162
4491000000,-56.398258,-3.8674345
4494000000,-56.487965,-17.94121
4497000000,-56.217182,-31.658829
4500000000,-56.367157,-45.880386
4503000000,-56.369946,-57.985554
4506000000,-56.59148,-71.233009
4509000000,-56.512299,-85.402229
4512000000,-56.380608,-98.716553
4515000000,-56.252316,-112.35473
4518000000,-56.328354,-126.71441
4521000000,-56.227314,-142.25583
4524000000,-56.560432,-155.50543
4527000000,-56.642532,-169.79655
4530000000,-56.719814,177.59026
4533000000,-56.936874,164.36894
4536000000,-56.912769,150.96677
4539000000,-56.877777,139.74545
4542000000,-56.932934,124.63829
4545000000,-56.65057,111.494
4548000000,-56.636112,98.556168
4551000000,-56.6455,84.591606
4554000000,-56.952808,69.546616
4557000000,-56.731422,58.16098
4560000000,-56.971966,45.686104
4563000000,-56.988964,32.241058
4566000000,-56.573364,16.839344
4569000000,-56.585857,3.9587457
4572000000,-56.860676,-10.515038
4575000000,-56.695694,-26.748962
4578000000,-56.827751,-37.166981
4581000000,-56.753925,-52.107662
4584000000,-56.791775,-65.448219
4587000000,-56.919617,-78.796616
4590000000,-56.942158,-92.841095
4593000000,-56.714745,-106.89613
4596000000,-57.054401,-120.67329
4599000000,-57.250229,-133.34828
4602000000,-57.314999,-146.8288
4605000000,-57.121063,-160.17497
4608000000,-57.077503,-173.1519
4611000000,-57.254704,173.49663
4614000000,-57.298691,159.53122
4617000000,-57.295406,148.39648
4620000000,-57.25853,132.52264
4623000000,-57.299953,120.36658
4626000000,-57.337666,108.11244
4629000000,-57.451599,93.869644
4632000000,-57.202114,81.355446
4635000000,-57.289303,65.913788
4638000000,-57.393486,52.321621
4641000000,-57.001633,40.256435
4644000000,-57.414696,26.313877
4647000000,-57.378365,11.57796
4650000000,-57.455765,-1.8273107
4653000000,-57.453609,-14.447361
4656000000,-57.461071,-28.580332
4659000000,-57.39621,-43.075439
4662000000,-57.529938,-55.274055
4665000000,-57.767448,-69.592529
4668000000,-57.761612,-81.294945
4671000000,-57.7491,-94.895477
4674000000,-57.348831,-107.51906
4677000000,-57.477463,-122.16862
4680000000,-57.480991,-134.19179
4683000000,-57.487236,-149.82457
4686000000,-57.328693,-160.76242
4689000000,-57.596569,-173.69635
4692000000,-57.378853,171.77545
4695000000,-57.233868,159.65268
4698000000,-57.173996,147.97412
4701000000,-56.964161,131.7475
4704000000,-56.978115,116.87432
4707000000,-57.044041,101.98442
4710000000,-57.09407,87.78833
4713000000,-57.310467,73.222931
4716000000,-57.305912,61.760662
4719000000,-57.263592,50.35318
4722000000,-57.080616,36.690399
4725000000,-56.908939,23.517071
4728000000,-56.884895,9.1579952
4731000000,-57.13306,-6.5146642
4734000000,-56.937721,-18.744547
4737000000,-57.301792,-33.021095
4740000000,-57.124901,-46.226177
4743000000,-57.303104,-60.562973
4746000000,-57.231873,-72.090034
4749000000,-57.209415,-85.472534
4752000000,-56.703705,-98.989082
4755000000,-56.960865,-114.55734
4758000000,-56.416561,-129.28606
4761000000,-56.67477,-145.06552
4764000000,-57.010429,-158.21375
4767000000,-56.978432,-170.97293
4770000000,-56.834801,174.56851
4773000000,-56.924976,162.45917
4776000000,-57.039734,147.19826
4779000000,-57.117744,132.84984
4782000000,-57.231544,118.54826
4785000000,-57.335548,103.72494
4788000000,-57.810219,92.414711
4791000000,-57.90958,79.777161
4794000000,-57.770279,66.022255
4797000000,-57.747231,53.781281
4800000000,-57.562759,39.663963
4803000000,-57.59972,25.856852
4806000000,-57.614876,11.135554
4809000000,-57.667439,-0.32136813
4812000000,-57.50338,-13.497599
4815000000,-57.608269,-28.180117
4818000000,-57.710865,-40.887901
4821000000,-57.648594,-55.161236
4824000000,-57.607449,-69.260826
4827000000,-57.573864,-82.709274
4830000000,-57.725586,-96.909286
4833000000,-58.004833,-110.30975
4836000000,-58.014412,-125.14762
4839000000,-58.026436,-137.21515
