!CSV A.01.01
!Keysight Technologies,N5227B,US58420762,A.13.80.08
!Date: Monday, November 20, 2023 15:19:42
!Source: Standard

BEGIN CH1_DATA
Freq(Hz),S21(DB),S21(DEG)
3000000000,-56.954903,-75.911034
3003000000,-56.830944,-90.7677
3006000000,-56.849163,-106.76356
3009000000,-56.779255,-122.04395
3012000000,-56.698792,-137.7195
3015000000,-56.387249,-154.21983
3018000000,-56.366028,-170.63107
3021000000,-56.425621,172.44394
3024000000,-56.396915,155.35663
3027000000,-56.42186,139.89488
3030000000,-56.383156,124.71998
3033000000,-56.337002,108.94296
3036000000,-56.240986,92.448097
3039000000,-56.113239,76.158218
3042000000,-55.795406,59.398453
3045000000,-56.011871,41.507313
3048000000,-55.991142,24.667032
3051000000,-56.14727,6.9673638
3054000000,-56.211681,-8.6345148
3057000000,-56.347656,-24.803192
3060000000,-56.378502,-40.003433
3063000000,-56.439636,-55.583965
3066000000,-56.387794,-71.851425
3069000000,-56.282383,-87.786827
3072000000,-56.164829,-103.59538
3075000000,-56.372189,-120.41022
3078000000,-56.404285,-137.58179
3081000000,-56.739868,-152.78629
3084000000,-56.761189,-166.94151
3087000000,-56.840118,178.4639
3090000000,-56.691032,163.20245
3093000000,-56.567272,147.33369
3096000000,-56.582081,130.83871
3099000000,-56.523418,115.64961
3102000000,-56.531567,99.948997
3105000000,-56.27013,84.946114
3108000000,-56.114712,69.606819
3111000000,-56.003704,53.36821
3114000000,-55.913563,35.43684
3117000000,-55.698978,19.189472
3120000000,-55.736046,4.2511907
3123000000,-55.694485,-12.864875
3126000000,-55.606979,-29.476082
3129000000,-55.660427,-45.283524
3132000000,-55.555683,-61.856182
3135000000,-55.509541,-78.272141
3138000000,-55.456596,-95.334969
3141000000,-55.381332,-112.01034
3144000000,-55.359264,-129.56772
3147000000,-55.477211,-146.38953
3150000000,-55.65012,-162.80336
3153000000,-55.814068,-179.32988
3156000000,-55.868629,165.65154
3159000000,-55.868011,150.51645
3162000000,-55.898922,135.03281
3165000000,-55.883205,119.22579
3168000000,-55.863125,101.23895
3171000000,-55.778046,85.196457
3174000000,-55.974224,68.766121
3177000000,-56.325024,53.378094
3180000000,-56.408974,39.318119
3183000000,-56.326679,24.356497
3186000000,-56.137432,8.4566383
3189000000,-55.960991,-6.8434963
3192000000,-55.957211,-23.573687
3195000000,-55.91217,-39.376034
3198000000,-55.991116,-54.85207
3201000000,-55.94574,-69.859093
3204000000,-55.923702,-86.623993
3207000000,-55.700287,-101.01785
3210000000,-55.502892,-117.43735
3213000000,-55.250767,-134.20644
3216000000,-55.149643,-151.23184
3219000000,-55.393822,-169.138
3222000000,-55.40807,174.56729
3225000000,-55.568138,159.25223
3228000000,-55.706142,143.58725
3231000000,-55.650124,128.24086
3234000000,-55.562477,113.48353
3237000000,-55.274284,96.498993
3240000000,-55.161602,80.289513
3243000000,-55.032539,63.80127
3246000000,-55.16304,46.683765
3249000000,-55.211372,29.88661
3252000000,-55.20332,14.36635
3255000000,-55.294914,-2.1265023
3258000000,-55.260098,-18.31638
3261000000,-55.216991,-33.714428
3264000000,-55.153175,-50.596172
3267000000,-55.303619,-68.682854
3270000000,-55.101574,-84.40789
3273000000,-55.218292,-101.04391
3276000000,-55.435818,-118.4907
3279000000,-55.571201,-134.17517
3282000000,-55.79641,-148.68973
3285000000,-55.822643,-164.38672
3288000000,-56.00914,-178.55893
3291000000,-55.819958,165.56355
3294000000,-55.777145,149.80447
3297000000,-55.756584,134.58273
3300000000,-55.638466,118.39281
3303000000,-55.685108,101.96923
3306000000,-55.574322,85.417915
3309000000,-55.630379,71.884544
3312000000,-55.548641,55.468956
3315000000,-55.350708,39.131863
3318000000,-55.246845,22.907986
3321000000,-55.171841,7.6938195
3324000000,-55.178242,-9.4151478
3327000000,-55.074173,-25.428587
3330000000,-55.037254,-41.769783
3333000000,-54.900696,-59.290115
3336000000,-55.029652,-75.457748
3339000000,-55.12006,-91.906174
3342000000,-55.068054,-107.40904
3345000000,-55.033264,-123.00134
3348000000,-54.973404,-139.8739
3351000000,-55.05481,-155.99515
3354000000,-54.967888,-172.85103
3357000000,-55.131062,170.25632
3360000000,-55.16037,154.17302
3363000000,-55.271244,138.04951
3366000000,-55.136978,122.95685
3369000000,-55.144024,106.02973
3372000000,-55.181408,90.264938
3375000000,-55.194317,75.449532
3378000000,-55.119446,59.242439
3381000000,-54.972977,41.68959
3384000000,-55.097771,24.327837
3387000000,-55.260017,9.1990566
3390000000,-55.282494,-7.1396337
3393000000,-55.348557,-23.432032
3396000000,-55.341694,-38.186565
3399000000,-55.333,-54.439945
3402000000,-55.203243,-70.209015
3405000000,-55.49268,-87.974319
3408000000,-55.522778,-102.73531
3411000000,-55.685814,-119.27283
3414000000,-55.527519,-134.90251
3417000000,-55.600418,-151.28006
3420000000,-55.511459,-167.45758
3423000000,-55.852818,177.3842
3426000000,-55.764389,162.84576
3429000000,-55.781166,147.46039
3432000000,-55.870014,132.42047
3435000000,-55.693771,117.19016
3438000000,-55.55014,101.06291
3441000000,-55.465115,84.359291
3444000000,-55.550938,67.598763
3447000000,-55.480164,52.247982
3450000000,-55.633591,36.366207
3453000000,-55.414635,20.47077
3456000000,-55.43565,4.5929184
3459000000,-55.438232,-11.867365
3462000000,-55.38036,-27.610994
3465000000,-55.380482,-43.048119
3468000000,-55.30125,-58.334255
3471000000,-55.27103,-74.563309
3474000000,-55.17754,-91.370369
3477000000,-55.236767,-106.67876
3480000000,-55.079842,-122.52979
3483000000,-55.001938,-139.16803
3486000000,-54.97599,-154.94104
3489000000,-55.131413,-171.26297
3492000000,-54.844097,172.28633
3495000000,-54.68531,156.30121
3498000000,-54.735603,139.17433
3501000000,-54.851219,121.94215
3504000000,-54.982132,106.01011
3507000000,-54.83749,90.034393
3510000000,-54.838787,74.207985
3513000000,-54.878315,57.832195
3516000000,-54.837055,40.850883
3519000000,-55.002335,25.155556
3522000000,-54.944187,9.0969439
3525000000,-54.904305,-5.8394899
3528000000,-54.920547,-23.745214
3531000000,-54.832191,-40.396126
3534000000,-55.059544,-56.731304
3537000000,-55.066097,-72.200958
3540000000,-55.175179,-88.1558
3543000000,-55.289776,-104.48646
3546000000,-55.308838,-120.13254
3549000000,-55.269436,-134.5835
3552000000,-55.094467,-150.88493
3555000000,-55.178989,-167.31409
3558000000,-55.263847,176.13791
3561000000,-55.322525,159.41647
3564000000,-55.439468,143.44861
3567000000,-55.299862,128.43542
3570000000,-55.446606,112.90794
3573000000,-55.407078,97.59153
3576000000,-55.260052,81.819611
3579000000,-55.053417,66.470497
3582000000,-54.98843,48.300198
3585000000,-54.965511,30.949026
3588000000,-55.1884,14.679083
3591000000,-55.292107,-1.1935366
3594000000,-55.338078,-16.045599
3597000000,-55.261303,-30.268103
3600000000,-55.181442,-47.406757
3603000000,-55.137436,-63.973553
3606000000,-55.113384,-79.953568
3609000000,-55.150906,-97.896294
3612000000,-55.180996,-113.24835
3615000000,-55.314827,-128.42484
3618000000,-55.432781,-145.79991
3621000000,-55.42934,-160.49403
3624000000,-55.378887,-174.76988
3627000000,-55.347233,169.07819
3630000000,-55.123848,151.83275
3633000000,-55.246925,134.16948
3636000000,-55.392609,117.41019
3639000000,-55.646782,103.00551
3642000000,-55.654198,87.279129
3645000000,-55.751427,72.95932
3648000000,-55.518276,56.793198
3651000000,-55.443413,40.362896
3654000000,-55.558285,23.749798
3657000000,-55.579578,8.9467831
3660000000,-55.507801,-5.7350655
3663000000,-55.485447,-21.027069
3666000000,-55.261227,-37.40073
3669000000,-55.191669,-52.48801
3672000000,-55.27729,-69.440826
3675000000,-55.144306,-86.201958
3678000000,-55.237587,-102.65951
3681000000,-55.273979,-118.37756
3684000000,-55.095062,-133.6169
3687000000,-54.895416,-149.88728
3690000000,-54.794395,-166.60887
3693000000,-54.816528,177.62311
3696000000,-54.937912,161.0244
3699000000,-54.800766,143.85043
3702000000,-55.125393,128.16486
3705000000,-55.059643,111.13374
3708000000,-55.077751,98.42601
3711000000,-54.917336,81.376549
3714000000,-54.727596,65.804031
3717000000,-54.734219,48.583317
3720000000,-54.660355,31.335365
3723000000,-54.56683,13.835923
3726000000,-54.847916,-2.363585
3729000000,-54.947338,-18.663891
3732000000,-55.093571,-33.318516
3735000000,-54.973015,-48.444889
3738000000,-54.997627,-63.576691
3741000000,-54.59824,-79.766891
3744000000,-54.526279,-97.384468
3747000000,-54.594578,-114.95078
3750000000,-54.693161,-131.31599
3753000000,-54.797092,-147.879
3756000000,-55.230442,-163.77306
3759000000,-55.159225,-178.29433
3762000000,-54.993893,167.08612
3765000000,-54.90715,151.11865
3768000000,-54.633129,134.99712
3771000000,-54.790852,117.15104
3774000000,-54.808334,100.5629
3777000000,-54.997982,84.154167
3780000000,-55.065105,68.01091
3783000000,-55.213581,52.90012
3786000000,-55.091228,38.174915
3789000000,-55.145058,23.255653
3792000000,-55.226826,6.1066213
3795000000,-55.182137,-10.344909
3798000000,-55.186264,-26.573284
3801000000,-55.281487,-43.221451
3804000000,-55.403553,-58.751999
3807000000,-55.518593,-73.674522
3810000000,-55.308044,-88.254326
3813000000,-55.140465,-103.72519
3816000000,-55.187851,-118.84879
3819000000,-54.771114,-136.35225
3822000000,-54.792439,-154.12207
3825000000,-55.05901,-170.37381
3828000000,-55.238373,173.08218
3831000000,-55.275063,159.38434
3834000000,-55.244579,142.86328
3837000000,-55.344391,128.54303
3840000000,-55.086628,111.94663
3843000000,-54.961685,96.099266
3846000000,-54.60495,80.247459
3849000000,-54.698868,63.040989
3852000000,-54.681721,47.803757
3855000000,-54.628983,31.458012
3858000000,-54.588833,16.221617
3861000000,-54.641281,-0.015744401
3864000000,-54.477066,-16.749725
3867000000,-54.421238,-33.136333
3870000000,-54.292114,-50.705242
3873000000,-54.325214,-66.130554
3876000000,-54.090675,-82.260437
3879000000,-54.0308,-99.242981
3882000000,-54.030151,-115.13519
3885000000,-53.98901,-132.29637
3888000000,-54.014107,-149.25699
3891000000,-54.070305,-166.56961
3894000000,-54.169239,176.74809
3897000000,-54.283081,160.54428
3900000000,-54.269077,145.27832
3903000000,-54.395767,128.24988
3906000000,-54.306759,112.26437
3909000000,-54.305763,95.307121
3912000000,-54.593639,77.859367
3915000000,-54.668545,61.707127
3918000000,-54.881031,47.05558
3921000000,-54.914364,31.504667
3924000000,-54.827389,16.326258
3927000000,-54.81683,1.1472423
3930000000,-54.839825,-14.39369
3933000000,-54.501194,-30.640533
3936000000,-54.596859,-47.760025
3939000000,-54.633396,-64.689247
3942000000,-54.865501,-80.040543
3945000000,-54.987625,-95.867035
3948000000,-54.893402,-111.37085
3951000000,-54.905743,-125.97916
3954000000,-54.745422,-142.58495
3957000000,-54.615147,-159.78526
3960000000,-54.553196,-176.13263
3963000000,-54.601696,168.14717
3966000000,-54.702045,152.67892
3969000000,-54.751842,135.30179
3972000000,-54.720699,119.78118
3975000000,-54.791889,104.36645
3978000000,-54.682281,86.76371
3981000000,-54.796803,71.215462
3984000000,-54.66288,55.173485
3987000000,-54.883598,40.498528
3990000000,-54.665173,24.411888
3993000000,-54.518757,7.5171185
3996000000,-54.513992,-10.145292
3999000000,-54.593681,-25.97879
4002000000,-54.675484,-43.006813
4005000000,-54.893673,-58.438251
4008000000,-54.773071,-73.350143
4011000000,-54.685501,-88.759811
4014000000,-54.606289,-105.73621
4017000000,-54.52776,-122.15006
4020000000,-54.682888,-138.87976
4023000000,-54.65926,-154.74388
4026000000,-54.707775,-171.27205
4029000000,-54.677212,173.86804
4032000000,-54.611748,157.59521
4035000000,-54.822617,141.25999
4038000000,-54.807621,125.49554
4041000000,-54.833286,109.23632
4044000000,-54.806896,93.287766
4047000000,-54.729099,77.97171
4050000000,-54.768738,60.756939
4053000000,-54.794567,44.941673
4056000000,-54.786022,28.99135
4059000000,-54.837025,12.033404
4062000000,-54.813923,-4.4583321
4065000000,-54.914303,-20.77767
4068000000,-54.92226,-36.179878
4071000000,-55.004345,-52.217976
4074000000,-54.847569,-66.636925
4077000000,-54.825607,-83.407722
4080000000,-54.636257,-98.709534
4083000000,-54.738747,-115.36904
4086000000,-54.723923,-131.72762
4089000000,-54.673943,-149.80606
4092000000,-54.80431,-164.87515
4095000000,-54.989491,178.52708
4098000000,-55.047737,163.35437
4101000000,-55.035778,147.53806
4104000000,-54.778896,132.22006
4107000000,-54.633938,116.94459
4110000000,-54.595364,99.525337
4113000000,-54.648285,82.841019
4116000000,-54.651676,65.85218
4119000000,-54.819023,49.318378
4122000000,-54.830429,34.109982
4125000000,-54.906597,18.392303
4128000000,-54.952389,1.9297848
4131000000,-54.827099,-13.350149
4134000000,-54.759342,-29.177599
4137000000,-54.778046,-46.166962
4140000000,-54.756294,-62.679111
4143000000,-54.820621,-78.258362
4146000000,-55.022808,-94.828125
4149000000,-54.949619,-111.21102
4152000000,-54.962379,-126.18048
4155000000,-54.894508,-141.06335
4158000000,-54.67416,-156.70061
4161000000,-54.585709,-174.37843
4164000000,-54.702744,168.15396
4167000000,-54.842964,151.101
4170000000,-54.9272,135.18971
4173000000,-55.274052,118.5886
4176000000,-55.397194,103.97224
4179000000,-55.189217,91.350258
4182000000,-55.068569,75.141251
4185000000,-54.705872,58.991661
4188000000,-54.654633,39.884773
4191000000,-54.843472,23.137238
4194000000,-54.820992,6.9388428
4197000000,-55.106071,-8.5696869
4200000000,-55.367775,-24.041592
4203000000,-55.126392,-39.006947
4206000000,-55.113873,-54.078964
4209000000,-54.906086,-70.593132
4212000000,-54.757923,-86.196815
4215000000,-54.767933,-103.24016
4218000000,-54.586231,-120.21964
4221000000,-54.768505,-136.47878
4224000000,-54.907246,-152.52614
4227000000,-55.074532,-168.6918
4230000000,-54.955318,176.21703
4233000000,-54.983227,160.86545
4236000000,-54.839783,144.41548
4239000000,-54.776176,127.26689
4242000000,-54.667931,110.22966
4245000000,-54.698273,94.042496
4248000000,-54.830906,76.544395
4251000000,-55.019531,60.434807
4254000000,-55.338821,45.427338
4257000000,-55.085716,29.806492
4260000000,-54.888153,14.948185
4263000000,-54.899158,-0.56504798
4266000000,-54.912075,-19.745602
4269000000,-55.14183,-35.052593
4272000000,-54.839745,-51.800804
4275000000,-55.163765,-67.657333
4278000000,-55.324627,-83.033974
4281000000,-55.142864,-98.109306
4284000000,-55.069542,-114.62393
4287000000,-54.87833,-130.60802
4290000000,-54.7029,-147.77365
4293000000,-55.007423,-163.99863
4296000000,-55.11665,179.77661
4299000000,-55.162079,163.23871
4302000000,-55.258015,146.55849
4305000000,-55.234028,132.07568
4308000000,-55.384842,115.97897
4311000000,-55.347214,100.5923
4314000000,-55.141712,84.080849
4317000000,-55.162918,67.162094
4320000000,-55.366779,51.8064
4323000000,-55.519932,35.665115
4326000000,-55.723412,21.029482
4329000000,-55.411976,6.1934757
4332000000,-55.365025,-10.041519
4335000000,-55.239971,-25.922628
4338000000,-55.107235,-41.980671
4341000000,-54.91954,-58.607914
4344000000,-55.114979,-76.320534
4347000000,-55.108177,-92.132118
4350000000,-55.274422,-106.80312
4353000000,-55.354393,-122.87755
4356000000,-55.241833,-137.42807
4359000000,-55.168797,-154.39966
4362000000,-55.086151,-171.03531
4365000000,-55.062607,171.84962
4368000000,-55.026066,155.51335
4371000000,-54.95137,139.47932
4374000000,-55.204773,123.75027
4377000000,-55.072884,108.30247
4380000000,-54.905067,92.888458
4383000000,-55.216572,75.592354
4386000000,-55.057594,59.338951
4389000000,-54.923885,43.577049
4392000000,-54.938641,27.083864
4395000000,-54.753273,10.498997
4398000000,-54.888626,-6.4488316
4401000000,-54.999001,-22.223082
4404000000,-55.170792,-38.012333
4407000000,-55.076488,-55.748425
4410000000,-55.120392,-70.41674
4413000000,-54.967583,-86.719986
4416000000,-54.959888,-102.7961
4419000000,-54.8862,-119.88718
4422000000,-55.038219,-136.82066
4425000000,-55.245461,-151.97791
4428000000,-55.254005,-167.25261
4431000000,-55.310341,175.66493
4434000000,-55.390366,161.36565
4437000000,-55.40086,144.38075
4440000000,-55.167389,129.09332
4443000000,-55.480053,112.04824
4446000000,-55.331619,96.326797
4449000000,-55.294575,78.787636
4452000000,-55.366261,63.356529
4455000000,-55.282806,46.645241
4458000000,-55.453827,30.937769
4461000000,-55.54385,14.139394
4464000000,-55.447369,-1.6830468
4467000000,-55.789524,-17.257847
4470000000,-55.653381,-31.410261
4473000000,-55.783321,-47.635979
4476000000,-55.779198,-63.049347
4479000000,-55.830959,-79.432281
4482000000,-55.713959,-95.453911
4485000000,-55.605148,-110.62054
4488000000,-55.60762,-127.43732
4491000000,-55.554123,-142.62253
4494000000,-55.572678,-159.05588
4497000000,-55.538383,-175.53496
4500000000,-55.562805,170.00475
4503000000,-55.720169,154.70715
4506000000,-55.53339,138.6436
4509000000,-55.473083,122.41722
4512000000,-55.425812,105.51859
4515000000,-55.36731,89.842812
4518000000,-55.275055,72.545578
4521000000,-55.525574,56.786896
4524000000,-55.430027,40.391956
4527000000,-55.07811,24.894569
4530000000,-55.295811,8.5368872
4533000000,-55.241451,-7.2016125
4536000000,-55.285538,-24.931932
4539000000,-55.291965,-40.419456
4542000000,-55.233021,-55.174107
4545000000,-55.052597,-72.278908
4548000000,-55.399117,-86.872696
4551000000,-55.344482,-103.64651
4554000000,-55.105125,-120.77964
4557000000,-55.313583,-137.33989
4560000000,-55.263191,-151.90773
4563000000,-55.153538,-169.00229
4566000000,-55.131241,174.57945
4569000000,-54.975548,158.41612
4572000000,-55.181534,140.12527
4575000000,-55.129707,125.58871
4578000000,-55.346462,108.78516
4581000000,-55.28595,91.450546
4584000000,-55.348686,76.404655
4587000000,-55.413792,60.012249
4590000000,-55.613289,43.629078
4593000000,-55.712334,27.977665
4596000000,-55.725254,12.822106
4599000000,-55.472572,-3.2321558
4602000000,-55.515221,-17.872765
4605000000,-55.424068,-35.534714
4608000000,-55.534576,-51.398472
4611000000,-55.744049,-67.211754
4614000000,-55.978794,-84.033318
4617000000,-56.146687,-98.335121
4620000000,-55.890484,-112.75798
4623000000,-55.693588,-128.22272
4626000000,-55.354694,-144.70772
4629000000,-55.387844,-162.00632
4632000000,-55.399063,-179.35443
4635000000,-55.470249,164.40799
4638000000,-55.644825,149.04897
4641000000,-55.641872,133.70457
4644000000,-55.482086,117.52052
4647000000,-55.497643,102.41554
4650000000,-55.37775,85.527
4653000000,-55.534977,69.277786
4656000000,-55.15551,52.881748
4659000000,-55.209225,36.587269
4662000000,-55.414536,19.603489
4665000000,-55.621151,2.6760719
4668000000,-55.706833,-13.510766
4671000000,-55.679131,-27.733532
4674000000,-55.761784,-43.44368
4677000000,-55.777065,-60.013294
4680000000,-55.653557,-74.511864
4683000000,-55.675545,-91.206589
4686000000,-55.685726,-109.08713
4689000000,-55.755535,-125.16164
4692000000,-55.815056,-140.9471
4695000000,-55.807697,-156.87016
4698000000,-55.946777,-170.90007
4701000000,-55.850178,172.71895
4704000000,-55.813259,157.08144
4707000000,-55.823467,140.76895
4710000000,-55.560497,123.60249
4713000000,-55.941334,107.91063
4716000000,-55.747173,92.10553
4719000000,-56.062481,75.641953
4722000000,-55.77401,60.18383
4725000000,-55.824234,44.941288
4728000000,-55.865761,29.547802
4731000000,-55.710224,12.735049
4734000000,-55.617973,-2.2874205
4737000000,-55.471264,-18.204182
4740000000,-55.369644,-34.8409
4743000000,-55.447815,-51.997177
4746000000,-55.60302,-68.725967
4749000000,-55.788445,-84.410904
4752000000,-55.482666,-100.0915
4755000000,-55.835896,-115.20358
4758000000,-55.729828,-130.95518
4761000000,-55.578983,-148.63385
4764000000,-55.675056,-164.03217
4767000000,-55.68306,179.94751
4770000000,-55.500927,163.89067
4773000000,-55.705048,146.53368
4776000000,-55.549545,129.71149
4779000000,-55.734505,116.37518
4782000000,-55.68948,99.28434
4785000000,-55.640976,84.337151
4788000000,-55.457565,68.47583
4791000000,-55.636818,50.789925
4794000000,-55.38385,33.952179
4797000000,-55.753654,18.374672
4800000000,-55.58828,-0.28121579
4803000000,-56.022549,-14.350946
4806000000,-55.62677,-30.421349
4809000000,-55.72731,-44.408157
4812000000,-55.668068,-61.704628
4815000000,-55.555653,-79.24054
4818000000,-55.776596,-95.10173
4821000000,-55.759884,-111.59528
4824000000,-56.180092,-128.08249
4827000000,-56.400627,-143.46375
4830000000,-56.237846,-156.67554
4833000000,-56.154572,-173.11884
4836000000,-55.809002,171.10648
4839000000,-55.767876,154.11488
