!CSV A.01.01
!Keysight Technologies,N5227B,US58420762,A.13.80.08
!Date: Monday, November 20, 2023 14:54:21
!Source: Standard

BEGIN CH1_DATA
Time(s),S21(DB),S21(DEG)
1e-008,-119.88757,-22.640972
1.001e-008,-119.40712,-5.9371438
1.002e-008,-119.00179,10.649497
1.003e-008,-118.66678,27.154778
1.004e-008,-118.39862,43.589237
1.005e-008,-118.19467,59.972969
1.006e-008,-118.05305,76.314957
1.007e-008,-117.97305,92.625702
1.008e-008,-117.95435,108.91374
1.009e-008,-117.9982,125.18599
1.01e-008,-118.1054,141.44496
1.011e-008,-118.27836,157.69786
1.012e-008,-118.52042,173.95598
1.013e-008,-118.83644,-169.77742
1.014e-008,-119.23264,-153.49548
1.015e-008,-119.71658,-137.18904
1.016e-008,-120.29947,-120.84048
1.017e-008,-120.99578,-104.4378
1.018e-008,-121.82664,-87.952629
1.019e-008,-122.81911,-71.348946
1.02e-008,-124.01678,-54.551228
1.021e-008,-125.48341,-37.443451
1.022e-008,-127.32761,-19.790888
1.023e-008,-129.7435,-1.0347948
1.024e-008,-133.14708,20.459536
1.025e-008,-138.5047,51.903931
1.026e-008,-143.89191,135.30679
1.027e-008,-137.26826,-155.60579
1.028e-008,-132.39018,-127.44055
1.029e-008,-129.22121,-106.76672
1.03e-008,-126.9334,-88.374565
1.031e-008,-125.17172,-70.949837
1.032e-008,-123.76337,-54.0504
1.033e-008,-122.61024,-37.450397
1.034e-008,-121.65313,-21.063131
1.035e-008,-120.8544,-4.8089252
1.036e-008,-120.18776,11.325871
1.037e-008,-119.63273,27.369974
1.038e-008,-119.17793,43.33923
1.039e-008,-118.81244,59.236252
1.04e-008,-118.52854,75.057922
1.041e-008,-118.32132,90.816048
1.042e-008,-118.18707,106.49702
1.043e-008,-118.12279,122.10335
1.044e-008,-118.12758,137.61351
1.045e-008,-118.20107,153.03189
1.046e-008,-118.34325,168.33705
1.047e-008,-118.55575,-176.49309
1.048e-008,-118.8407,-161.47948
1.049e-008,-119.20018,-146.66621
1.05e-008,-119.63993,-132.09505
1.051e-008,-120.16333,-117.82792
1.052e-008,-120.77749,-103.94598
1.053e-008,-121.48752,-90.573219
1.054e-008,-122.29857,-77.87426
1.055e-008,-123.21109,-66.102821
1.056e-008,-124.21752,-55.549976
1.057e-008,-125.28658,-46.680782
1.058e-008,-126.34077,-39.998623
1.059e-008,-127.23566,-35.832825
1.06e-008,-127.76021,-33.891407
1.061e-008,-127.74314,-32.743843
1.062e-008,-127.20219,-30.510586
1.063e-008,-126.32465,-25.942711
1.064e-008,-125.31712,-18.881716
1.065e-008,-124.31308,-9.7111712
1.066e-008,-123.37919,1.0639831
1.067e-008,-122.54411,13.031461
1.068e-008,-121.81372,25.862928
1.069e-008,-121.18718,39.352375
1.07e-008,-120.65945,53.326267
1.071e-008,-120.22514,67.683426
1.072e-008,-119.87913,82.339272
1.073e-008,-119.61858,97.23658
1.074e-008,-119.43932,112.32925
1.075e-008,-119.34111,127.58778
1.076e-008,-119.32239,142.98877
1.077e-008,-119.38438,158.51651
1.078e-008,-119.52962,174.16333
1.079e-008,-119.76075,-170.08588
1.08e-008,-120.08377,-154.22028
1.081e-008,-120.50739,-138.24866
1.082e-008,-121.04131,-122.14451
1.083e-008,-121.70129,-105.89542
1.084e-008,-122.50903,-89.457245
1.085e-008,-123.49499,-72.763763
1.086e-008,-124.70579,-55.708893
1.087e-008,-126.21261,-38.071827
1.088e-008,-128.13708,-19.408962
1.089e-008,-130.68835,1.3600892
1.09e-008,-134.259,27.516029
1.091e-008,-139.07228,71.986443
1.092e-008,-139.39975,149.10695
1.093e-008,-134.5033,-163.68228
1.094e-008,-130.75751,-136.75256
1.095e-008,-128.07213,-115.67493
1.096e-008,-126.03815,-96.82843
1.097e-008,-124.43225,-79.04705
1.098e-008,-123.13042,-61.85429
1.099e-008,-122.05784,-45.017834
1.1e-008,-121.16687,-28.419262
1.101e-008,-120.42596,-11.985126
1.102e-008,-119.81293,4.3220892
1.103e-008,-119.31224,20.53055
1.104e-008,-118.91232,36.658237
1.105e-008,-118.60539,52.715103
1.106e-008,-118.3865,68.704208
1.107e-008,-118.25163,84.631287
1.108e-008,-118.19926,100.48718
1.109e-008,-118.22942,116.27505
1.11e-008,-118.34396,131.98267
1.111e-008,-118.54523,147.59265
1.112e-008,-118.83914,163.09189
1.113e-008,-119.23304,178.44717
1.114e-008,-119.73727,-166.37872
1.115e-008,-120.36613,-151.44928
1.116e-008,-121.14005,-136.85652
1.117e-008,-122.08497,-122.74752
1.118e-008,-123.24108,-109.3728
1.119e-008,-124.65908,-97.179787
1.12e-008,-126.40719,-87.026573
1.121e-008,-128.53563,-80.693832
1.122e-008,-130.88811,-81.80146
1.123e-008,-132.4072,-94.182793
1.124e-008,-131.4623,-109.59412
1.125e-008,-129.00336,-114.55521
1.126e-008,-126.54326,-110.35251
1.127e-008,-124.45044,-101.27567
1.128e-008,-122.70939,-89.66169
1.129e-008,-121.25002,-76.617981
1.13e-008,-120.01438,-62.706097
1.131e-008,-118.95825,-48.227985
1.132e-008,-118.04971,-33.363308
1.133e-008,-117.26595,-18.216553
1.134e-008,-116.58903,-2.8650188
1.135e-008,-116.00636,12.650202
1.136e-008,-115.5075,28.294012
1.137e-008,-115.08539,44.046589
1.138e-008,-114.73338,59.889687
1.139e-008,-114.44706,75.815002
1.14e-008,-114.22284,91.814171
1.141e-008,-114.05794,107.88573
1.142e-008,-113.9507,124.02618
1.143e-008,-113.89963,140.23668
1.144e-008,-113.90398,156.52071
1.145e-008,-113.96371,172.88274
1.146e-008,-114.0792,-170.66837
1.147e-008,-114.25112,-154.12245
1.148e-008,-114.48103,-137.4637
1.149e-008,-114.77089,-120.6726
1.15e-008,-115.12309,-103.72423
1.151e-008,-115.54077,-86.584885
1.152e-008,-116.02753,-69.209877
1.153e-008,-116.58739,-51.538445
1.154e-008,-117.22439,-33.491665
1.155e-008,-117.94244,-14.95762
1.156e-008,-118.7435,4.2080956
1.157e-008,-119.62486,24.212387
1.158e-008,-120.57376,45.324512
1.159e-008,-121.55845,67.876938
1.16e-008,-122.51276,92.221786
1.161e-008,-123.32251,118.55322
1.162e-008,-123.83559,146.59181
1.163e-008,-123.92558,175.38683
1.164e-008,-123.58278,-156.45091
1.165e-008,-122.91901,-129.98753
1.166e-008,-122.08955,-105.58978
1.167e-008,-121.21436,-83.11264
1.168e-008,-120.36654,-62.214001
1.169e-008,-119.58192,-42.560905
1.17e-008,-118.87466,-23.876245
1.171e-008,-118.24726,-5.9497895
1.172e-008,-117.69843,11.366447
1.173e-008,-117.22296,28.181053
1.174e-008,-116.81616,44.571262
1.175e-008,-116.4724,60.592209
1.176e-008,-116.18668,76.279716
1.177e-008,-115.95333,91.66436
1.178e-008,-115.76794,106.76073
1.179e-008,-115.62523,121.57908
1.18e-008,-115.52026,136.12904
1.181e-008,-115.44772,150.41142
1.182e-008,-115.40276,164.43207
1.183e-008,-115.37919,178.19431
1.184e-008,-115.37125,-168.29553
1.185e-008,-115.37245,-155.02925
1.186e-008,-115.37715,-141.9882
1.187e-008,-115.37886,-129.15382
1.188e-008,-115.37157,-116.4928
1.189e-008,-115.35045,-103.96867
1.19e-008,-115.31223,-91.537216
1.191e-008,-115.25386,-79.149239
1.192e-008,-115.17538,-66.754288
1.193e-008,-115.07742,-54.302319
1.194e-008,-114.96294,-41.74366
1.195e-008,-114.83588,-29.045357
1.196e-008,-114.70094,-16.170044
1.197e-008,-114.56367,-3.0933931
1.198e-008,-114.43015,10.198276
1.199e-008,-114.30566,23.715227
1.2e-008,-114.1954,37.463516
1.201e-008,-114.10437,51.438419
1.202e-008,-114.03775,65.643036
1.203e-008,-113.99908,80.069565
1.204e-008,-113.99253,94.714294
1.205e-008,-114.02127,109.57469
1.206e-008,-114.08958,124.6489
1.207e-008,-114.20006,139.93462
1.208e-008,-114.35663,155.43895
1.209e-008,-114.5621,171.16611
1.21e-008,-114.82098,-172.86984
1.211e-008,-115.1366,-156.65076
1.212e-008,-115.5136,-140.14665
1.213e-008,-115.95677,-123.32014
1.214e-008,-116.47119,-106.11234
1.215e-008,-117.0619,-88.449478
1.216e-008,-117.73322,-70.223419
1.217e-008,-118.48885,-51.288338
1.218e-008,-119.32592,-31.433807
1.219e-008,-120.23466,-10.38879
1.22e-008,-121.18233,12.188188
1.221e-008,-122.10314,36.663429
1.222e-008,-122.8788,63.257164
1.223e-008,-123.35399,91.696045
1.224e-008,-123.39478,120.97828
1.225e-008,-122.99449,149.66495
1.226e-008,-122.27134,176.66286
1.227e-008,-121.38683,-158.37645
1.228e-008,-120.46581,-135.28702
1.229e-008,-119.58101,-113.70725
1.23e-008,-118.76939,-93.282761
1.231e-008,-118.04457,-73.722549
1.232e-008,-117.41077,-54.812283
1.233e-008,-116.86676,-36.388199
1.234e-008,-116.40957,-18.337494
1.235e-008,-116.03555,-0.56862509
1.236e-008,-115.74218,16.982685
1.237e-008,-115.52712,34.36964
1.238e-008,-115.38881,51.629292
1.239e-008,-115.32641,68.799561
1.24e-008,-115.34118,85.905739
1.241e-008,-115.4343,102.97712
1.242e-008,-115.60889,120.03646
1.243e-008,-115.86923,137.11104
1.244e-008,-116.22192,154.22871
1.245e-008,-116.67544,171.42793
1.246e-008,-117.24211,-171.2457
1.247e-008,-117.93768,-153.7303
1.248e-008,-118.78529,-135.92654
1.249e-008,-119.81548,-117.68533
1.25e-008,-121.07401,-98.749115
1.251e-008,-122.62505,-78.65522
1.252e-008,-124.55701,-56.458424
1.253e-008,-126.9584,-30.068975
1.254e-008,-129.67679,5.2057452
1.255e-008,-131.25363,54.465313
1.256e-008,-129.71608,104.41697
1.257e-008,-126.89052,140.38019
1.258e-008,-124.34538,167.06357
1.259e-008,-122.27344,-170.66206
1.26e-008,-120.58818,-150.60185
1.261e-008,-119.19939,-131.77341
1.262e-008,-118.04131,-113.69562
1.263e-008,-117.06834,-96.098969
1.264e-008,-116.24751,-78.842026
1.265e-008,-115.55686,-61.82373
1.266e-008,-114.97947,-44.988842
1.267e-008,-114.50278,-28.293331
1.268e-008,-114.11829,-11.710391
1.269e-008,-113.81942,4.7804074
1.27e-008,-113.60152,21.189711
1.271e-008,-113.46178,37.532829
1.272e-008,-113.39875,53.807461
1.273e-008,-113.41222,70.026443
1.274e-008,-113.50356,86.185226
1.275e-008,-113.67505,102.28518
1.276e-008,-113.93106,118.32023
1.277e-008,-114.2777,134.28738
1.278e-008,-114.72351,150.1701
1.279e-008,-115.27984,165.95589
1.28e-008,-115.96403,-178.38832
1.281e-008,-116.79856,-162.89917
1.282e-008,-117.81712,-147.65118
1.283e-008,-119.06921,-132.76476
1.284e-008,-120.63361,-118.47099
1.285e-008,-122.64501,-105.24844
1.286e-008,-125.3464,-94.334724
1.287e-008,-129.20442,-89.664749
1.288e-008,-134.28589,-108.14965
1.289e-008,-133.04637,-155.64235
1.29e-008,-127.96079,-165.37794
1.291e-008,-124.3454,-158.49814
1.292e-008,-121.74514,-146.8998
1.293e-008,-119.76133,-133.45035
1.294e-008,-118.18246,-119.10802
1.295e-008,-116.89408,-104.26852
1.296e-008,-115.82298,-89.136406
1.297e-008,-114.92624,-73.816628
1.298e-008,-114.17227,-58.372253
1.299e-008,-113.5403,-42.84441
1.3e-008,-113.0144,-27.26384
1.301e-008,-112.58351,-11.649953
1.302e-008,-112.23958,3.982688
1.303e-008,-111.9769,19.622671
1.304e-008,-111.79039,35.257648
1.305e-008,-111.67818,50.876575
1.306e-008,-111.63819,66.469315
1.307e-008,-111.67027,82.027023
1.308e-008,-111.77509,97.535225
1.309e-008,-111.95431,112.98054
1.31e-008,-112.21135,128.34372
1.311e-008,-112.55006,143.6069
1.312e-008,-112.97691,158.73268
1.313e-008,-113.50014,173.686
1.314e-008,-114.13037,-171.5876
1.315e-008,-114.88179,-157.17671
1.316e-008,-115.77272,-143.19836
1.317e-008,-116.82828,-129.84555
1.318e-008,-118.07811,-117.43114
1.319e-008,-119.5583,-106.49606
1.32e-008,-121.29132,-98.011543
1.321e-008,-123.22693,-93.714874
1.322e-008,-125.02398,-96.048637
1.323e-008,-125.79255,-105.09859
1.324e-008,-124.90291,-113.65833
1.325e-008,-123.09675,-115.2051
1.326e-008,-121.21609,-110.3848
1.327e-008,-119.55293,-101.63075
1.328e-008,-118.14382,-90.567657
1.329e-008,-116.96366,-78.122314
1.33e-008,-115.978,-64.796715
1.331e-008,-115.15779,-50.898041
1.332e-008,-114.47955,-36.601444
1.333e-008,-113.92645,-22.030512
1.334e-008,-113.48589,-7.2677517
1.335e-008,-113.14831,7.62707
1.336e-008,-112.90732,22.61348
1.337e-008,-112.75833,37.650349
1.338e-008,-112.69902,52.708164
1.339e-008,-112.72919,67.757065
1.34e-008,-112.8494,82.766068
1.341e-008,-113.06276,97.703186
1.342e-008,-113.37402,112.52567
1.343e-008,-113.79067,127.18259
1.344e-008,-114.32188,141.60339
1.345e-008,-114.98098,155.69008
1.346e-008,-115.78599,169.29636
1.347e-008,-116.75808,-177.80473
1.348e-008,-117.92302,-165.9818
1.349e-008,-119.3029,-155.86089
1.35e-008,-120.89063,-148.50473
1.351e-008,-122.56206,-145.60893
1.352e-008,-123.87263,-148.81161
1.353e-008,-124.05259,-156.30453
1.354e-008,-122.91092,-161.4705
1.355e-008,-121.1558,-160.49663
1.356e-008,-119.37728,-154.34953
1.357e-008,-117.78463,-144.87405
1.358e-008,-116.40967,-133.35268
1.359e-008,-115.23497,-120.52924
1.36e-008,-114.2349,-106.84027
1.361e-008,-113.38568,-92.547073
1.362e-008,-112.6681,-77.816612
1.363e-008,-112.06708,-62.752411
1.364e-008,-111.57144,-47.424999
1.365e-008,-111.17238,-31.878559
1.366e-008,-110.86365,-16.145784
1.367e-008,-110.64091,-0.2452472
1.368e-008,-110.50122,15.813281
1.369e-008,-110.44308,32.026226
1.37e-008,-110.46659,48.399296
1.371e-008,-110.5728,64.943283
1.372e-008,-110.76402,81.678139
1.373e-008,-111.04443,98.636803
1.374e-008,-111.41917,115.86412
1.375e-008,-111.89559,133.42426
1.376e-008,-112.48193,151.41519
1.377e-008,-113.18883,169.97844
1.378e-008,-114.02682,-170.67914
1.379e-008,-115.00343,-150.23848
1.38e-008,-116.11405,-128.22182
1.381e-008,-117.31953,-103.93011
1.382e-008,-118.49873,-76.507904
1.383e-008,-119.38651,-45.465424
1.384e-008,-119.62306,-11.860698
1.385e-008,-119.05666,21.313969
1.386e-008,-117.92624,51.438347
1.387e-008,-116.58699,77.965149
1.388e-008,-115.26405,101.57014
1.389e-008,-114.05175,123.08889
1.39e-008,-112.97746,143.16002
1.391e-008,-112.04133,162.2155
1.392e-008,-111.23445,-179.46007
1.393e-008,-110.54656,-161.68079
1.394e-008,-109.96769,-144.32057
1.395e-008,-109.48972,-127.29443
1.396e-008,-109.10647,-110.54677
1.397e-008,-108.81303,-94.0392
1.398e-008,-108.60596,-77.749893
1.399e-008,-108.48356,-61.666225
1.4e-008,-108.44518,-45.789047
1.401e-008,-108.49137,-30.124701
1.402e-008,-108.62414,-14.694077
1.403e-008,-108.84644,0.47131664
1.404e-008,-109.16301,15.322165
1.405e-008,-109.57922,29.787022
1.406e-008,-110.10197,43.762524
1.407e-008,-110.73817,57.099178
1.408e-008,-111.49301,69.577919
1.409e-008,-112.36531,80.87925
1.41e-008,-113.3363,90.55043
1.411e-008,-114.34695,98.00177
1.412e-008,-115.26189,102.6645
1.413e-008,-115.84592,104.50761
1.414e-008,-115.85214,104.78806
1.415e-008,-115.22908,105.81966
1.416e-008,-114.17517,109.37331
1.417e-008,-112.9491,115.82333
1.418e-008,-111.7235,124.71455
1.419e-008,-110.58121,135.43225
1.42e-008,-109.55222,147.4668
1.421e-008,-108.64257,160.45354
1.422e-008,-107.8487,174.13849
1.423e-008,-107.16376,-171.65099
1.424e-008,-106.58076,-157.03552
1.425e-008,-106.0938,-142.0988
1.426e-008,-105.69767,-126.89931
1.427e-008,-105.38882,-111.4783
1.428e-008,-105.16467,-95.863945
1.429e-008,-105.02428,-80.072525
1.43e-008,-104.96759,-64.114044
1.431e-008,-104.99596,-47.989258
1.432e-008,-105.11197,-31.690426
1.433e-008,-105.32018,-15.201254
1.434e-008,-105.62643,1.5054811
1.435e-008,-106.03912,18.47369
1.436e-008,-106.56889,35.769577
1.437e-008,-107.22997,53.49474
1.438e-008,-108.04014,71.804535
1.439e-008,-109.02109,90.946266
1.44e-008,-110.19571,111.32806
1.441e-008,-111.57823,133.63353
1.442e-008,-113.13757,159.00075
1.443e-008,-114.69421,-170.94115
1.444e-008,-115.74371,-135.21243
1.445e-008,-115.62982,-96.74324
1.446e-008,-114.40238,-61.555046
1.447e-008,-112.73825,-32.069099
1.448e-008,-111.10731,-7.1221943
1.449e-008,-109.66959,14.884719
1.45e-008,-108.45153,35.031414
1.451e-008,-107.44051,53.965683
1.452e-008,-106.61801,72.066338
1.453e-008,-105.96731,89.563713
1.454e-008,-105.4772,106.59529
1.455e-008,-105.14147,123.24212
1.456e-008,-104.95961,139.54546
1.457e-008,-104.93626,155.51311
1.458e-008,-105.08302,171.11935
1.459e-008,-105.41953,-173.7049
1.46e-008,-105.97749,-159.09612
1.461e-008,-106.80537,-145.3123
1.462e-008,-107.97752,-132.86327
1.463e-008,-109.60301,-122.84171
1.464e-008,-111.79699,-117.85603
1.465e-008,-114.30637,-124.1437
1.466e-008,-114.94496,-146.34642
1.467e-008,-112.10707,-162.86157
1.468e-008,-108.62561,-163.59021
1.469e-008,-105.66962,-156.27345
1.47e-008,-103.23282,-145.37828
1.471e-008,-101.18808,-132.7133
1.472e-008,-99.437485,-119.0777
1.473e-008,-97.914597,-104.86729
1.474e-008,-96.574112,-90.298508
1.475e-008,-95.384453,-75.50013
1.476e-008,-94.323067,-60.554462
1.477e-008,-93.373474,-45.517262
1.478e-008,-92.523514,-30.429279
1.479e-008,-91.764175,-15.322287
1.48e-008,-91.088722,-0.22303395
1.481e-008,-90.492264,14.84455
1.482e-008,-89.97139,29.856834
1.483e-008,-89.523956,44.789227
1.484e-008,-89.148819,59.614281
1.485e-008,-88.845848,74.300011
1.486e-008,-88.61573,88.808044
1.487e-008,-88.459892,103.09
1.488e-008,-88.380333,117.08417
1.489e-008,-88.37925,130.71024
1.49e-008,-88.458435,143.86157
1.491e-008,-88.617973,156.396
1.492e-008,-88.853699,168.12418
1.493e-008,-89.152542,178.79959
1.494e-008,-89.484322,-171.87851
1.495e-008,-89.789558,-164.22105
1.496e-008,-89.967972,-158.41287
1.497e-008,-89.885292,-154.2614
1.498e-008,-89.422676,-150.98195
1.499e-008,-88.551323,-147.37318
1.5e-008,-87.354118,-142.39748
1.501e-008,-85.965668,-135.59225
1.502e-008,-84.503998,-126.99887
1.503e-008,-83.045563,-116.89264
1.504e-008,-81.631256,-105.58839
1.505e-008,-80.279388,-93.359627
1.506e-008,-78.99588,-80.421158
1.507e-008,-77.780434,-66.934929
1.508e-008,-76.629868,-53.021744
1.509e-008,-75.539932,-38.771736
1.51e-008,-74.506088,-24.25279
1.511e-008,-73.523949,-9.5164471
1.512e-008,-72.589485,5.3976636
1.513e-008,-71.69902,20.458679
1.514e-008,-70.849281,35.642273
1.515e-008,-70.037338,50.929127
1.516e-008,-69.260612,66.30365
1.517e-008,-68.516792,81.753212
1.518e-008,-67.803818,97.267418
1.519e-008,-67.119873,112.83771
1.52e-008,-66.463318,128.45692
1.521e-008,-65.832687,144.11905
1.522e-008,-65.226662,159.81902
1.523e-008,-64.644058,175.55249
1.524e-008,-64.083794,-168.68423
1.525e-008,-63.544895,-152.8943
1.526e-008,-63.026482,-137.08054
1.527e-008,-62.52774,-121.24527
1.528e-008,-62.047939,-105.39067
1.529e-008,-61.586399,-89.518539
1.53e-008,-61.142502,-73.630508
1.531e-008,-60.715675,-57.728016
1.532e-008,-60.305397,-41.812344
1.533e-008,-59.911182,-25.884628
1.534e-008,-59.532581,-9.9458847
1.535e-008,-59.169182,6.0029712
1.536e-008,-58.820599,21.961107
1.537e-008,-58.486473,37.927784
1.538e-008,-58.166481,53.902332
1.539e-008,-57.860313,69.884125
1.54e-008,-57.567677,85.872612
1.541e-008,-57.288315,101.8673
1.542e-008,-57.021976,117.86769
1.543e-008,-56.768425,133.87337
1.544e-008,-56.527458,149.88393
1.545e-008,-56.298862,165.89903
1.546e-008,-56.082462,-178.0817
1.547e-008,-55.878078,-162.05855
1.548e-008,-55.685551,-146.03181
1.549e-008,-55.50473,-130.00179
1.55e-008,-55.335476,-113.96868
1.551e-008,-55.177658,-97.932777
1.552e-008,-55.031162,-81.894287
1.553e-008,-54.895874,-65.853432
1.554e-008,-54.771698,-49.81041
1.555e-008,-54.658531,-33.765392
1.556e-008,-54.556297,-17.718592
1.557e-008,-54.46492,-1.6701642
1.558e-008,-54.384323,14.379714
1.559e-008,-54.314445,30.430887
1.56e-008,-54.255234,46.483196
1.561e-008,-54.206638,62.536488
1.562e-008,-54.168621,78.590622
1.563e-008,-54.141136,94.645454
1.564e-008,-54.124165,110.70084
1.565e-008,-54.117676,126.75665
1.566e-008,-54.121655,142.81273
1.567e-008,-54.136089,158.86893
1.568e-008,-54.160976,174.92516
1.569e-008,-54.196316,-169.01874
1.57e-008,-54.242115,-152.96292
1.571e-008,-54.298382,-136.90752
1.572e-008,-54.365143,-120.85265
1.573e-008,-54.442417,-104.79845
1.574e-008,-54.530231,-88.745117
1.575e-008,-54.628632,-72.69278
1.576e-008,-54.737652,-56.641586
1.577e-008,-54.857346,-40.591702
1.578e-008,-54.98777,-24.543306
1.579e-008,-55.128983,-8.4965563
1.58e-008,-55.281052,7.5483451
1.581e-008,-55.444061,23.591211
1.582e-008,-55.618084,39.631832
1.583e-008,-55.803215,55.670002
1.584e-008,-55.999554,71.705467
1.585e-008,-56.207203,87.737999
1.586e-008,-56.426281,103.76733
1.587e-008,-56.656906,119.79319
1.588e-008,-56.899212,135.81525
1.589e-008,-57.153339,151.83319
1.59e-008,-57.419441,167.84666
1.591e-008,-57.697678,-176.14471
1.592e-008,-57.988228,-160.14136
1.593e-008,-58.291264,-144.14372
1.594e-008,-58.606995,-128.15231
1.595e-008,-58.935623,-112.16766
1.596e-008,-59.277374,-96.190353
1.597e-008,-59.632492,-80.221069
1.598e-008,-60.001221,-64.260513
1.599e-008,-60.383839,-48.309479
1.6e-008,-60.780632,-32.368862
1.601e-008,-61.19191,-16.439636
1.602e-008,-61.617996,-0.52289677
1.603e-008,-62.05925,15.38013
1.604e-008,-62.516037,31.268087
1.605e-008,-62.988762,47.139427
1.606e-008,-63.477844,62.992432
1.607e-008,-63.983742,78.82515
1.608e-008,-64.506935,94.635376
1.609e-008,-65.047943,110.42058
1.61e-008,-65.607323,126.17793
1.611e-008,-66.185661,141.90413
1.612e-008,-66.783585,157.59546
1.613e-008,-67.401749,173.24757
1.614e-008,-68.040878,-171.14449
