!CSV A.01.01
!Keysight Technologies,N5227B,US58420762,A.13.80.08
!Date: Monday, November 20, 2023 15:27:22
!Source: Standard

BEGIN CH1_DATA
Time(s),S21(DB),S21(DEG)
1e-008,-134.59666,-85.895668
1.001e-008,-134.09924,-81.354103
1.002e-008,-133.35744,-75.486252
1.003e-008,-132.48532,-68.084404
1.004e-008,-131.57121,-59.245144
1.005e-008,-130.67061,-49.214725
1.006e-008,-129.81271,-38.252975
1.007e-008,-129.01164,-26.584835
1.008e-008,-128.27219,-14.374537
1.009e-008,-127.59364,-1.7656891
1.01e-008,-126.97348,11.141055
1.011e-008,-126.40681,24.265484
1.012e-008,-125.89058,37.553219
1.013e-008,-125.41975,50.95631
1.014e-008,-124.99076,64.436188
1.015e-008,-124.59945,77.969696
1.016e-008,-124.24191,91.527985
1.017e-008,-123.91535,105.10497
1.018e-008,-123.61613,118.68361
1.019e-008,-123.34152,132.25278
1.02e-008,-123.08879,145.81052
1.021e-008,-122.85509,159.35353
1.022e-008,-122.63892,172.88135
1.023e-008,-122.43762,-173.60916
1.024e-008,-122.24969,-160.11183
1.025e-008,-122.07355,-146.61954
1.026e-008,-121.90767,-133.13358
1.027e-008,-121.75104,-119.64508
1.028e-008,-121.60351,-106.14204
1.029e-008,-121.46409,-92.623322
1.03e-008,-121.33328,-79.075859
1.031e-008,-121.20998,-65.496887
1.032e-008,-121.09605,-51.876915
1.033e-008,-120.99091,-38.208214
1.034e-008,-120.89584,-24.486231
1.035e-008,-120.81161,-10.710797
1.036e-008,-120.73943,3.1287344
1.037e-008,-120.6802,17.033686
1.038e-008,-120.6353,31.003229
1.039e-008,-120.6062,45.04084
1.04e-008,-120.59412,59.145107
1.041e-008,-120.60088,73.314011
1.042e-008,-120.62701,87.549126
1.043e-008,-120.67519,101.84303
1.044e-008,-120.74594,116.19579
1.045e-008,-120.84158,130.60182
1.046e-008,-120.96307,145.05708
1.047e-008,-121.11245,159.55296
1.048e-008,-121.29153,174.08646
1.049e-008,-121.50199,-171.35306
1.05e-008,-121.74549,-156.77101
1.051e-008,-122.02518,-142.18442
1.052e-008,-122.34237,-127.59963
1.053e-008,-122.70013,-113.03271
1.054e-008,-123.10152,-98.502808
1.055e-008,-123.54904,-84.030014
1.056e-008,-124.04665,-69.641083
1.057e-008,-124.59811,-55.369289
1.058e-008,-125.20798,-41.262619
1.059e-008,-125.88099,-27.368658
1.06e-008,-126.62093,-13.771551
1.061e-008,-127.43268,-0.56480432
1.062e-008,-128.31924,12.115644
1.063e-008,-129.28003,24.091969
1.064e-008,-130.30472,35.109295
1.065e-008,-131.36891,44.884953
1.066e-008,-132.42004,53.072498
1.067e-008,-133.36488,59.439133
1.068e-008,-134.06377,64.076843
1.069e-008,-134.38231,67.709579
1.07e-008,-134.27289,71.579529
1.071e-008,-133.80719,76.852303
1.072e-008,-133.12637,84.119324
1.073e-008,-132.36044,93.392548
1.074e-008,-131.5936,104.3932
1.075e-008,-130.87286,116.80439
1.076e-008,-130.21692,130.32681
1.077e-008,-129.63181,144.7545
1.078e-008,-129.11583,159.92725
1.079e-008,-128.66534,175.72044
1.08e-008,-128.27232,-167.94327
1.081e-008,-127.9292,-151.12102
1.082e-008,-127.62943,-133.86328
1.083e-008,-127.365,-116.20381
1.084e-008,-127.12602,-98.176201
1.085e-008,-126.90595,-79.804329
1.086e-008,-126.69592,-61.120495
1.087e-008,-126.48827,-42.160908
1.088e-008,-126.27641,-22.966991
1.089e-008,-126.05309,-3.5855997
1.09e-008,-125.81452,15.932748
1.091e-008,-125.55717,35.532494
1.092e-008,-125.28046,55.161751
1.093e-008,-124.98415,74.75695
1.094e-008,-124.67081,94.278328
1.095e-008,-124.34389,113.68593
1.096e-008,-124.00822,132.94638
1.097e-008,-123.66811,152.03075
1.098e-008,-123.3293,170.93359
1.099e-008,-122.99588,-170.35455
1.1e-008,-122.67261,-151.8362
1.101e-008,-122.36395,-133.50122
1.102e-008,-122.07306,-115.35225
1.103e-008,-121.80264,-97.372231
1.104e-008,-121.55564,-79.551994
1.105e-008,-121.33453,-61.884697
1.106e-008,-121.14042,-44.353855
1.107e-008,-120.97579,-26.953365
1.108e-008,-120.84095,-9.6701632
1.109e-008,-120.73804,7.5030303
1.11e-008,-120.66804,24.575069
1.111e-008,-120.63139,41.556545
1.112e-008,-120.62983,58.450207
1.113e-008,-120.66456,75.26458
1.114e-008,-120.73641,92.007416
1.115e-008,-120.8466,108.67728
1.116e-008,-120.99731,125.28448
1.117e-008,-121.18971,141.83141
1.118e-008,-121.42595,158.31996
1.119e-008,-121.70814,174.7538
1.12e-008,-122.03893,-168.86931
1.121e-008,-122.42226,-152.5433
1.122e-008,-122.86056,-136.26804
1.123e-008,-123.35995,-120.04874
1.124e-008,-123.92504,-103.8814
1.125e-008,-124.56303,-87.770172
1.126e-008,-125.28276,-71.712379
1.127e-008,-126.09487,-55.725048
1.128e-008,-127.015,-39.807823
1.129e-008,-128.0607,-23.972506
1.13e-008,-129.25945,-8.2403345
1.131e-008,-130.65134,7.3528404
1.132e-008,-132.29131,22.767233
1.133e-008,-134.27469,37.890232
1.134e-008,-136.7695,52.518543
1.135e-008,-140.12793,66.048332
1.136e-008,-145.2683,76.161652
1.137e-008,-155.90709,57.789433
1.138e-008,-150.31448,-38.23502
1.139e-008,-143.68004,-34.947369
1.14e-008,-140.1888,-23.100815
1.141e-008,-137.94153,-9.5233688
1.142e-008,-136.37772,4.5598845
1.143e-008,-135.25185,18.794924
1.144e-008,-134.45047,32.996891
1.145e-008,-133.89696,47.037579
1.146e-008,-133.55481,60.800663
1.147e-008,-133.38954,74.171654
1.148e-008,-133.38829,87.039566
1.149e-008,-133.53383,99.217354
1.15e-008,-133.80716,110.47124
1.151e-008,-134.18355,120.50074
1.152e-008,-134.61011,128.95352
1.153e-008,-135.00648,135.53969
1.154e-008,-135.23405,140.18037
1.155e-008,-135.14169,143.33443
1.156e-008,-134.6394,146.19868
1.157e-008,-133.75386,150.02576
1.158e-008,-132.62022,155.67792
1.159e-008,-131.37637,163.26866
1.16e-008,-130.12799,172.60063
1.161e-008,-128.92773,-176.68239
1.162e-008,-127.80476,-164.89783
1.163e-008,-126.76662,-152.30418
1.164e-008,-125.81643,-139.10025
1.165e-008,-124.94793,-125.41522
1.166e-008,-124.15826,-111.3626
1.167e-008,-123.44178,-97.022118
1.168e-008,-122.79331,-82.447647
1.169e-008,-122.20921,-67.690483
1.17e-008,-121.685,-52.779694
1.171e-008,-121.21716,-37.752525
1.172e-008,-120.80363,-22.606424
1.173e-008,-120.44048,-7.3847365
1.174e-008,-120.12736,7.9086652
1.175e-008,-119.86139,23.263672
1.176e-008,-119.64149,38.669941
1.177e-008,-119.46665,54.114868
1.178e-008,-119.33617,69.594398
1.179e-008,-119.24939,85.104164
1.18e-008,-119.20622,100.6393
1.181e-008,-119.20681,116.19343
1.182e-008,-119.25077,131.76045
1.183e-008,-119.33997,147.33797
1.184e-008,-119.47402,162.92575
1.185e-008,-119.65527,178.51363
1.186e-008,-119.88447,-165.89178
1.187e-008,-120.16463,-150.30626
1.188e-008,-120.49709,-134.72356
1.189e-008,-120.88635,-119.15216
1.19e-008,-121.33575,-103.59606
1.191e-008,-121.8511,-88.055077
1.192e-008,-122.43745,-72.53875
1.193e-008,-123.10361,-57.052448
1.194e-008,-123.85977,-41.600868
1.195e-008,-124.71935,-26.200434
1.196e-008,-125.69862,-10.853942
1.197e-008,-126.82391,4.4045486
1.198e-008,-128.12999,19.556932
1.199e-008,-129.66862,34.555729
1.2e-008,-131.52316,49.308525
1.201e-008,-133.84236,63.640583
1.202e-008,-136.91736,77.076889
1.203e-008,-141.48404,87.953636
1.204e-008,-150.27853,83.266617
1.205e-008,-150.06711,-21.476614
1.206e-008,-142.02397,-24.788881
1.207e-008,-138.03026,-14.088601
1.208e-008,-135.49057,-1.0758251
1.209e-008,-133.69592,12.603297
1.21e-008,-132.36635,26.506491
1.211e-008,-131.3576,40.435665
1.212e-008,-130.58864,54.288948
1.213e-008,-130.00801,67.971466
1.214e-008,-129.58096,81.422836
1.215e-008,-129.2831,94.567459
1.216e-008,-129.09175,107.34956
1.217e-008,-128.98981,119.67899
1.218e-008,-128.9576,131.47557
1.219e-008,-128.97334,142.66251
1.22e-008,-129.00954,153.17993
1.221e-008,-129.03506,162.98494
1.222e-008,-129.01283,172.116
1.223e-008,-128.90811,-179.3277
1.224e-008,-128.68721,-171.11366
1.225e-008,-128.33672,-162.97627
1.226e-008,-127.85725,-154.6033
1.227e-008,-127.2693,-145.74268
1.228e-008,-126.60243,-136.2222
1.229e-008,-125.89,-125.9781
1.23e-008,-125.15974,-115.00648
1.231e-008,-124.43562,-103.36507
1.232e-008,-123.73279,-91.111702
1.233e-008,-123.06314,-78.333694
1.234e-008,-122.43353,-65.099777
1.235e-008,-121.84766,-51.476433
1.236e-008,-121.3079,-37.515465
1.237e-008,-120.81503,-23.267042
1.238e-008,-120.36907,-8.7695093
1.239e-008,-119.97025,5.9460516
1.24e-008,-119.61693,20.856564
1.241e-008,-119.30936,35.936119
1.242e-008,-119.04607,51.17017
1.243e-008,-118.82716,66.546616
1.244e-008,-118.65124,82.057709
1.245e-008,-118.51868,97.694145
1.246e-008,-118.42877,113.4512
1.247e-008,-118.38166,129.32834
1.248e-008,-118.37706,145.32562
1.249e-008,-118.41537,161.44635
1.25e-008,-118.49713,177.69766
1.251e-008,-118.6228,-165.91417
1.252e-008,-118.79254,-149.37611
1.253e-008,-119.00779,-132.67168
1.254e-008,-119.26869,-115.78236
1.255e-008,-119.57655,-98.677864
1.256e-008,-119.93143,-81.330818
1.257e-008,-120.33395,-63.694084
1.258e-008,-120.78316,-45.717247
1.259e-008,-121.27779,-27.339922
1.26e-008,-121.81274,-8.4846516
1.261e-008,-122.38158,10.943196
1.262e-008,-122.97136,31.034792
1.263e-008,-123.56242,51.898579
1.264e-008,-124.12627,73.600845
1.265e-008,-124.6242,96.168037
1.266e-008,-125.01233,119.51678
1.267e-008,-125.24616,143.42534
1.268e-008,-125.30093,167.54523
1.269e-008,-125.17189,-168.53279
1.27e-008,-124.88542,-145.17715
1.271e-008,-124.48089,-122.62613
1.272e-008,-124.00499,-100.98106
1.273e-008,-123.49555,-80.236763
1.274e-008,-122.98342,-60.320564
1.275e-008,-122.48817,-41.138599
1.276e-008,-122.02382,-22.589636
1.277e-008,-121.59707,-4.5915065
1.278e-008,-121.21269,12.940474
1.279e-008,-120.8716,30.059355
1.28e-008,-120.57417,46.824203
1.281e-008,-120.31963,63.266575
1.282e-008,-120.10608,79.42408
1.283e-008,-119.93195,95.314201
1.284e-008,-119.79461,110.95988
1.285e-008,-119.69212,126.36917
1.286e-008,-119.62152,141.56009
1.287e-008,-119.58035,156.53407
1.288e-008,-119.5657,171.29893
1.289e-008,-119.57406,-174.14061
1.29e-008,-119.60229,-159.77751
1.291e-008,-119.64652,-145.60626
1.292e-008,-119.70319,-131.61673
1.293e-008,-119.76894,-117.79773
1.294e-008,-119.83865,-104.13432
1.295e-008,-119.90999,-90.609436
1.296e-008,-119.97803,-77.195724
1.297e-008,-120.04084,-63.8689
1.298e-008,-120.09568,-50.59201
1.299e-008,-120.14118,-37.335468
1.3e-008,-120.17661,-24.056091
1.301e-008,-120.20273,-10.722635
1.302e-008,-120.22039,2.7092528
1.303e-008,-120.2323,16.271473
1.304e-008,-120.24126,29.996971
1.305e-008,-120.2504,43.912128
1.306e-008,-120.26339,58.044048
1.307e-008,-120.28438,72.412529
1.308e-008,-120.31657,87.041565
1.309e-008,-120.36349,101.94653
1.31e-008,-120.42833,117.14314
1.311e-008,-120.51344,132.65382
1.312e-008,-120.62047,148.49257
1.313e-008,-120.75088,164.68616
1.314e-008,-120.90395,-178.74193
1.315e-008,-121.07975,-161.76595
1.316e-008,-121.27417,-144.35107
1.317e-008,-121.48364,-126.46608
1.318e-008,-121.7001,-108.07739
1.319e-008,-121.91396,-89.15728
1.32e-008,-122.11256,-69.690849
1.321e-008,-122.28001,-49.686657
1.322e-008,-122.3987,-29.178667
1.323e-008,-122.45164,-8.2467527
1.324e-008,-122.4234,12.989673
1.325e-008,-122.30587,34.378296
1.326e-008,-122.09715,55.749516
1.327e-008,-121.80447,76.949165
1.328e-008,-121.44127,97.837776
1.329e-008,-121.02479,118.32941
1.33e-008,-120.57365,138.37671
1.331e-008,-120.10409,157.96722
1.332e-008,-119.63167,177.11116
1.333e-008,-119.16727,-164.1618
1.334e-008,-118.72015,-145.81921
1.335e-008,-118.29671,-127.82353
1.336e-008,-117.90192,-110.13734
1.337e-008,-117.53899,-92.726692
1.338e-008,-117.21017,-75.565247
1.339e-008,-116.91687,-58.626907
1.34e-008,-116.6599,-41.890934
1.341e-008,-116.44019,-25.339859
1.342e-008,-116.25777,-8.9624548
1.343e-008,-116.11314,7.2537746
1.344e-008,-116.00626,23.315039
1.345e-008,-115.93727,39.224781
1.346e-008,-115.90653,54.986378
1.347e-008,-115.91368,70.597153
1.348e-008,-115.95944,86.054359
1.349e-008,-116.04328,101.3516
1.35e-008,-116.1661,116.47845
1.351e-008,-116.32758,131.42305
1.352e-008,-116.52749,146.16591
1.353e-008,-116.76598,160.69176
1.354e-008,-117.04221,174.97096
1.355e-008,-117.35511,-171.02344
1.356e-008,-117.70306,-157.33083
1.357e-008,-118.08273,-143.98759
1.358e-008,-118.48987,-131.04362
1.359e-008,-118.91715,-118.54714
1.36e-008,-119.35559,-106.54527
1.361e-008,-119.79211,-95.082886
1.362e-008,-120.20963,-84.183189
1.363e-008,-120.58741,-73.845207
1.364e-008,-120.90416,-64.017807
1.365e-008,-121.13745,-54.597782
1.366e-008,-121.27175,-45.431248
1.367e-008,-121.29976,-36.324875
1.368e-008,-121.2239,-27.076221
1.369e-008,-121.05837,-17.508169
1.37e-008,-120.82266,-7.4990177
1.371e-008,-120.53958,3.0216448
1.372e-008,-120.2309,14.071608
1.373e-008,-119.9153,25.640066
1.374e-008,-119.60719,37.681755
1.375e-008,-119.3184,50.151028
1.376e-008,-119.05669,62.995586
1.377e-008,-118.8282,76.165871
1.378e-008,-118.63639,89.615746
1.379e-008,-118.48402,103.30348
1.38e-008,-118.37323,117.19254
1.381e-008,-118.30472,131.25305
1.382e-008,-118.27932,145.45818
1.383e-008,-118.29833,159.78015
1.384e-008,-118.36144,174.20259
1.385e-008,-118.46937,-171.29384
1.386e-008,-118.62283,-156.72649
1.387e-008,-118.82198,-142.1062
1.388e-008,-119.06757,-127.44894
1.389e-008,-119.36085,-112.76398
1.39e-008,-119.70219,-98.065544
1.391e-008,-120.09284,-83.355759
1.392e-008,-120.53389,-68.650177
1.393e-008,-121.02746,-53.950352
1.394e-008,-121.57321,-39.26696
1.395e-008,-122.17463,-24.597383
1.396e-008,-122.83229,-9.9443932
1.397e-008,-123.54826,4.6961613
1.398e-008,-124.32361,19.335474
1.399e-008,-125.16144,33.991352
1.4e-008,-126.06214,48.702209
1.401e-008,-127.0262,63.528095
1.402e-008,-128.05391,78.552017
1.403e-008,-129.14272,93.910873
1.404e-008,-130.28677,109.80735
1.405e-008,-131.47028,126.5397
1.406e-008,-132.66112,144.496
1.407e-008,-133.79227,164.14226
1.408e-008,-134.74481,-174.08463
1.409e-008,-135.33917,-150.18782
1.41e-008,-135.40083,-125.02317
1.411e-008,-134.8795,-100.12597
1.412e-008,-133.89542,-76.856033
1.413e-008,-132.64491,-55.65699
1.414e-008,-131.29166,-36.312443
1.415e-008,-129.92415,-18.379534
1.416e-008,-128.59445,-1.4309416
1.417e-008,-127.32412,14.860453
1.418e-008,-126.12416,30.737934
1.419e-008,-124.99463,46.363686
1.42e-008,-123.93703,61.838245
1.421e-008,-122.94834,77.240776
1.422e-008,-122.02537,92.614311
1.423e-008,-121.16657,107.99664
1.424e-008,-120.36912,123.40385
1.425e-008,-119.62987,138.85112
1.426e-008,-118.94726,154.34645
1.427e-008,-118.31853,169.89676
1.428e-008,-117.74227,-174.49507
1.429e-008,-117.21603,-158.82558
1.43e-008,-116.73853,-143.09596
1.431e-008,-116.30885,-127.30108
1.432e-008,-115.92539,-111.44125
1.433e-008,-115.58739,-95.514214
1.434e-008,-115.29404,-79.518692
1.435e-008,-115.04496,-63.449638
1.436e-008,-114.83946,-47.303867
1.437e-008,-114.67743,-31.077116
1.438e-008,-114.55877,-14.763309
1.439e-008,-114.48344,1.6471257
1.44e-008,-114.45167,18.160816
1.441e-008,-114.46399,34.791725
1.442e-008,-114.52052,51.551929
1.443e-008,-114.6218,68.46109
1.444e-008,-114.76876,85.537651
1.445e-008,-114.96132,102.81094
1.446e-008,-115.19983,120.3093
1.447e-008,-115.48387,138.07422
1.448e-008,-115.81303,156.1497
1.449e-008,-116.18475,174.59436
1.45e-008,-116.59492,-166.52629
1.451e-008,-117.03679,-147.13808
1.452e-008,-117.49914,-127.1571
1.453e-008,-117.96484,-106.50433
1.454e-008,-118.41094,-85.121178
1.455e-008,-118.80543,-62.987957
1.456e-008,-119.11232,-40.166348
1.457e-008,-119.29692,-16.819521
1.458e-008,-119.33279,6.787735
1.459e-008,-119.21228,30.32023
1.46e-008,-118.94898,53.466419
1.461e-008,-118.57227,75.978767
1.462e-008,-118.11865,97.722977
1.463e-008,-117.62335,118.66289
1.464e-008,-117.11554,138.82608
1.465e-008,-116.61758,158.27843
1.466e-008,-116.14429,177.09706
1.467e-008,-115.70571,-164.64276
1.468e-008,-115.30776,-146.87114
1.469e-008,-114.95381,-129.53438
1.47e-008,-114.64542,-112.58179
1.471e-008,-114.38314,-95.981812
1.472e-008,-114.16647,-79.705856
1.473e-008,-113.99433,-63.734776
1.474e-008,-113.86572,-48.056988
1.475e-008,-113.77865,-32.667038
1.476e-008,-113.73105,-17.563133
1.477e-008,-113.72039,-2.7500966
1.478e-008,-113.74356,11.765897
1.479e-008,-113.79682,25.973242
1.48e-008,-113.87572,39.862267
1.481e-008,-113.97453,53.422054
1.482e-008,-114.08694,66.644661
1.483e-008,-114.20528,79.525291
1.484e-008,-114.32072,92.071617
1.485e-008,-114.4241,104.29929
1.486e-008,-114.50595,116.244
1.487e-008,-114.55765,127.95348
1.488e-008,-114.57196,139.49493
1.489e-008,-114.54443,150.94762
1.49e-008,-114.47396,162.39761
1.491e-008,-114.3626,173.92946
1.492e-008,-114.21561,-174.37807
1.493e-008,-114.0411,-162.46249
1.494e-008,-113.84834,-150.2773
1.495e-008,-113.64709,-137.79391
1.496e-008,-113.44723,-124.99651
1.497e-008,-113.25779,-111.88313
1.498e-008,-113.08696,-98.458191
1.499e-008,-112.94191,-84.734184
1.5e-008,-112.82872,-70.721909
1.501e-008,-112.75302,-56.4366
1.502e-008,-112.7197,-41.887917
1.503e-008,-112.73329,-27.086826
1.504e-008,-112.79826,-12.037393
1.505e-008,-112.91892,3.2593439
1.506e-008,-113.10008,18.809443
1.507e-008,-113.34655,34.625854
1.508e-008,-113.66402,50.7323
1.509e-008,-114.05922,67.166382
1.51e-008,-114.53916,83.98204
1.511e-008,-115.11213,101.2608
1.512e-008,-115.78709,119.12159
1.513e-008,-116.57242,137.74028
1.514e-008,-117.47321,157.37717
1.515e-008,-118.48436,178.41089
1.516e-008,-119.57452,-158.62691
1.517e-008,-120.65632,-133.09178
1.518e-008,-121.5436,-104.52767
1.519e-008,-121.96456,-73.406181
1.52e-008,-121.72498,-41.675972
1.521e-008,-120.90418,-11.728309
1.522e-008,-119.76931,15.278065
1.523e-008,-118.55598,39.480881
1.524e-008,-117.39409,61.498211
1.525e-008,-116.33646,81.933327
1.526e-008,-115.39912,101.23372
1.527e-008,-114.58185,119.71046
1.528e-008,-113.87832,137.57712
1.529e-008,-113.28136,154.97768
1.53e-008,-112.78403,172.01056
1.531e-008,-112.38065,-171.25552
1.532e-008,-112.06702,-154.77686
1.533e-008,-111.83985,-138.5208
1.534e-008,-111.69764,-122.47214
1.535e-008,-111.63942,-106.62344
1.536e-008,-111.66615,-90.977974
1.537e-008,-111.77939,-75.547813
1.538e-008,-111.98234,-60.356819
1.539e-008,-112.27934,-45.444218
1.54e-008,-112.67635,-30.864874
1.541e-008,-113.18044,-16.702705
1.542e-008,-113.79987,-3.0760913
1.543e-008,-114.54292,9.8389683
1.544e-008,-115.41572,21.783777
1.545e-008,-116.41474,32.37888
1.546e-008,-117.51309,41.086388
1.547e-008,-118.62833,47.237988
1.548e-008,-119.57928,50.297958
1.549e-008,-120.08623,50.635429
1.55e-008,-119.93302,50.171154
1.551e-008,-119.18418,51.426785
1.552e-008,-118.11685,55.68824
1.553e-008,-116.98238,62.839645
1.554e-008,-115.9215,72.229446
1.555e-008,-114.99401,83.220634
1.556e-008,-114.22022,95.335693
1.557e-008,-113.60524,108.24125
1.558e-008,-113.15022,121.702
1.559e-008,-112.85735,135.54858
1.56e-008,-112.73278,149.6544
1.561e-008,-112.78955,163.90897
1.562e-008,-113.04924,178.20631
1.563e-008,-113.54821,-167.57932
1.564e-008,-114.34534,-153.63467
1.565e-008,-115.5415,-140.28593
1.566e-008,-117.31956,-128.26178
1.567e-008,-120.04354,-119.58846
1.568e-008,-124.38925,-122.40763
1.569e-008,-127.56566,-166.83408
1.57e-008,-121.82333,161.79184
1.571e-008,-116.83376,163.8058
1.572e-008,-113.26984,174.02823
1.573e-008,-110.52115,-173.02393
1.574e-008,-108.28078,-158.85327
1.575e-008,-106.38855,-144.02174
1.576e-008,-104.75209,-128.78302
1.577e-008,-103.31397,-113.26862
1.578e-008,-102.03602,-97.551254
1.579e-008,-100.89196,-81.674568
1.58e-008,-99.862854,-65.664467
1.581e-008,-98.934898,-49.537407
1.582e-008,-98.097733,-33.301437
1.583e-008,-97.343613,-16.96076
1.584e-008,-96.666687,-0.51441091
1.585e-008,-96.06266,16.041475
1.586e-008,-95.528419,32.715
1.587e-008,-95.061943,49.517559
1.588e-008,-94.662033,66.465485
1.589e-008,-94.3283,83.579788
1.59e-008,-94.060966,100.88865
1.591e-008,-93.860886,118.42873
1.592e-008,-93.729256,136.24751
1.593e-008,-93.667465,154.4073
1.594e-008,-93.676498,172.99036
1.595e-008,-93.756172,-167.89549
1.596e-008,-93.903366,-148.10873
1.597e-008,-94.109222,-127.46844
1.598e-008,-94.354195,-105.75217
1.599e-008,-94.600731,-82.716621
1.6e-008,-94.784637,-58.161076
1.601e-008,-94.812378,-32.064537
1.602e-008,-94.578056,-4.7648687
1.603e-008,-94.007858,22.97843
1.604e-008,-93.104355,50.217613
1.605e-008,-91.944458,76.220856
1.606e-008,-90.633095,100.68217
1.607e-008,-89.26059,123.64295
1.608e-008,-87.887543,145.3107
1.609e-008,-86.548553,165.92946
1.61e-008,-85.260681,-174.28122
1.611e-008,-84.030701,-155.14246
1.612e-008,-82.859795,-136.51512
1.613e-008,-81.746292,-118.29256
1.614e-008,-80.687241,-100.39353
1.615e-008,-79.679184,-82.755562
