!CSV A.01.01
!Keysight Technologies,N5227B,US58420762,A.13.80.08
!Date: Monday, November 20, 2023 14:51:06
!Source: Standard

BEGIN CH1_DATA
Freq(Hz),S21(DB),S21(DEG)
3000000000,-52.84243,-26.823704
3003000000,-52.711918,-40.67841
3006000000,-52.727348,-55.070107
3009000000,-52.67482,-69.55143
3012000000,-52.788532,-83.528389
3015000000,-52.803436,-97.833344
3018000000,-52.848873,-111.13033
3021000000,-52.98111,-123.61184
3024000000,-52.919395,-136.87839
3027000000,-52.910385,-150.83482
3030000000,-52.837967,-164.18541
3033000000,-52.940449,-178.44545
3036000000,-52.995171,167.40944
3039000000,-53.174324,153.76556
3042000000,-53.221218,140.41673
3045000000,-53.161655,127.58739
3048000000,-53.181358,113.80871
3051000000,-53.341648,100.21529
3054000000,-53.385136,86.655556
3057000000,-53.443993,73.519119
3060000000,-53.486046,60.858379
3063000000,-53.57478,48.349228
3066000000,-53.612328,36.225174
3069000000,-53.544788,23.778282
3072000000,-53.228046,11.450044
3075000000,-53.05714,-1.8902534
3078000000,-53.029144,-16.788862
3081000000,-52.92926,-30.505165
3084000000,-52.95599,-43.712902
3087000000,-52.918762,-57.764843
3090000000,-52.842663,-71.021034
3093000000,-52.723667,-84.495552
3096000000,-52.708447,-98.862381
3099000000,-52.774078,-113.84575
3102000000,-52.979931,-127.32743
3105000000,-53.095287,-140.74609
3108000000,-53.246922,-153.22159
3111000000,-53.179573,-166.40096
3114000000,-53.203247,179.63557
3117000000,-53.157616,167.63896
3120000000,-53.134712,155.10039
3123000000,-53.121338,141.41818
3126000000,-53.096714,128.68336
3129000000,-53.008392,115.45289
3132000000,-52.754425,102.83649
3135000000,-52.465332,88.766647
3138000000,-52.5667,74.183853
3141000000,-52.539783,60.206047
3144000000,-52.516483,46.305805
3147000000,-52.57196,32.295059
3150000000,-52.557232,19.025606
3153000000,-52.510475,4.5472655
3156000000,-52.519733,-8.6195669
3159000000,-52.492233,-23.048843
3162000000,-52.501484,-37.593033
3165000000,-52.55315,-51.166801
3168000000,-52.720074,-64.509026
3171000000,-52.93845,-79.303665
3174000000,-53.096096,-91.685883
3177000000,-53.106968,-104.33245
3180000000,-52.967972,-116.77228
3183000000,-53.095814,-130.73805
3186000000,-53.098064,-143.82738
3189000000,-53.185299,-157.74852
3192000000,-53.212513,-169.87723
3195000000,-53.410809,177.45966
3198000000,-53.292519,166.1302
3201000000,-53.032803,153.13489
3204000000,-52.896942,139.33351
3207000000,-52.857742,124.3867
3210000000,-52.73658,111.45413
3213000000,-52.806499,96.743118
3216000000,-52.94693,83.261795
3219000000,-52.961773,70.620239
3222000000,-53.018848,56.777088
3225000000,-52.914448,43.271492
3228000000,-52.967583,30.54965
3231000000,-53.003838,16.762882
3234000000,-53.165493,3.2388482
3237000000,-53.18063,-8.73909
3240000000,-53.201355,-21.280764
3243000000,-52.960148,-33.833439
3246000000,-52.898384,-47.369141
3249000000,-52.732533,-60.225311
3252000000,-52.542217,-74.318298
3255000000,-52.560627,-87.310318
3258000000,-52.580215,-101.21849
3261000000,-52.476688,-115.63013
3264000000,-52.462852,-127.74875
3267000000,-52.30225,-141.99747
3270000000,-52.172321,-155.68135
3273000000,-52.109726,-170.91606
3276000000,-52.197807,174.21089
3279000000,-52.242264,160.05215
3282000000,-52.507553,146.36801
3285000000,-52.644814,133.40459
3288000000,-52.622974,121.98698
3291000000,-52.544621,108.38495
3294000000,-52.602303,94.132072
3297000000,-52.536827,80.341354
3300000000,-52.614159,66.54538
3303000000,-52.655552,52.68795
3306000000,-52.818272,39.251297
3309000000,-52.875153,26.267315
3312000000,-52.922161,14.487759
3315000000,-52.811687,1.6105263
3318000000,-52.758503,-12.050743
3321000000,-52.708275,-25.320303
3324000000,-52.74934,-38.970398
3327000000,-52.849079,-52.281208
3330000000,-52.909061,-63.514954
3333000000,-52.843163,-75.460732
3336000000,-52.511894,-88.469055
3339000000,-52.30159,-103.19197
3342000000,-52.168888,-117.91261
3345000000,-52.293964,-132.36932
3348000000,-52.42469,-145.98006
3351000000,-52.557041,-159.03722
3354000000,-52.536896,-171.84645
3357000000,-52.378635,175.57263
3360000000,-52.188602,161.68398
3363000000,-52.228672,147.54112
3366000000,-52.097687,133.76273
3369000000,-52.155647,120.10235
3372000000,-52.401367,106.3297
3375000000,-52.494415,93.86792
3378000000,-52.321121,80.984314
3381000000,-52.139103,66.941299
3384000000,-52.02293,52.600086
3387000000,-52.092739,37.728081
3390000000,-52.212921,24.371248
3393000000,-52.341137,10.216511
3396000000,-52.428009,-2.9757569
3399000000,-52.677135,-15.523781
3402000000,-52.47863,-27.552498
3405000000,-52.42437,-40.513935
3408000000,-52.484833,-54.162605
3411000000,-52.383644,-67.16024
3414000000,-52.357586,-81.527985
3417000000,-52.522976,-94.802841
3420000000,-52.56514,-107.65233
3423000000,-52.493179,-119.77721
3426000000,-52.278175,-132.65309
3429000000,-52.06559,-147.028
3432000000,-51.997711,-161.56285
3435000000,-52.21257,-175.81334
3438000000,-52.354904,170.84305
3441000000,-52.473598,158.10529
3444000000,-52.447441,146.69839
3447000000,-52.250687,134.14386
3450000000,-52.092842,120.32811
3453000000,-51.947575,105.43282
3456000000,-51.953476,91.783226
3459000000,-51.933659,77.460075
3462000000,-52.028641,63.498501
3465000000,-52.197643,50.053394
3468000000,-52.157909,36.935581
3471000000,-52.06633,23.637966
3474000000,-52.100914,9.4765453
3477000000,-52.202133,-3.7545068
3480000000,-52.213326,-16.686666
3483000000,-52.047798,-30.352148
3486000000,-52.186104,-43.451336
3489000000,-52.223728,-56.520073
3492000000,-52.195812,-69.396797
3495000000,-52.031357,-83.064331
3498000000,-51.997082,-96.999847
3501000000,-51.925838,-110.62441
3504000000,-52.062889,-124.96552
3507000000,-51.976978,-138.19174
3510000000,-52.034763,-151.83057
3513000000,-52.170353,-164.48805
3516000000,-51.985985,-177.64792
3519000000,-52.026009,168.41019
3522000000,-52.098064,154.46118
3525000000,-52.144531,141.6218
3528000000,-52.250843,128.43674
3531000000,-52.26001,114.50596
3534000000,-52.433441,101.91192
3537000000,-52.338177,90.387695
3540000000,-52.147411,76.462364
3543000000,-52.099609,63.229637
3546000000,-51.972916,50.357323
3549000000,-52.015759,35.847054
3552000000,-52.069065,22.447197
3555000000,-51.888477,9.3208637
3558000000,-51.935246,-4.5046306
3561000000,-51.749577,-18.174398
3564000000,-51.815575,-32.283867
3567000000,-51.947372,-45.726856
3570000000,-51.85611,-59.526539
3573000000,-51.811886,-73.14679
3576000000,-51.916412,-86.789558
3579000000,-51.878628,-100.6531
3582000000,-51.989643,-113.41727
3585000000,-52.022903,-126.92194
3588000000,-51.982979,-140.33998
3591000000,-52.09079,-153.47234
3594000000,-52.107376,-167.42535
3597000000,-52.133583,-179.53445
3600000000,-52.06358,166.91652
3603000000,-51.976017,154.05525
3606000000,-51.917194,139.80724
3609000000,-51.964218,126.25274
3612000000,-52.100727,112.84447
3615000000,-51.927856,99.921577
3618000000,-51.858837,86.9561
3621000000,-51.929844,72.546822
3624000000,-51.978577,59.644512
3627000000,-51.935383,46.582302
3630000000,-51.82637,32.615417
3633000000,-51.809586,18.273489
3636000000,-51.940788,4.687161
3639000000,-52.030499,-8.4713821
3642000000,-52.049725,-21.883852
3645000000,-52.00853,-35.019547
3648000000,-51.97987,-48.323975
3651000000,-51.894268,-60.765453
3654000000,-51.945099,-75.634819
3657000000,-52.072449,-89.129913
3660000000,-52.055805,-102.80419
3663000000,-52.120129,-115.37289
3666000000,-52.137119,-127.99065
3669000000,-52.071037,-141.2155
3672000000,-51.871552,-153.47227
3675000000,-51.814331,-167.32957
3678000000,-51.720844,177.84718
3681000000,-51.764931,163.77524
3684000000,-51.734173,150.30109
3687000000,-51.945229,136.77628
3690000000,-51.891705,123.66084
3693000000,-51.978035,109.91456
3696000000,-51.928185,96.85714
3699000000,-51.929886,82.822342
3702000000,-51.957657,69.173882
3705000000,-52.076088,55.463146
3708000000,-52.122578,42.726452
3711000000,-52.15947,30.970066
3714000000,-52.173672,17.783281
3717000000,-52.058552,4.7070627
3720000000,-51.989395,-8.5376883
3723000000,-51.920727,-21.911861
3726000000,-52.022919,-36.13607
3729000000,-52.058533,-49.529636
3732000000,-52.066185,-61.944019
3735000000,-52.01965,-74.706932
3738000000,-51.829491,-87.630943
3741000000,-51.602608,-102.59316
3744000000,-51.540604,-116.81749
3747000000,-51.578381,-130.3649
3750000000,-51.72398,-143.83356
3753000000,-51.63065,-157.67778
3756000000,-51.660046,-170.72858
3759000000,-51.652691,174.65257
3762000000,-51.832676,161.78537
3765000000,-51.787968,148.34108
3768000000,-51.784119,135.07443
3771000000,-51.951653,121.20013
3774000000,-51.984497,108.26464
3777000000,-51.925423,95.529053
3780000000,-51.952614,82.7239
3783000000,-51.863926,70.273521
3786000000,-51.801884,56.900402
3789000000,-51.621586,42.310528
3792000000,-51.606907,28.449047
3795000000,-51.650875,14.646874
3798000000,-51.791744,0.83248961
3801000000,-51.818581,-12.662444
3804000000,-51.858238,-25.76907
3807000000,-51.833256,-38.9412
3810000000,-51.809181,-53.29845
3813000000,-51.868923,-66.228554
3816000000,-51.736942,-79.348961
3819000000,-51.904964,-93.495949
3822000000,-51.952415,-108.05964
3825000000,-52.11491,-119.90234
3828000000,-52.090763,-132.17422
3831000000,-52.100533,-145.42804
3834000000,-51.958157,-159.09882
3837000000,-51.953804,-172.44791
3840000000,-51.930515,174.6734
3843000000,-51.960495,161.84697
3846000000,-51.878895,148.62592
3849000000,-51.941017,135.27046
3852000000,-51.934017,123.1581
3855000000,-51.813278,109.52453
3858000000,-51.721394,95.936157
3861000000,-51.591743,82.639969
3864000000,-51.367626,68.579224
3867000000,-51.482559,53.89053
3870000000,-51.662426,41.249531
3873000000,-51.518276,27.329552
3876000000,-51.642353,14.580585
3879000000,-51.484615,0.86316496
3882000000,-51.509254,-12.400815
3885000000,-51.39159,-25.632843
3888000000,-51.328823,-39.488552
3891000000,-51.179249,-54.153179
3894000000,-51.317654,-67.86602
3897000000,-51.528545,-81.74588
3900000000,-51.518864,-94.717911
3903000000,-51.578793,-106.47678
3906000000,-51.424072,-119.27562
3909000000,-51.216438,-133.7153
3912000000,-51.219913,-148.1237
3915000000,-51.169975,-162.85089
3918000000,-51.394653,-176.61017
3921000000,-51.400112,170.33038
3924000000,-51.472828,157.17519
3927000000,-51.423607,144.78595
3930000000,-51.439728,130.85536
3933000000,-51.280869,117.53668
3936000000,-51.187817,103.01637
3939000000,-51.268738,88.684776
3942000000,-51.396931,75.787918
3945000000,-51.431576,62.066975
3948000000,-51.436909,49.283073
3951000000,-51.394608,35.703915
3954000000,-51.307346,22.046116
3957000000,-51.318569,7.533165
3960000000,-51.420193,-6.6063461
3963000000,-51.560875,-20.379881
3966000000,-51.708218,-33.056259
3969000000,-51.77042,-47.001247
3972000000,-51.822769,-59.393967
3975000000,-51.754391,-71.057251
3978000000,-51.644356,-85.196594
3981000000,-51.613865,-98.521057
3984000000,-51.608173,-113.37554
3987000000,-51.793903,-125.93496
3990000000,-51.935143,-139.74721
3993000000,-51.979786,-151.83501
3996000000,-51.874683,-165.12773
3999000000,-51.730282,-177.94743
4002000000,-51.628948,168.52516
4005000000,-51.816414,154.54079
4008000000,-51.889286,141.29909
4011000000,-51.872753,128.18329
4014000000,-51.839729,114.97236
4017000000,-51.714428,102.47619
4020000000,-51.690895,89.218681
4023000000,-51.654236,74.997742
4026000000,-51.57988,61.478603
4029000000,-51.597683,48.794155
4032000000,-51.606739,34.868237
4035000000,-51.632645,21.118551
4038000000,-51.681046,8.1879215
4041000000,-51.613831,-5.5109091
4044000000,-51.650394,-17.709393
4047000000,-51.569763,-31.166557
4050000000,-51.488777,-45.764206
4053000000,-51.49332,-59.03392
4056000000,-51.481056,-72.161026
4059000000,-51.571758,-86.492722
4062000000,-51.579449,-99.841774
4065000000,-51.479733,-111.9434
4068000000,-51.418827,-125.79578
4071000000,-51.285904,-138.81886
4074000000,-51.26149,-153.45227
4077000000,-51.218464,-168.1362
4080000000,-51.371941,177.96506
4083000000,-51.400509,165.22873
4086000000,-51.480225,152.47214
4089000000,-51.244392,139.49818
4092000000,-51.152519,125.91529
4095000000,-51.23531,110.85764
4098000000,-51.304234,97.236519
4101000000,-51.262947,82.936905
4104000000,-51.535912,69.822258
4107000000,-51.472771,57.353905
4110000000,-51.494633,43.714069
4113000000,-51.479595,30.200443
4116000000,-51.329758,16.991762
4119000000,-51.331001,3.1677952
4122000000,-51.34647,-11.019798
4125000000,-51.402325,-25.202883
4128000000,-51.541904,-38.783596
4131000000,-51.651123,-52.101757
4134000000,-51.666878,-64.773582
4137000000,-51.67252,-78.059654
4140000000,-51.413807,-92.046585
4143000000,-51.488358,-105.06597
4146000000,-51.569805,-119.6415
4149000000,-51.826954,-133.11232
4152000000,-51.891888,-145.93813
4155000000,-51.909561,-157.86813
4158000000,-51.866776,-170.7524
4161000000,-51.75658,176.36183
4164000000,-51.662601,161.41966
4167000000,-51.628887,147.84441
4170000000,-51.79644,133.95172
4173000000,-51.863026,121.10507
4176000000,-51.913357,108.31483
4179000000,-51.952553,96.746147
4182000000,-51.728802,82.812622
4185000000,-51.568562,69.363815
4188000000,-51.60379,53.825161
4191000000,-51.57439,40.062199
4194000000,-51.795399,27.333378
4197000000,-52.002655,13.21527
4200000000,-51.933006,1.0433807
4203000000,-51.841667,-11.62701
4206000000,-51.734024,-24.665478
4209000000,-51.772446,-38.833084
4212000000,-51.767731,-51.834583
4215000000,-51.77018,-65.768341
4218000000,-51.770226,-79.101997
4221000000,-51.807232,-92.63607
4224000000,-51.81274,-105.38564
4227000000,-51.858028,-119.72117
4230000000,-51.713306,-132.64526
4233000000,-51.67923,-145.92136
4236000000,-51.697884,-159.47803
4239000000,-51.880787,-173.16931
4242000000,-51.782097,174.02115
4245000000,-51.833683,159.87427
4248000000,-51.761696,147.64394
4251000000,-51.719051,134.84563
4254000000,-51.596596,120.4304
4257000000,-51.671116,107.14387
4260000000,-51.404099,93.440437
4263000000,-51.566917,80.390915
4266000000,-51.606628,66.840034
4269000000,-51.663044,53.368813
4272000000,-51.553974,40.169785
4275000000,-51.355309,26.773111
4278000000,-51.480682,12.567178
4281000000,-51.390766,-1.5555573
4284000000,-51.401932,-15.129513
4287000000,-51.316868,-28.260736
4290000000,-51.324924,-42.856846
4293000000,-51.387543,-55.816761
4296000000,-51.428429,-69.687523
4299000000,-51.360153,-82.926903
4302000000,-51.339809,-97.742508
4305000000,-51.550449,-111.08845
4308000000,-51.46571,-124.73528
4311000000,-51.562473,-137.68694
4314000000,-51.665981,-151.40192
4317000000,-51.548008,-165.10863
4320000000,-51.76199,-179.25397
4323000000,-51.664124,167.86696
4326000000,-51.735229,154.40965
4329000000,-51.822224,140.57542
4332000000,-51.773106,127.33859
4335000000,-51.936005,113.29264
4338000000,-51.922356,100.91735
4341000000,-51.916866,87.677078
4344000000,-51.722954,74.496407
4347000000,-51.929157,60.546425
4350000000,-51.802338,47.348873
4353000000,-51.98838,33.512253
4356000000,-51.85936,20.357634
4359000000,-51.974552,7.0491014
4362000000,-51.977318,-6.455461
4365000000,-52.049999,-20.303017
4368000000,-51.898071,-33.634914
4371000000,-52.110973,-46.422199
4374000000,-52.070499,-59.232761
4377000000,-52.143875,-73.077858
4380000000,-52.072426,-86.66362
4383000000,-52.056507,-99.96862
4386000000,-52.237118,-113.25377
4389000000,-52.262497,-126.62417
4392000000,-52.133331,-138.90836
4395000000,-51.983086,-152.67619
4398000000,-52.047882,-166.39738
4401000000,-52.128323,179.85226
4404000000,-52.200851,167.39491
4407000000,-52.010452,153.55351
4410000000,-52.020412,141.36008
4413000000,-51.905109,127.39938
4416000000,-51.983067,113.0461
4419000000,-52.062107,99.98188
4422000000,-52.031532,86.60334
4425000000,-52.0294,72.143791
4428000000,-51.972939,59.279648
4431000000,-52.005581,45.743999
4434000000,-52.118889,32.620838
4437000000,-52.236416,19.307589
4440000000,-52.155239,6.3501339
4443000000,-52.29705,-5.9409966
4446000000,-52.068378,-19.626499
4449000000,-51.99453,-32.669933
4452000000,-52.022942,-46.586044
4455000000,-51.955929,-59.801804
4458000000,-51.785103,-73.041512
4461000000,-51.767925,-86.802147
4464000000,-51.721737,-101.98995
4467000000,-51.708652,-114.87868
4470000000,-51.721813,-128.87653
4473000000,-51.901402,-142.34868
4476000000,-51.974514,-155.52097
4479000000,-51.766491,-169.27309
4482000000,-51.71796,177.1145
4485000000,-51.702942,163.63075
4488000000,-51.640732,149.0621
4491000000,-51.704338,135.20181
4494000000,-51.794773,121.10677
4497000000,-51.999969,107.58143
4500000000,-51.963245,95.544769
4503000000,-51.989944,81.84008
4506000000,-51.910496,68.591293
4509000000,-51.97493,54.755379
4512000000,-51.920647,41.55378
4515000000,-52.073509,27.027842
4518000000,-52.152977,13.436821
4521000000,-52.080971,0.95462662
4524000000,-52.033401,-12.477368
4527000000,-52.006893,-26.856899
4530000000,-52.069294,-38.904102
4533000000,-51.939262,-53.379364
4536000000,-52.156525,-67.71386
4539000000,-52.152916,-80.692848
4542000000,-52.289768,-94.903236
4545000000,-52.408844,-107.49813
4548000000,-52.432266,-120.6998
4551000000,-52.43298,-133.80742
4554000000,-52.450516,-147.51936
4557000000,-52.446609,-161.08331
4560000000,-52.651375,-174.78079
4563000000,-52.649731,172.15083
4566000000,-52.83073,160.10268
4569000000,-52.780304,146.60999
4572000000,-52.720512,134.14122
4575000000,-52.802185,121.16089
4578000000,-52.715214,107.68071
4581000000,-52.582382,95.029129
4584000000,-52.586063,81.155388
4587000000,-52.506672,67.173836
4590000000,-52.621712,54.421959
4593000000,-52.621277,40.932178
4596000000,-52.426182,28.678806
4599000000,-52.411678,14.944143
4602000000,-52.27248,2.0831847
4605000000,-52.410252,-11.625501
4608000000,-52.413948,-26.121511
4611000000,-52.439045,-39.605175
4614000000,-52.318745,-52.894932
4617000000,-52.384361,-66.637054
4620000000,-52.318455,-78.00634
4623000000,-52.247902,-92.795036
4626000000,-52.07745,-107.27213
4629000000,-52.162312,-121.11636
4632000000,-52.318523,-135.69046
4635000000,-52.293583,-148.7327
4638000000,-52.267319,-161.38187
4641000000,-52.240005,-174.43881
4644000000,-52.326073,171.93895
4647000000,-52.286282,157.68254
4650000000,-52.221897,144.67625
4653000000,-52.150925,132.42805
4656000000,-52.215176,117.42329
4659000000,-52.210781,103.65453
4662000000,-52.365494,89.707664
4665000000,-52.417488,76.515785
4668000000,-52.411423,63.245544
4671000000,-52.382118,50.393978
4674000000,-52.464897,37.191681
4677000000,-52.433212,22.8311
4680000000,-52.429298,10.356765
4683000000,-52.54081,-3.7885065
4686000000,-52.611908,-16.659222
4689000000,-52.578396,-29.761265
4692000000,-52.478565,-42.393242
4695000000,-52.424355,-56.296753
4698000000,-52.468021,-70.677109
4701000000,-52.312317,-84.23011
4704000000,-52.428772,-98.105988
4707000000,-52.439548,-111.08287
4710000000,-52.60033,-125.96138
4713000000,-52.751511,-137.11603
4716000000,-52.647209,-150.50023
4719000000,-52.55788,-163.12393
4722000000,-52.452316,-176.88737
4725000000,-52.535435,168.27437
4728000000,-52.467617,154.29956
4731000000,-52.592285,140.92125
4734000000,-52.582737,127.74562
4737000000,-52.541592,115.8196
4740000000,-52.562397,101.36864
4743000000,-52.456951,87.572182
4746000000,-52.512291,73.989059
4749000000,-52.53912,59.648823
4752000000,-52.549236,46.596889
4755000000,-52.674561,32.429081
4758000000,-52.705509,20.517805
4761000000,-52.622929,6.6096234
4764000000,-52.476288,-6.3993979
4767000000,-52.511635,-21.992277
4770000000,-52.464447,-36.085907
4773000000,-52.828381,-48.784271
4776000000,-52.777531,-61.103878
4779000000,-52.890022,-74.071541
4782000000,-52.924713,-87.490654
4785000000,-52.78157,-101.29317
4788000000,-52.723003,-115.42078
4791000000,-52.816196,-128.45464
4794000000,-52.96109,-142.31906
4797000000,-53.199871,-154.63298
4800000000,-53.134159,-166.95412
4803000000,-53.12928,-178.67448
4806000000,-53.094189,167.91258
4809000000,-52.742912,154.47926
4812000000,-52.634766,139.43156
4815000000,-52.826408,125.87244
4818000000,-53.136177,112.18659
4821000000,-53.131767,99.787247
4824000000,-53.050728,87.670364
4827000000,-52.897465,74.633263
4830000000,-52.680889,60.53783
4833000000,-52.603268,47.662468
4836000000,-52.423527,32.202797
4839000000,-52.749214,18.339388
