!CSV A.01.01
!Keysight Technologies,N5227B,US58420762,A.13.80.08
!Date: Monday, November 20, 2023 14:33:23
!Source: Standard

BEGIN CH1_DATA
Freq(Hz),S21(DB),S21(DEG)
3000000000,-53.919586,24.703253
3003000000,-53.887783,11.888668
3006000000,-53.636112,-0.99771166
3009000000,-53.58284,-15.475671
3012000000,-53.556072,-28.34886
3015000000,-53.674469,-42.662914
3018000000,-53.424809,-55.204975
3021000000,-53.367111,-67.97245
3024000000,-53.295723,-83.09639
3027000000,-53.252708,-96.443527
3030000000,-53.477913,-110.0211
3033000000,-53.456165,-123.03036
3036000000,-53.288921,-136.66118
3039000000,-53.447411,-150.18135
3042000000,-53.374382,-163.69215
3045000000,-53.492996,-178.05225
3048000000,-53.655174,168.61525
3051000000,-53.818657,155.15836
3054000000,-53.93671,142.08113
3057000000,-54.119965,129.73924
3060000000,-54.217106,117.87516
3063000000,-54.000938,104.72456
3066000000,-54.140968,91.540863
3069000000,-54.229088,78.765816
3072000000,-54.301094,66.382065
3075000000,-54.440613,54.337036
3078000000,-54.372326,41.158386
3081000000,-54.299782,29.466324
3084000000,-54.231045,16.429207
3087000000,-54.246326,3.4802375
3090000000,-54.256565,-10.276321
3093000000,-54.424561,-23.206038
3096000000,-54.449776,-34.59663
3099000000,-54.326283,-46.824684
3102000000,-54.232613,-59.352787
3105000000,-54.062233,-71.98774
3108000000,-53.950916,-85.08284
3111000000,-53.878407,-98.724686
3114000000,-53.907078,-111.59319
3117000000,-53.837067,-125.41308
3120000000,-53.846844,-138.71181
3123000000,-53.785824,-151.76431
3126000000,-53.676411,-164.73062
3129000000,-53.745129,-177.68175
3132000000,-53.778759,168.98853
3135000000,-53.675625,155.56868
3138000000,-53.781651,141.97951
3141000000,-53.739429,129.83072
3144000000,-53.80611,117.48774
3147000000,-53.515217,104.61511
3150000000,-53.55711,91.291496
3153000000,-53.606125,77.77729
3156000000,-53.520439,64.347427
3159000000,-53.536522,51.348778
3162000000,-53.480259,38.532959
3165000000,-53.420151,25.076574
3168000000,-53.244564,10.76157
3171000000,-53.231998,-2.6441884
3174000000,-53.37149,-16.868063
3177000000,-53.672672,-31.00773
3180000000,-53.777313,-43.602478
3183000000,-53.814651,-55.6716
3186000000,-53.821636,-68.226006
3189000000,-53.755798,-81.087578
3192000000,-53.696556,-95.260345
3195000000,-53.970577,-109.51872
3198000000,-54.144756,-121.23307
3201000000,-54.242184,-132.72279
3204000000,-54.170166,-144.91776
3207000000,-54.052925,-157.17784
3210000000,-53.969021,-169.8241
3213000000,-53.785339,175.29262
3216000000,-54.022366,162.70972
3219000000,-54.095638,149.4473
3222000000,-54.101696,138.49843
3225000000,-53.988556,125.65693
3228000000,-54.213509,113.40021
3231000000,-53.98447,101.45415
3234000000,-53.76683,87.278046
3237000000,-53.711689,74.374306
3240000000,-53.73447,61.054207
3243000000,-53.889496,47.373283
3246000000,-53.870888,35.011917
3249000000,-53.808331,21.440329
3252000000,-53.776474,9.7155561
3255000000,-53.778904,-4.5482326
3258000000,-53.721127,-17.357765
3261000000,-53.766239,-31.222755
3264000000,-53.940929,-44.634293
3267000000,-53.953079,-56.057175
3270000000,-54.072678,-68.904633
3273000000,-53.990471,-80.360641
3276000000,-53.655792,-93.594742
3279000000,-53.687634,-106.90334
3282000000,-53.697651,-120.50224
3285000000,-53.701462,-133.37169
3288000000,-53.736042,-145.59692
3291000000,-53.578888,-158.77394
3294000000,-53.538887,-172.22308
3297000000,-53.467609,174.66354
3300000000,-53.37553,161.63057
3303000000,-53.435505,148.26787
3306000000,-53.359047,135.06596
3309000000,-53.362255,121.38101
3312000000,-53.341457,107.63696
3315000000,-53.462318,94.509445
3318000000,-53.578934,82.379738
3321000000,-53.492355,69.870773
3324000000,-53.219139,56.70591
3327000000,-53.259518,41.668407
3330000000,-53.388893,27.994455
3333000000,-53.713692,15.206242
3336000000,-53.815605,3.8305194
3339000000,-53.847832,-8.1811218
3342000000,-53.811165,-20.058867
3345000000,-53.397507,-34.226662
3348000000,-53.355255,-48.009388
3351000000,-53.55315,-62.870449
3354000000,-53.665665,-76.028793
3357000000,-53.740631,-87.534485
3360000000,-54.06348,-99.511292
3363000000,-53.951633,-111.57767
3366000000,-53.69561,-123.38548
3369000000,-53.454159,-136.3531
3372000000,-53.417271,-151.41975
3375000000,-53.699612,-165.71011
3378000000,-53.956612,-176.42769
3381000000,-53.909893,171.50229
3384000000,-53.704853,160.51181
3387000000,-53.542206,147.29013
3390000000,-53.20306,133.61415
3393000000,-53.127739,119.74044
3396000000,-53.275333,105.91389
3399000000,-53.418056,92.330643
3402000000,-53.346848,79.434303
3405000000,-53.295795,66.93605
3408000000,-53.183926,54.71183
3411000000,-52.962879,41.035095
3414000000,-52.921555,27.685398
3417000000,-52.884323,13.101048
3420000000,-53.112442,-0.58184338
3423000000,-53.114998,-14.09939
3426000000,-53.185223,-25.980854
3429000000,-53.21595,-39.930313
3432000000,-53.224052,-52.33913
3435000000,-53.307842,-65.336098
3438000000,-53.21582,-77.721275
3441000000,-53.28252,-91.463295
3444000000,-53.31213,-104.98296
3447000000,-53.281109,-117.42527
3450000000,-53.324604,-131.42027
3453000000,-53.366978,-143.8365
3456000000,-53.398846,-156.41716
3459000000,-53.249134,-169.37384
3462000000,-53.220673,176.9982
3465000000,-53.305481,163.96964
3468000000,-53.553322,150.43539
3471000000,-53.475685,138.3082
3474000000,-53.50135,125.96403
3477000000,-53.539207,113.69995
3480000000,-53.606983,99.839813
3483000000,-53.423088,87.988014
3486000000,-53.456108,75.118927
3489000000,-53.391548,62.232033
3492000000,-53.443485,49.49966
3495000000,-53.347496,35.513783
3498000000,-53.38546,23.122562
3501000000,-53.273216,10.72679
3504000000,-53.207237,-2.1296299
3507000000,-53.148403,-16.523975
3510000000,-53.129993,-29.276934
3513000000,-53.121159,-42.676178
3516000000,-53.213573,-55.627472
3519000000,-53.140148,-69.076363
3522000000,-53.143723,-82.195267
3525000000,-53.056293,-95.471428
3528000000,-53.179268,-108.19313
3531000000,-53.13065,-121.79869
3534000000,-53.300793,-134.69742
3537000000,-53.333271,-147.3802
3540000000,-53.373569,-160.39053
3543000000,-53.346149,-172.8777
3546000000,-53.326664,174.38835
3549000000,-53.280849,161.46523
3552000000,-53.229935,148.8342
3555000000,-53.268555,135.84264
3558000000,-53.215694,122.50112
3561000000,-53.225792,109.30084
3564000000,-53.211361,96.00145
3567000000,-53.295952,83.025124
3570000000,-53.218079,70.114014
3573000000,-53.131615,57.683891
3576000000,-53.303684,44.357658
3579000000,-53.198627,31.4158
3582000000,-53.088818,18.755003
3585000000,-52.994175,5.6924744
3588000000,-53.076851,-7.7326193
3591000000,-53.090809,-21.91214
3594000000,-53.218044,-34.99448
3597000000,-53.245502,-48.288864
3600000000,-53.304153,-60.796402
3603000000,-53.359116,-72.719429
3606000000,-53.234615,-85.951424
3609000000,-53.029526,-99.685638
3612000000,-53.290436,-113.60428
3615000000,-53.335815,-126.25417
3618000000,-53.447712,-138.93851
3621000000,-53.43911,-151.57584
3624000000,-53.397797,-163.51999
3627000000,-53.267056,-175.73395
3630000000,-53.146458,170.39436
3633000000,-53.132511,156.39096
3636000000,-53.328217,143.44231
3639000000,-53.344181,130.75516
3642000000,-53.529308,118.70924
3645000000,-53.206902,105.22321
3648000000,-53.148315,93.108902
3651000000,-52.957825,79.985405
3654000000,-53.022892,66.05809
3657000000,-53.050915,51.755272
3660000000,-53.122799,38.963028
3663000000,-53.242939,25.969088
3666000000,-53.355522,13.396835
3669000000,-53.189762,1.3815341
3672000000,-53.015377,-12.827216
3675000000,-52.877796,-27.079878
3678000000,-53.161179,-41.554943
3681000000,-53.38839,-54.052544
3684000000,-53.5732,-66.155067
3687000000,-53.493973,-78.408607
3690000000,-53.573895,-90.133835
3693000000,-53.449039,-102.87981
3696000000,-53.433739,-117.35889
3699000000,-53.461014,-130.63551
3702000000,-53.732826,-143.65924
3705000000,-53.821201,-155.05725
3708000000,-53.931225,-166.52834
3711000000,-53.68499,-178.57272
3714000000,-53.540428,169.25946
3717000000,-53.33255,155.6747
3720000000,-53.22303,142.28085
3723000000,-53.333061,128.31912
3726000000,-53.293552,115.54643
3729000000,-53.355385,103.02673
3732000000,-53.244392,90.341171
3735000000,-53.196503,78.417358
3738000000,-53.00412,64.411598
3741000000,-52.915455,50.496582
3744000000,-52.919228,36.7878
3747000000,-53.097824,21.658171
3750000000,-53.162868,10.045526
3753000000,-53.326908,-2.4154339
3756000000,-53.436867,-14.193542
3759000000,-53.226799,-26.786486
3762000000,-53.126114,-38.473984
3765000000,-53.040108,-53.044037
3768000000,-53.106239,-67.514275
3771000000,-53.228687,-79.987885
3774000000,-53.14679,-92.521942
3777000000,-53.103279,-105.3764
3780000000,-52.997704,-117.9165
3783000000,-52.919922,-131.1129
3786000000,-52.746056,-144.98439
3789000000,-52.72541,-158.44424
3792000000,-52.696274,-172.55006
3795000000,-52.859085,172.72049
3798000000,-52.876324,158.81526
3801000000,-53.200512,145.14279
3804000000,-53.192631,133.69244
3807000000,-53.318352,121.57775
3810000000,-53.128529,109.3279
3813000000,-53.133835,95.325089
3816000000,-53.225967,81.411041
3819000000,-53.478268,67.457115
3822000000,-53.49292,55.395626
3825000000,-53.582378,43.785507
3828000000,-53.727837,31.865313
3831000000,-53.726044,19.514227
3834000000,-53.605904,6.3122606
3837000000,-53.594669,-5.7351289
3840000000,-53.712292,-17.993387
3843000000,-53.688175,-30.114574
3846000000,-53.630028,-42.320282
3849000000,-53.445045,-54.662796
3852000000,-53.182743,-67.148544
3855000000,-53.096878,-81.223869
3858000000,-53.002975,-94.749336
3861000000,-52.878502,-109.19823
3864000000,-52.95792,-122.47751
3867000000,-53.056828,-135.71819
3870000000,-53.127571,-147.96841
3873000000,-53.057053,-159.70506
3876000000,-53.040787,-172.34406
3879000000,-52.837296,175.10754
3882000000,-52.465908,160.2393
3885000000,-52.462582,146.13121
3888000000,-52.658157,131.71457
3891000000,-52.79916,119.50296
3894000000,-52.77597,106.70827
3897000000,-52.651054,93.803444
3900000000,-52.546806,80.271179
3903000000,-52.451305,66.734451
3906000000,-52.635014,52.596104
3909000000,-52.790508,38.719856
3912000000,-52.989941,26.470394
3915000000,-52.86953,13.142348
3918000000,-52.937832,1.1925038
3921000000,-52.832142,-11.610679
3924000000,-52.695526,-24.703859
3927000000,-52.757771,-39.692966
3930000000,-52.829712,-52.801533
3933000000,-52.974678,-66.200279
3936000000,-53.169952,-79.323524
3939000000,-53.339592,-90.398895
3942000000,-53.253853,-103.74396
3945000000,-53.050156,-116.15095
3948000000,-52.990776,-129.56425
3951000000,-53.050743,-143.37082
3954000000,-53.062813,-156.09274
3957000000,-53.17844,-168.98776
3960000000,-53.20834,179.81261
3963000000,-52.892117,166.85582
3966000000,-52.938969,152.73688
3969000000,-52.886299,139.24892
3972000000,-53.014523,124.11769
3975000000,-53.188957,112.45857
3978000000,-53.285694,99.869652
3981000000,-53.299129,87.36348
3984000000,-53.203297,75.484154
3987000000,-52.977531,62.218216
3990000000,-52.77248,48.923031
3993000000,-52.805031,34.444691
3996000000,-52.851425,20.38216
3999000000,-53.085098,7.2331653
4002000000,-53.247459,-4.256031
4005000000,-53.222725,-16.713032
4008000000,-53.041714,-29.312546
4011000000,-52.932995,-42.513584
4014000000,-52.907364,-56.253208
4017000000,-52.99712,-70.611717
4020000000,-53.058048,-82.796379
4023000000,-53.140793,-95.37146
4026000000,-53.065704,-108.03647
4029000000,-52.92646,-122.58078
4032000000,-52.958237,-135.10986
4035000000,-52.976143,-147.95299
4038000000,-53.034515,-162.13083
4041000000,-53.152134,-175.42824
4044000000,-53.133652,170.10974
4047000000,-53.227898,158.08594
4050000000,-53.291931,145.08379
4053000000,-53.381516,130.93475
4056000000,-53.509029,119.67786
4059000000,-53.533028,107.27484
4062000000,-53.48489,95.508362
4065000000,-53.355389,82.101845
4068000000,-53.504345,69.032562
4071000000,-53.457012,55.870796
4074000000,-53.619717,42.966805
4077000000,-53.454521,31.614067
4080000000,-53.499771,16.570368
4083000000,-53.374779,5.9803014
4086000000,-53.384766,-7.2412601
4089000000,-53.248062,-19.601561
4092000000,-53.099377,-33.119816
4095000000,-53.05759,-46.869934
4098000000,-53.027397,-59.926311
4101000000,-53.239807,-73.999573
4104000000,-53.154488,-87.220268
4107000000,-53.265392,-100.11991
4110000000,-53.078487,-112.71521
4113000000,-53.064178,-125.4977
4116000000,-52.889687,-139.81145
4119000000,-53.035675,-153.71313
4122000000,-53.147251,-167.73912
4125000000,-53.266994,179.2382
4128000000,-53.210873,167.3322
4131000000,-53.364357,153.62401
4134000000,-53.420124,141.73503
4137000000,-53.341324,128.15944
4140000000,-53.499523,114.97713
4143000000,-53.408764,103.29657
4146000000,-53.449387,90.394226
4149000000,-53.488277,77.713097
4152000000,-53.464481,64.4217
4155000000,-53.470512,51.779766
4158000000,-53.489136,37.622154
4161000000,-53.256863,25.618303
4164000000,-53.321358,11.54905
4167000000,-53.28093,-1.2140299
4170000000,-53.326984,-14.558046
4173000000,-53.456306,-27.132954
4176000000,-53.378147,-39.381958
4179000000,-53.310829,-52.26049
4182000000,-53.220989,-66.320793
4185000000,-53.301903,-81.358505
4188000000,-53.322281,-94.228943
4191000000,-53.514954,-107.21435
4194000000,-53.445381,-119.50047
4197000000,-53.489712,-132.43192
4200000000,-53.421795,-145.96841
4203000000,-53.396191,-160.69296
4206000000,-53.658276,-173.2919
4209000000,-53.721832,175.28352
4212000000,-53.787125,161.33449
4215000000,-53.735603,148.89008
4218000000,-53.832703,136.55692
4221000000,-53.934872,123.9136
4224000000,-53.784504,111.71904
4227000000,-53.7048,98.340797
4230000000,-53.733898,84.351227
4233000000,-53.794586,72.397324
4236000000,-53.927322,58.467224
4239000000,-53.786774,45.812195
4242000000,-53.915131,34.178066
4245000000,-53.742325,21.230333
4248000000,-53.652828,7.99435
4251000000,-53.744923,-5.7907681
4254000000,-53.749191,-18.93115
4257000000,-53.723091,-32.433674
4260000000,-53.778713,-43.315598
4263000000,-53.729397,-56.12315
4266000000,-53.666477,-69.660347
4269000000,-53.737812,-82.698235
4272000000,-53.73872,-95.882072
4275000000,-53.853672,-109.07298
4278000000,-53.717644,-121.26371
4281000000,-53.677315,-134.39555
4284000000,-53.665333,-147.82793
4287000000,-53.53413,-160.84233
4290000000,-53.346832,-173.80727
4293000000,-53.391502,171.63298
4296000000,-53.381275,159.15672
4299000000,-53.513073,146.48621
4302000000,-53.474186,133.32947
4305000000,-53.27813,118.87372
4308000000,-53.369442,105.84315
4311000000,-53.242538,92.814079
4314000000,-53.434814,78.651291
4317000000,-53.689636,66.181
4320000000,-53.767563,52.202404
4323000000,-53.811001,40.271568
4326000000,-53.81604,27.477924
4329000000,-53.845646,14.208337
4332000000,-53.750889,-0.01470113
4335000000,-53.84,-13.637322
4338000000,-53.884285,-25.44232
4341000000,-54.026154,-37.763119
4344000000,-53.964466,-51.497955
4347000000,-53.922211,-63.694508
4350000000,-54.118744,-75.918976
4353000000,-54.130981,-88.426537
4356000000,-53.993557,-100.66074
4359000000,-53.933533,-113.8438
4362000000,-53.842476,-127.80213
4365000000,-53.81638,-142.64319
4368000000,-54.008877,-153.38361
4371000000,-53.788242,-167.76262
4374000000,-53.976822,179.09282
4377000000,-53.870419,165.9985
4380000000,-54.090492,152.38364
4383000000,-54.179337,138.38226
4386000000,-53.968956,126.83649
4389000000,-54.346786,113.78989
4392000000,-54.267075,101.3453
4395000000,-54.127514,89.219803
4398000000,-54.2798,75.44558
4401000000,-54.166168,61.688187
4404000000,-54.288025,50.775375
4407000000,-54.196896,35.605816
4410000000,-54.244007,23.744827
4413000000,-54.196472,12.428442
4416000000,-54.161346,-0.55155212
4419000000,-54.057632,-13.949189
4422000000,-53.928555,-26.971754
4425000000,-54.01564,-41.452927
4428000000,-54.012936,-55.389919
4431000000,-54.201454,-68.220078
4434000000,-54.07296,-80.486053
4437000000,-53.934532,-93.246185
4440000000,-53.945343,-107.11993
4443000000,-53.891666,-120.64114
4446000000,-54.087761,-133.29865
4449000000,-53.989731,-147.48248
4452000000,-54.089211,-160.32349
4455000000,-54.203114,-173.9807
4458000000,-54.222282,173.44878
4461000000,-54.238384,160.67509
4464000000,-54.153278,146.7621
4467000000,-54.318153,133.24242
4470000000,-54.424812,121.25933
4473000000,-54.514561,108.70882
4476000000,-54.554695,96.854347
4479000000,-54.537453,83.896118
4482000000,-54.457024,71.009354
4485000000,-54.382572,58.566856
4488000000,-54.25354,45.375343
4491000000,-54.272415,31.258907
4494000000,-54.44733,19.05261
4497000000,-54.368893,5.7254639
4500000000,-54.348732,-7.3043156
4503000000,-54.390259,-19.030132
4506000000,-54.150173,-32.73568
4509000000,-54.078819,-46.908939
4512000000,-54.14109,-60.256252
4515000000,-54.028542,-73.536263
4518000000,-54.084263,-86.717583
4521000000,-54.435539,-100.69461
4524000000,-54.402855,-114.53246
4527000000,-54.441204,-125.40751
4530000000,-54.510605,-137.96986
4533000000,-54.327847,-151.201
4536000000,-54.419361,-164.45476
4539000000,-54.336246,-178.13272
4542000000,-54.521931,167.57434
4545000000,-54.493938,156.4073
4548000000,-54.716255,144.26198
4551000000,-54.888577,131.49222
4554000000,-54.440731,118.93233
4557000000,-54.41853,106.40154
4560000000,-54.274876,91.471054
4563000000,-54.385258,77.791245
4566000000,-54.394382,65.6763
4569000000,-54.542095,51.87339
4572000000,-54.564701,39.104031
4575000000,-54.625568,26.297787
4578000000,-54.477089,13.008604
4581000000,-54.533489,0.74082261
4584000000,-54.638477,-12.86242
4587000000,-54.462971,-27.093065
4590000000,-54.553833,-40.207161
4593000000,-54.492096,-51.92075
4596000000,-54.687477,-64.467682
4599000000,-54.677887,-77.960266
4602000000,-54.562054,-90.594551
4605000000,-54.524452,-103.0266
4608000000,-54.546982,-116.63253
4611000000,-54.586349,-131.03561
4614000000,-54.546242,-143.70546
4617000000,-54.665649,-156.63614
4620000000,-54.694057,-169.33308
4623000000,-54.556717,177.83685
4626000000,-54.427933,163.59111
4629000000,-54.694336,151.05908
4632000000,-54.651737,135.50491
4635000000,-54.682472,123.44768
4638000000,-55.060688,109.76123
4641000000,-55.086838,98.904274
4644000000,-55.046467,85.405548
4647000000,-55.047028,72.715034
4650000000,-54.991703,60.104156
4653000000,-54.966106,47.276974
4656000000,-55.024826,34.586479
4659000000,-54.998924,22.519722
4662000000,-55.197132,10.291855
4665000000,-54.996597,-3.3253045
4668000000,-54.916588,-16.491272
4671000000,-54.791813,-29.360538
4674000000,-54.963123,-41.89748
4677000000,-54.706425,-56.002434
4680000000,-54.752979,-70.355583
4683000000,-54.695499,-83.334702
4686000000,-54.916862,-94.514114
4689000000,-54.933262,-107.75589
4692000000,-54.963612,-119.86211
4695000000,-54.780361,-134.04781
4698000000,-54.767357,-148.56084
4701000000,-54.90873,-162.51567
4704000000,-54.973152,-175.79469
4707000000,-55.17083,173.11784
4710000000,-55.136417,161.35742
4713000000,-55.122322,149.21516
4716000000,-54.667259,135.62834
4719000000,-54.930691,121.65888
4722000000,-54.581127,108.75913
4725000000,-54.802006,93.227684
4728000000,-54.923222,79.395348
4731000000,-54.970982,68.327568
4734000000,-55.022907,55.772686
4737000000,-54.841751,42.978622
4740000000,-54.953499,29.340899
4743000000,-54.653309,16.451973
4746000000,-54.729851,0.23832539
4749000000,-54.881577,-13.237642
4752000000,-55.140247,-23.81135
4755000000,-55.119263,-37.870991
4758000000,-55.361744,-51.75568
4761000000,-55.293472,-64.014656
4764000000,-55.410034,-77.577118
4767000000,-55.443771,-90.309715
4770000000,-55.528564,-102.57803
4773000000,-55.52652,-114.23775
4776000000,-55.619606,-126.90763
4779000000,-55.65118,-141.03545
4782000000,-55.616795,-152.50684
4785000000,-55.48661,-166.23994
4788000000,-55.610764,-178.45102
4791000000,-55.615726,168.85135
4794000000,-55.701962,155.83932
4797000000,-55.659538,143.72371
4800000000,-55.438381,130.64769
4803000000,-55.387489,118.30164
4806000000,-55.280804,104.86793
4809000000,-55.116135,91.376015
4812000000,-55.147572,78.711105
4815000000,-55.254509,64.006836
4818000000,-55.388725,50.811451
4821000000,-55.369728,36.732189
4824000000,-55.392399,24.634949
4827000000,-55.414345,13.127494
4830000000,-55.444157,0.49866757
4833000000,-55.680058,-13.519939
4836000000,-55.648716,-27.014858
4839000000,-55.52636,-40.148693
