!CSV A.01.01
!Keysight Technologies,N5227B,US58420762,A.13.80.08
!Date: Monday, November 20, 2023 15:28:20
!Source: Standard

BEGIN CH1_DATA
Time(s),S21(DB),S21(DEG)
1e-008,-121.39514,104.06885
1.001e-008,-121.71681,118.75874
1.002e-008,-122.03043,133.55724
1.003e-008,-122.33341,148.49481
1.004e-008,-122.62218,163.60994
1.005e-008,-122.8961,178.93694
1.006e-008,-123.15022,-165.48055
1.007e-008,-123.3817,-149.61008
1.008e-008,-123.58764,-133.42236
1.009e-008,-123.76347,-116.88803
1.01e-008,-123.90495,-99.986877
1.011e-008,-124.00636,-82.736145
1.012e-008,-124.06387,-65.124245
1.013e-008,-124.07159,-47.196472
1.014e-008,-124.02476,-28.979578
1.015e-008,-123.92326,-10.54318
1.016e-008,-123.7627,8.0532341
1.017e-008,-123.54789,26.742224
1.018e-008,-123.28358,45.44556
1.019e-008,-122.97285,64.103561
1.02e-008,-122.62636,82.666603
1.021e-008,-122.25209,101.08789
1.022e-008,-121.85735,119.35817
1.023e-008,-121.45288,137.44884
1.024e-008,-121.04446,155.35686
1.025e-008,-120.63934,173.08305
1.026e-008,-120.24332,-169.35118
1.027e-008,-119.8605,-151.94981
1.028e-008,-119.49545,-134.70033
1.029e-008,-119.15125,-117.58569
1.03e-008,-118.82997,-100.59358
1.031e-008,-118.53444,-83.714935
1.032e-008,-118.26505,-66.933495
1.033e-008,-118.0239,-50.246033
1.034e-008,-117.81239,-33.639843
1.035e-008,-117.63022,-17.109552
1.036e-008,-117.47986,-0.64775866
1.037e-008,-117.36121,15.751019
1.038e-008,-117.27435,32.092182
1.039e-008,-117.2211,48.382706
1.04e-008,-117.20148,64.619965
1.041e-008,-117.21704,80.807968
1.042e-008,-117.26797,96.9505
1.043e-008,-117.3558,113.04342
1.044e-008,-117.48177,129.09047
1.045e-008,-117.64708,145.08833
1.046e-008,-117.85313,161.03654
1.047e-008,-118.1021,176.92805
1.048e-008,-118.39623,-167.23969
1.049e-008,-118.73783,-151.47083
1.05e-008,-119.13012,-135.7812
1.051e-008,-119.57645,-120.17885
1.052e-008,-120.08121,-104.67886
1.053e-008,-120.64944,-89.30162
1.054e-008,-121.28699,-74.083466
1.055e-008,-122.00101,-59.052254
1.056e-008,-122.80093,-44.264668
1.057e-008,-123.69657,-29.802376
1.058e-008,-124.70093,-15.768228
1.059e-008,-125.82858,-2.3286235
1.06e-008,-127.09547,10.280988
1.061e-008,-128.5126,21.658903
1.062e-008,-130.07791,31.20048
1.063e-008,-131.73915,38.029659
1.064e-008,-133.32498,41.052277
1.065e-008,-134.4599,39.933186
1.066e-008,-134.71938,36.809357
1.067e-008,-134.10617,35.70565
1.068e-008,-133.04083,38.811123
1.069e-008,-131.90369,45.800079
1.07e-008,-130.87059,55.591141
1.071e-008,-129.99939,67.3162
1.072e-008,-129.29832,80.356956
1.073e-008,-128.75708,94.350716
1.074e-008,-128.36584,109.07288
1.075e-008,-128.11559,124.37821
1.076e-008,-127.99902,140.20328
1.077e-008,-128.01379,156.51059
1.078e-008,-128.15747,173.3149
1.079e-008,-128.43341,-169.32303
1.08e-008,-128.84576,-151.29802
1.081e-008,-129.39787,-132.42717
1.082e-008,-130.09116,-112.45015
1.083e-008,-130.91791,-90.934273
1.084e-008,-131.83603,-67.286674
1.085e-008,-132.73485,-40.80471
1.086e-008,-133.39511,-11.07865
1.087e-008,-133.50877,21.118933
1.088e-008,-132.91072,53.371037
1.089e-008,-131.75745,83.264351
1.09e-008,-130.34877,109.94672
1.091e-008,-128.90927,133.82721
1.092e-008,-127.54902,155.61546
1.093e-008,-126.3045,175.92081
1.094e-008,-125.18355,-164.81381
1.095e-008,-124.17976,-146.31142
1.096e-008,-123.28363,-128.36598
1.097e-008,-122.48547,-110.83601
1.098e-008,-121.7765,-93.633224
1.099e-008,-121.14812,-76.689278
1.1e-008,-120.59504,-59.95652
1.101e-008,-120.11065,-43.40147
1.102e-008,-119.69056,-26.995407
1.103e-008,-119.33145,-10.726126
1.104e-008,-119.0302,5.4243793
1.105e-008,-118.78423,21.460934
1.106e-008,-118.59154,37.387642
1.107e-008,-118.45099,53.20644
1.108e-008,-118.36134,68.918434
1.109e-008,-118.32199,84.516541
1.11e-008,-118.33231,99.997147
1.111e-008,-118.39273,115.34669
1.112e-008,-118.50298,130.55719
1.113e-008,-118.66381,145.60631
1.114e-008,-118.87556,160.47461
1.115e-008,-119.13921,175.1346
1.116e-008,-119.4549,-170.44963
1.117e-008,-119.82332,-156.32042
1.118e-008,-120.24378,-142.53601
1.119e-008,-120.71498,-129.1586
1.12e-008,-121.23352,-116.27303
1.121e-008,-121.79229,-103.97816
1.122e-008,-122.3793,-92.382835
1.123e-008,-122.97462,-81.604912
1.124e-008,-123.5484,-71.737228
1.125e-008,-124.05997,-62.821518
1.126e-008,-124.4583,-54.781879
1.127e-008,-124.69671,-47.39653
1.128e-008,-124.74197,-40.270267
1.129e-008,-124.59229,-32.956997
1.13e-008,-124.27484,-25.043304
1.131e-008,-123.83737,-16.282026
1.132e-008,-123.32988,-6.5667977
1.133e-008,-122.79606,4.0748568
1.134e-008,-122.26732,15.551865
1.135e-008,-121.7663,27.755476
1.136e-008,-121.30597,40.571911
1.137e-008,-120.89478,53.898911
1.138e-008,-120.53684,67.653236
1.139e-008,-120.23513,81.764252
1.14e-008,-119.98978,96.181068
1.141e-008,-119.80147,110.85091
1.142e-008,-119.67058,125.74731
1.143e-008,-119.59741,140.83859
1.144e-008,-119.58163,156.10548
1.145e-008,-119.62447,171.53012
1.146e-008,-119.72681,-172.8954
1.147e-008,-119.89014,-157.17931
1.148e-008,-120.11707,-141.323
1.149e-008,-120.40947,-125.32159
1.15e-008,-120.77197,-109.17124
1.151e-008,-121.20873,-92.855026
1.152e-008,-121.72614,-76.351219
1.153e-008,-122.33187,-59.628304
1.154e-008,-123.03587,-42.632629
1.155e-008,-123.84994,-25.296797
1.156e-008,-124.78967,-7.5101681
1.157e-008,-125.87475,10.902732
1.158e-008,-127.12899,30.20492
1.159e-008,-128.57414,50.847252
1.16e-008,-130.2236,73.576218
1.161e-008,-132.03345,99.645401
1.162e-008,-133.78014,130.76544
1.163e-008,-134.8902,167.55923
1.164e-008,-134.7437,-153.83133
1.165e-008,-133.55984,-119.36565
1.166e-008,-132.0379,-90.634682
1.167e-008,-130.59074,-66.15815
1.168e-008,-129.34436,-44.377052
1.169e-008,-128.30785,-24.286572
1.17e-008,-127.46507,-5.2882395
1.171e-008,-126.79518,12.977922
1.172e-008,-126.27934,30.736217
1.173e-008,-125.90352,48.116383
1.174e-008,-125.6592,65.216736
1.175e-008,-125.53991,82.0979
1.176e-008,-125.54402,98.811813
1.177e-008,-125.67373,115.3734
1.178e-008,-125.93488,131.80815
1.179e-008,-126.33869,148.12656
1.18e-008,-126.90166,164.3241
1.181e-008,-127.65271,-179.6003
1.182e-008,-128.63268,-163.68718
1.183e-008,-129.91016,-147.98088
1.184e-008,-131.60213,-132.61896
1.185e-008,-133.93498,-117.919
1.186e-008,-137.42497,-104.87623
1.187e-008,-143.73514,-98.996643
1.188e-008,-151.79272,174.50865
1.189e-008,-140.51756,146.13214
1.19e-008,-135.23489,156.02164
1.191e-008,-131.90022,169.73712
1.192e-008,-129.47742,-175.45258
1.193e-008,-127.58702,-160.19392
1.194e-008,-126.05465,-144.71278
1.195e-008,-124.78043,-129.11627
1.196e-008,-123.70549,-113.44974
1.197e-008,-122.79075,-97.749969
1.198e-008,-122.00961,-82.030952
1.199e-008,-121.34456,-66.311127
1.2e-008,-120.7807,-50.598454
1.201e-008,-120.30824,-34.903259
1.202e-008,-119.92031,-19.233095
1.203e-008,-119.61156,-3.5938339
1.204e-008,-119.37785,12.005118
1.205e-008,-119.21628,27.555557
1.206e-008,-119.12663,43.046913
1.207e-008,-119.10777,58.465797
1.208e-008,-119.16071,73.798668
1.209e-008,-119.28688,89.023857
1.21e-008,-119.48955,104.11745
1.211e-008,-119.77261,119.04896
1.212e-008,-120.14181,133.77524
1.213e-008,-120.60433,148.235
1.214e-008,-121.16832,162.34735
1.215e-008,-121.84547,175.99513
1.216e-008,-122.64799,-171.00098
1.217e-008,-123.58822,-158.90215
1.218e-008,-124.67323,-148.11453
1.219e-008,-125.89131,-139.26106
1.22e-008,-127.17307,-133.22873
1.221e-008,-128.32292,-130.9669
1.222e-008,-128.96733,-132.47623
1.223e-008,-128.7513,-135.35788
1.224e-008,-127.74208,-135.97757
1.225e-008,-126.34034,-132.64018
1.226e-008,-124.87713,-125.76605
1.227e-008,-123.50362,-116.34252
1.228e-008,-122.26778,-105.18392
1.229e-008,-121.174,-92.844101
1.23e-008,-120.21217,-79.689133
1.231e-008,-119.36918,-65.954659
1.232e-008,-118.63215,-51.796417
1.233e-008,-117.9903,-37.323582
1.234e-008,-117.43455,-22.60771
1.235e-008,-116.95749,-7.7089829
1.236e-008,-116.55318,7.3369741
1.237e-008,-116.21664,22.499657
1.238e-008,-115.94436,37.753582
1.239e-008,-115.73329,53.081692
1.24e-008,-115.58158,68.46965
1.241e-008,-115.4876,83.905418
1.242e-008,-115.45058,99.379265
1.243e-008,-115.47049,114.88184
1.244e-008,-115.54768,130.40622
1.245e-008,-115.6834,145.94434
1.246e-008,-115.87898,161.49101
1.247e-008,-116.13712,177.03876
1.248e-008,-116.46123,-167.41927
1.249e-008,-116.8562,-151.89171
1.25e-008,-117.32744,-136.38367
1.251e-008,-117.8831,-120.91308
1.252e-008,-118.53326,-105.48681
1.253e-008,-119.29089,-90.128334
1.254e-008,-120.17509,-74.863007
1.255e-008,-121.2108,-59.731884
1.256e-008,-122.43488,-44.79771
1.257e-008,-123.90223,-30.177555
1.258e-008,-125.70233,-16.082865
1.259e-008,-127.99212,-2.9860303
1.26e-008,-131.06982,7.8944411
1.261e-008,-135.59183,12.059332
1.262e-008,-141.81523,-14.867509
1.263e-008,-138.62662,-68.796135
1.264e-008,-133.31213,-73.141617
1.265e-008,-129.90115,-64.442261
1.266e-008,-127.52338,-52.245461
1.267e-008,-125.74767,-38.671974
1.268e-008,-124.37039,-24.44591
1.269e-008,-123.27662,-9.8717651
1.27e-008,-122.39971,4.9007568
1.271e-008,-121.69545,19.78623
1.272e-008,-121.13548,34.725067
1.273e-008,-120.6995,49.685204
1.274e-008,-120.37352,64.631523
1.275e-008,-120.1476,79.54467
1.276e-008,-120.01369,94.393494
1.277e-008,-119.96721,109.15762
1.278e-008,-120.00539,123.81038
1.279e-008,-120.12551,138.3279
1.28e-008,-120.32728,152.66992
1.281e-008,-120.61051,166.79277
1.282e-008,-120.97686,-179.35454
1.283e-008,-121.42678,-165.84235
1.284e-008,-121.9622,-152.75665
1.285e-008,-122.58318,-140.22227
1.286e-008,-123.28687,-128.37781
1.287e-008,-124.06394,-117.43006
1.288e-008,-124.89559,-107.6258
1.289e-008,-125.74014,-99.220665
1.29e-008,-126.53135,-92.436417
1.291e-008,-127.16553,-87.284836
1.292e-008,-127.53223,-83.374123
1.293e-008,-127.55794,-79.871788
1.294e-008,-127.25726,-75.754837
1.295e-008,-126.72234,-70.317566
1.296e-008,-126.06638,-63.30574
1.297e-008,-125.38164,-54.816959
1.298e-008,-124.7286,-45.110397
1.299e-008,-124.14088,-34.45792
1.3e-008,-123.63567,-23.101738
1.301e-008,-123.21924,-11.238377
1.302e-008,-122.89309,0.96937186
1.303e-008,-122.65849,13.385622
1.304e-008,-122.51168,25.883369
1.305e-008,-122.45128,38.371346
1.306e-008,-122.47469,50.734154
1.307e-008,-122.57722,62.872704
1.308e-008,-122.75301,74.659134
1.309e-008,-122.99389,85.97538
1.31e-008,-123.284,96.682465
1.311e-008,-123.60257,106.63917
1.312e-008,-123.91502,115.72321
1.313e-008,-124.17554,123.88656
1.314e-008,-124.32994,131.1994
1.315e-008,-124.32405,137.91815
1.316e-008,-124.12453,144.44894
1.317e-008,-123.7308,151.29263
1.318e-008,-123.17616,158.87164
1.319e-008,-122.51221,167.43869
1.32e-008,-121.79321,177.06758
1.321e-008,-121.06349,-172.27927
1.322e-008,-120.35484,-160.71877
1.323e-008,-119.68851,-148.36118
1.324e-008,-119.07653,-135.33118
1.325e-008,-118.52664,-121.72267
1.326e-008,-118.04318,-107.61863
1.327e-008,-117.62756,-93.08223
1.328e-008,-117.28101,-78.155525
1.329e-008,-117.00414,-62.872677
1.33e-008,-116.79727,-47.250835
1.331e-008,-116.66084,-31.29587
1.332e-008,-116.59566,-15.005183
1.333e-008,-116.60261,1.6429298
1.334e-008,-116.68269,18.681107
1.335e-008,-116.83663,36.160164
1.336e-008,-117.06459,54.149513
1.337e-008,-117.36454,72.750183
1.338e-008,-117.7318,92.087082
1.339e-008,-118.15456,112.32726
1.34e-008,-118.61047,133.65736
1.341e-008,-119.05991,156.27632
1.342e-008,-119.44042,-179.68958
1.343e-008,-119.66812,-154.29619
1.344e-008,-119.65681,-127.91412
1.345e-008,-119.35284,-101.23225
1.346e-008,-118.767,-75.041916
1.347e-008,-117.96649,-49.94128
1.348e-008,-117.04008,-26.189537
1.349e-008,-116.06435,-3.7639363
1.35e-008,-115.09303,17.499283
1.351e-008,-114.15851,37.80051
1.352e-008,-113.2781,57.331787
1.353e-008,-112.45984,76.249107
1.354e-008,-111.70638,94.679962
1.355e-008,-111.01718,112.71936
1.356e-008,-110.39098,130.44678
1.357e-008,-109.82544,147.91795
1.358e-008,-109.31818,165.18013
1.359e-008,-108.86687,-177.73233
1.36e-008,-108.46957,-160.79111
1.361e-008,-108.12437,-143.97426
1.362e-008,-107.82993,-127.26403
1.363e-008,-107.58486,-110.64718
1.364e-008,-107.38852,-94.111938
1.365e-008,-107.2402,-77.650154
1.366e-008,-107.1396,-61.254818
1.367e-008,-107.08681,-44.921211
1.368e-008,-107.08205,-28.644657
1.369e-008,-107.12606,-12.423428
1.37e-008,-107.21987,3.7442884
1.371e-008,-107.3649,19.857582
1.372e-008,-107.56283,35.916035
1.373e-008,-107.81607,51.917427
1.374e-008,-108.12755,67.856407
1.375e-008,-108.50069,83.727509
1.376e-008,-108.94002,99.522438
1.377e-008,-109.451,115.22813
1.378e-008,-110.04043,130.82803
1.379e-008,-110.71671,146.29932
1.38e-008,-111.49067,161.61053
1.381e-008,-112.37611,176.71402
1.382e-008,-113.39105,-168.46063
1.383e-008,-114.55936,-154.0172
1.384e-008,-115.91331,-140.13048
1.385e-008,-117.49709,-127.09315
1.386e-008,-119.3698,-115.43732
1.387e-008,-121.60285,-106.22204
1.388e-008,-124.22531,-101.65593
1.389e-008,-126.92179,-105.92599
1.39e-008,-128.26888,-121.03589
1.391e-008,-127.13156,-134.37251
1.392e-008,-125.05557,-136.43835
1.393e-008,-123.20058,-130.75185
1.394e-008,-121.76398,-121.08932
1.395e-008,-120.70667,-109.3459
1.396e-008,-119.96871,-96.444427
1.397e-008,-119.50809,-82.867218
1.398e-008,-119.30093,-68.899811
1.399e-008,-119.33918,-54.736706
1.4e-008,-119.63113,-40.53545
1.401e-008,-120.20429,-26.455416
1.402e-008,-121.1123,-12.728865
1.403e-008,-122.45382,0.2498789
1.404e-008,-124.41116,11.61423
1.405e-008,-127.34022,18.908766
1.406e-008,-131.73293,12.593882
1.407e-008,-133.78394,-31.399233
1.408e-008,-128.56998,-56.349995
1.409e-008,-124.14884,-53.990894
1.41e-008,-120.97622,-44.156036
1.411e-008,-118.56212,-31.69755
1.412e-008,-116.64126,-18.059233
1.413e-008,-115.0701,-3.808862
1.414e-008,-113.7643,10.786082
1.415e-008,-112.67173,25.578463
1.416e-008,-111.75864,40.47612
1.417e-008,-111.00244,55.414089
1.418e-008,-110.38837,70.342255
1.419e-008,-109.9072,85.211006
1.42e-008,-109.5541,99.971252
1.421e-008,-109.3276,114.56284
1.422e-008,-109.22967,128.91383
1.423e-008,-109.26527,142.92375
1.424e-008,-109.44221,156.4538
1.425e-008,-109.77022,169.29852
1.426e-008,-110.25838,-178.85258
1.427e-008,-110.90739,-168.47787
1.428e-008,-111.68942,-160.29906
1.429e-008,-112.49893,-155.28954
1.43e-008,-113.07224,-154.24605
1.431e-008,-112.9922,-156.42181
1.432e-008,-112.01586,-158.59117
1.433e-008,-110.37914,-157.50192
1.434e-008,-108.49718,-152.38034
1.435e-008,-106.63333,-144.01433
1.436e-008,-104.89155,-133.37491
1.437e-008,-103.29739,-121.18513
1.438e-008,-101.84708,-107.92115
1.439e-008,-100.52781,-93.88842
1.44e-008,-99.325661,-79.286827
1.441e-008,-98.227837,-64.24765
1.442e-008,-97.223473,-48.859646
1.443e-008,-96.30352,-33.182743
1.444e-008,-95.460464,-17.258057
1.445e-008,-94.68811,-1.1129135
1.446e-008,-93.9814,15.23568
1.447e-008,-93.336082,31.778234
1.448e-008,-92.748581,48.511566
1.449e-008,-92.215874,65.438034
1.45e-008,-91.735283,82.565376
1.451e-008,-91.304359,99.905769
1.452e-008,-90.920715,117.47655
1.453e-008,-90.581818,135.30009
1.454e-008,-90.284782,153.40399
1.455e-008,-90.026039,171.82133
1.456e-008,-89.801025,-169.40994
1.457e-008,-89.60363,-150.24754
1.458e-008,-89.425697,-130.64709
1.459e-008,-89.256409,-110.56605
1.46e-008,-89.081825,-89.970551
1.461e-008,-88.884674,-68.844406
1.462e-008,-88.644875,-47.201832
1.463e-008,-88.341202,-25.098867
1.464e-008,-87.95401,-2.6413312
1.465e-008,-87.46891,20.018751
1.466e-008,-86.879791,42.700371
1.467e-008,-86.190331,65.220421
1.468e-008,-85.412842,87.421982
1.469e-008,-84.565331,109.19284
1.47e-008,-83.667816,130.47098
1.471e-008,-82.739456,151.23804
1.472e-008,-81.796692,171.5078
1.473e-008,-80.852646,-168.68622
1.474e-008,-79.917122,-149.30054
1.475e-008,-78.997147,-130.28882
1.476e-008,-78.097473,-111.60593
1.477e-008,-77.221161,-93.210228
1.478e-008,-76.370018,-75.064476
1.479e-008,-75.544952,-57.136078
1.48e-008,-74.746277,-39.396748
1.481e-008,-73.973862,-21.822186
1.482e-008,-73.227303,-4.3915701
1.483e-008,-72.506035,12.912904
1.484e-008,-71.809357,30.106504
1.485e-008,-71.136536,47.202286
1.486e-008,-70.486809,64.211502
1.487e-008,-69.859398,81.143791
1.488e-008,-69.253563,98.0075
1.489e-008,-68.668564,114.80985
1.49e-008,-68.103706,131.55713
1.491e-008,-67.558319,148.25481
1.492e-008,-67.031776,164.90765
1.493e-008,-66.523483,-178.48016
1.494e-008,-66.03286,-161.90492
1.495e-008,-65.559387,-145.36339
1.496e-008,-65.102562,-128.85272
1.497e-008,-64.661919,-112.37032
1.498e-008,-64.237015,-95.913956
1.499e-008,-63.827438,-79.481613
1.5e-008,-63.432804,-63.071476
1.501e-008,-63.052738,-46.681957
1.502e-008,-62.686909,-30.311598
1.503e-008,-62.334988,-13.959093
1.504e-008,-61.996677,2.3767054
1.505e-008,-61.671692,18.696857
1.506e-008,-61.359764,35.002308
1.507e-008,-61.06065,51.293915
1.508e-008,-60.774105,67.572456
1.509e-008,-60.499912,83.838631
1.51e-008,-60.237865,100.09307
1.511e-008,-59.987766,116.33636
1.512e-008,-59.749428,132.56902
1.513e-008,-59.522686,148.79149
1.514e-008,-59.307373,165.00424
1.515e-008,-59.103333,-178.79234
1.516e-008,-58.910431,-162.59796
1.517e-008,-58.728523,-146.41222
1.518e-008,-58.557491,-130.23489
1.519e-008,-58.397217,-114.0657
1.52e-008,-58.247585,-97.904419
1.521e-008,-58.108494,-81.750839
1.522e-008,-57.979851,-65.60479
1.523e-008,-57.861568,-49.466095
1.524e-008,-57.753555,-33.334629
1.525e-008,-57.655735,-17.210262
1.526e-008,-57.568043,-1.0928941
1.527e-008,-57.49041,15.017568
1.528e-008,-57.422775,31.12118
1.529e-008,-57.365089,47.218006
1.53e-008,-57.317295,63.30809
1.531e-008,-57.279354,79.391449
1.532e-008,-57.251221,95.468094
1.533e-008,-57.232864,111.53802
1.534e-008,-57.224255,127.60124
1.535e-008,-57.225365,143.65768
1.536e-008,-57.236172,159.70734
1.537e-008,-57.256657,175.75014
1.538e-008,-57.286812,-168.21399
1.539e-008,-57.326626,-152.18512
1.54e-008,-57.376091,-136.16331
1.541e-008,-57.435207,-120.14871
1.542e-008,-57.503983,-104.14143
1.543e-008,-57.58242,-88.141586
1.544e-008,-57.670536,-72.149323
1.545e-008,-57.768337,-56.164814
1.546e-008,-57.875851,-40.188213
1.547e-008,-57.993095,-24.219713
1.548e-008,-58.120098,-8.2595196
1.549e-008,-58.256893,7.692153
1.55e-008,-58.403511,23.635073
1.551e-008,-58.559994,39.568993
1.552e-008,-58.726387,55.493645
1.553e-008,-58.902729,71.408745
1.554e-008,-59.089077,87.313995
1.555e-008,-59.285484,103.20906
1.556e-008,-59.492012,119.09361
1.557e-008,-59.708717,134.96727
1.558e-008,-59.935673,150.82967
1.559e-008,-60.172947,166.68036
1.56e-008,-60.42062,-177.48106
1.561e-008,-60.678768,-161.65506
1.562e-008,-60.947479,-145.84215
1.563e-008,-61.226837,-130.04283
1.564e-008,-61.516937,-114.25765
1.565e-008,-61.817879,-98.487221
1.566e-008,-62.129765,-82.732132
1.567e-008,-62.452702,-66.993042
1.568e-008,-62.786804,-51.270664
1.569e-008,-63.132183,-35.565727
1.57e-008,-63.488964,-19.878992
1.571e-008,-63.857273,-4.2112956
1.572e-008,-64.237244,11.436495
1.573e-008,-64.629013,27.063461
1.574e-008,-65.032715,42.668629
1.575e-008,-65.448509,58.250977
1.576e-008,-65.876541,73.809402
1.577e-008,-66.316963,89.342766
1.578e-008,-66.769951,104.84987
1.579e-008,-67.235664,120.32941
1.58e-008,-67.714279,135.78004
1.581e-008,-68.205978,151.20038
1.582e-008,-68.710945,166.58888
1.583e-008,-69.229378,-178.05598
1.584e-008,-69.761475,-162.73592
1.585e-008,-70.307449,-147.45261
1.586e-008,-70.867508,-132.2079
1.587e-008,-71.441879,-117.00371
1.588e-008,-72.030792,-101.842
1.589e-008,-72.634506,-86.724876
1.59e-008,-73.253281,-71.654503
1.591e-008,-73.88739,-56.633144
1.592e-008,-74.537132,-41.663155
1.593e-008,-75.202827,-26.746986
1.594e-008,-75.884827,-11.88715
1.595e-008,-76.583519,2.9136477
1.596e-008,-77.299339,17.652716
1.597e-008,-78.032776,32.32711
1.598e-008,-78.784386,46.933842
1.599e-008,-79.554802,61.469681
1.6e-008,-80.344795,75.931168
1.601e-008,-81.155243,90.314575
1.602e-008,-81.987175,104.61577
1.603e-008,-82.841873,118.82991
1.604e-008,-83.720833,132.95158
1.605e-008,-84.625885,146.97412
1.606e-008,-85.559235,160.88939
1.607e-008,-86.523582,174.68704
1.608e-008,-87.522217,-171.64621
1.609e-008,-88.559174,-158.12819
1.61e-008,-89.639366,-144.78256
1.611e-008,-90.768852,-131.64244
1.612e-008,-91.955009,-118.75375
1.613e-008,-93.206825,-106.1821
1.614e-008,-94.534996,-94.022728
1.615e-008,-95.951904,-82.417526
